!File name = EG0520U_1010_6x60_2SDBCB2EV_1915934D06_RC2952_3Vd_27mA.s2p
!Base file name = EG0520U_1010_6x60_2SDBCB2EV_1915934D06_RC2952
!Date = 8/23/2019
!Time = 1:14 PM
!Test duration(min) = 0.15
!Test = S-Parameters
!MPTS version = 8.91.5
!State File = C:\Data\PNA\20190821205423\S-Parameters_2019-08-23.sta
!Cal File = 
!ComputerName = CMPE-LAB-6
!Comments = 
!Attenuation = 0
!Z0 = 50
!Input Power(dBm) = -13.00
!Device ID = EG0520U_1010_6x60_2SDBCB2EV
!Row = 29
!Column = 52
!Technology = QPHT09
!Lot/Wafer = 1915934D06
!Gate Size = 360
!Mask = EG0520
!Cal Standards = GaAs BCB
!Cal Kit = EG2306
!Job Number = 20190821205423
!Device Type = FET
!set_Vg(v) = -1.500
!set_Vd(v) = 3.000
!set_Vd(mA) = 27.000
!file_name = EG0520U_1010_6x60_2SDBCB2EV_1915934D06_RC2952_3Vd_27mA.s2p
!Vd(V) = 3.000
!Vd(mA) = 26.895
!Vg(V) = -0.553
!Vg(mA) = -0.002
# GHz   S   DB   R   50
!%	Freq(GHz)	     s11(dB)	    s11(deg)	     s21(dB)	    s21(deg)	     s12(dB)	    s12(deg)	     s22(dB)	    s22(deg)
	0.500000000	      -0.045	     -13.814	      21.044	     171.543	     -38.207	      81.401	      -8.532	     -14.780
	1.000000000	      -0.131	     -27.358	      20.688	     163.157	     -32.403	      74.129	      -8.540	     -28.445
	1.500000000	      -0.169	     -40.218	      20.372	     156.287	     -29.223	      66.984	      -8.460	     -41.586
	2.000000000	      -0.322	     -52.068	      20.114	     148.865	     -27.185	      60.234	      -8.426	     -54.483
	2.500000000	      -0.418	     -63.127	      19.710	     142.579	     -25.783	      54.572	      -8.521	     -64.922
	3.000000000	      -0.814	     -70.682	      19.046	     137.384	     -24.945	      50.218	      -8.880	     -69.332
	3.500000000	      -0.935	     -79.455	      18.536	     132.298	     -24.157	      45.761	      -8.906	     -77.360
	4.000000000	      -1.041	     -87.214	      18.002	     127.828	     -23.556	      41.814	      -8.921	     -84.437
	4.500000000	      -1.162	     -94.126	      17.457	     123.560	     -23.104	      38.186	      -8.931	     -90.959
	5.000000000	      -1.239	    -100.314	      16.928	     119.917	     -22.744	      35.063	      -8.956	     -96.494
	5.500000000	      -1.320	    -105.954	      16.413	     116.460	     -22.469	      32.328	      -8.991	    -101.397
	6.000000000	      -1.388	    -111.002	      15.908	     113.328	     -22.235	      29.829	      -8.983	    -105.644
	6.500000000	      -1.440	    -115.500	      15.417	     110.520	     -22.050	      27.566	      -8.978	    -109.439
	7.000000000	      -1.492	    -119.574	      14.944	     107.858	     -21.898	      25.534	      -8.965	    -112.762
	7.500000000	      -1.529	    -123.272	      14.482	     105.413	     -21.776	      23.687	      -8.948	    -115.816
	8.000000000	      -1.547	    -126.391	      14.057	     103.268	     -21.657	      22.163	      -8.959	    -117.833
	8.500000000	      -1.581	    -129.512	      13.629	     101.141	     -21.570	      20.575	      -8.944	    -120.269
	9.000000000	      -1.614	    -132.301	      13.209	      99.150	     -21.497	      19.076	      -8.919	    -122.416
	9.500000000	      -1.639	    -134.943	      12.816	      97.200	     -21.439	      17.646	      -8.890	    -124.358
	10.000000000	      -1.657	    -137.371	      12.432	      95.388	     -21.410	      16.316	      -8.864	    -126.228
	10.500000000	      -1.683	    -139.646	      12.061	      93.620	     -21.386	      15.206	      -8.844	    -127.843
	11.000000000	      -1.696	    -141.703	      11.706	      92.001	     -21.360	      14.129	      -8.812	    -129.230
	11.500000000	      -1.717	    -143.655	      11.357	      90.406	     -21.341	      13.090	      -8.774	    -130.570
	12.000000000	      -1.729	    -145.479	      11.026	      88.895	     -21.334	      12.175	      -8.729	    -131.751
	12.500000000	      -1.736	    -147.190	      10.704	      87.434	     -21.328	      11.241	      -8.676	    -132.974
	13.000000000	      -1.745	    -148.795	      10.391	      85.993	     -21.325	      10.347	      -8.629	    -134.077
	13.500000000	      -1.758	    -150.327	      10.086	      84.623	     -21.340	       9.474	      -8.579	    -134.981
	14.000000000	      -1.768	    -151.781	       9.790	      83.295	     -21.358	       8.769	      -8.529	    -135.833
	14.500000000	      -1.774	    -153.095	       9.503	      81.997	     -21.380	       8.080	      -8.484	    -136.754
	15.000000000	      -1.778	    -154.283	       9.223	      80.752	     -21.395	       7.476	      -8.440	    -137.544
	15.500000000	      -1.783	    -155.452	       8.951	      79.524	     -21.398	       6.936	      -8.386	    -138.205
	16.000000000	      -1.787	    -156.616	       8.688	      78.316	     -21.401	       6.235	      -8.323	    -138.844
	16.500000000	      -1.789	    -157.750	       8.430	      77.131	     -21.422	       5.575	      -8.264	    -139.472
	17.000000000	      -1.788	    -158.805	       8.182	      75.979	     -21.456	       4.984	      -8.211	    -140.037
	17.500000000	      -1.794	    -159.766	       7.934	      74.840	     -21.478	       4.456	      -8.147	    -140.688
	18.000000000	      -1.803	    -160.714	       7.697	      73.728	     -21.514	       3.871	      -8.086	    -141.302
	18.500000000	      -1.804	    -161.639	       7.464	      72.644	     -21.539	       3.329	      -8.020	    -141.795
	19.000000000	      -1.802	    -162.538	       7.233	      71.557	     -21.585	       2.816	      -7.960	    -142.283
	19.500000000	      -1.801	    -163.383	       7.010	      70.512	     -21.644	       2.422	      -7.907	    -142.755
	20.000000000	      -1.805	    -164.161	       6.794	      69.492	     -21.694	       2.188	      -7.853	    -143.191
	20.500000000	      -1.808	    -164.919	       6.587	      68.465	     -21.705	       1.961	      -7.784	    -143.575
	21.000000000	      -1.809	    -165.664	       6.377	      67.449	     -21.715	       1.468	      -7.711	    -144.033
	21.500000000	      -1.800	    -166.438	       6.172	      66.436	     -21.753	       1.043	      -7.643	    -144.422
	22.000000000	      -1.797	    -167.065	       5.970	      65.465	     -21.799	       0.515	      -7.579	    -144.814
	22.500000000	      -1.790	    -167.725	       5.773	      64.458	     -21.825	       0.077	      -7.519	    -145.232
	23.000000000	      -1.789	    -168.383	       5.577	      63.482	     -21.866	      -0.364	      -7.451	    -145.727
	23.500000000	      -1.792	    -169.094	       5.382	      62.553	     -21.974	      -0.842	      -7.389	    -146.227
	24.000000000	      -1.794	    -169.727	       5.197	      61.651	     -22.053	      -0.876	      -7.337	    -146.542
	24.500000000	      -1.786	    -170.209	       5.019	      60.714	     -22.072	      -0.872	      -7.276	    -146.765
	25.000000000	      -1.770	    -170.697	       4.841	      59.757	     -22.081	      -1.102	      -7.212	    -146.999
	25.500000000	      -1.765	    -171.301	       4.663	      58.842	     -22.129	      -1.386	      -7.137	    -147.367
	26.000000000	      -1.767	    -171.985	       4.483	      57.930	     -22.152	      -1.770	      -7.052	    -147.799
	26.500000000	      -1.765	    -172.521	       4.308	      57.031	     -22.207	      -2.231	      -6.980	    -148.133
	27.000000000	      -1.758	    -172.944	       4.137	      56.159	     -22.265	      -2.694	      -6.921	    -148.422
	27.500000000	      -1.767	    -173.360	       3.966	      55.377	     -22.389	      -2.730	      -6.882	    -148.704
	28.000000000	      -1.769	    -173.896	       3.810	      54.539	     -22.487	      -2.614	      -6.810	    -149.030
	28.500000000	      -1.752	    -174.312	       3.661	      53.632	     -22.470	      -2.431	      -6.729	    -149.327
	29.000000000	      -1.738	    -174.787	       3.498	      52.718	     -22.479	      -2.648	      -6.661	    -149.714
	29.500000000	      -1.731	    -175.174	       3.342	      51.864	     -22.510	      -3.047	      -6.590	    -149.975
	30.000000000	      -1.728	    -175.634	       3.185	      51.064	     -22.582	      -3.274	      -6.537	    -150.260
	30.500000000	      -1.726	    -176.109	       3.033	      50.218	     -22.615	      -3.532	      -6.473	    -150.601
	31.000000000	      -1.716	    -176.580	       2.881	      49.418	     -22.685	      -3.632	      -6.418	    -150.921
	31.500000000	      -1.704	    -176.977	       2.741	      48.626	     -22.816	      -3.452	      -6.361	    -151.221
	32.000000000	      -1.700	    -177.290	       2.595	      47.786	     -22.823	      -3.344	      -6.295	    -151.494
	32.500000000	      -1.710	    -177.745	       2.450	      46.892	     -22.796	      -3.515	      -6.214	    -151.695
	33.000000000	      -1.707	    -178.206	       2.305	      46.110	     -22.812	      -3.605	      -6.152	    -152.045
	33.500000000	      -1.696	    -178.598	       2.158	      45.337	     -22.870	      -4.006	      -6.093	    -152.439
	34.000000000	      -1.684	    -178.898	       2.016	      44.520	     -22.929	      -4.290	      -6.028	    -152.843
	34.500000000	      -1.682	    -179.277	       1.868	      43.710	     -23.004	      -4.596	      -5.948	    -153.139
	35.000000000	      -1.683	    -179.637	       1.726	      42.977	     -23.083	      -4.776	      -5.891	    -153.548
	35.500000000	      -1.670	     179.999	       1.606	      42.244	     -23.142	      -4.286	      -5.844	    -153.761
	36.000000000	      -1.655	     179.645	       1.481	      41.363	     -23.136	      -4.146	      -5.774	    -154.057
	36.500000000	      -1.642	     179.362	       1.345	      40.538	     -23.164	      -4.747	      -5.702	    -154.403
	37.000000000	      -1.638	     179.050	       1.204	      39.768	     -23.201	      -4.765	      -5.649	    -154.684
	37.500000000	      -1.642	     178.632	       1.067	      39.029	     -23.263	      -5.040	      -5.602	    -155.005
	38.000000000	      -1.645	     178.278	       0.924	      38.312	     -23.351	      -5.399	      -5.539	    -155.286
	38.500000000	      -1.641	     177.969	       0.787	      37.661	     -23.469	      -5.593	      -5.480	    -155.682
	39.000000000	      -1.633	     177.795	       0.672	      37.020	     -23.567	      -5.262	      -5.423	    -155.972
	39.500000000	      -1.622	     177.598	       0.557	      36.310	     -23.596	      -5.103	      -5.352	    -156.294
	40.000000000	      -1.612	     177.174	       0.448	      35.510	     -23.596	      -4.859	      -5.284	    -156.611
	40.500000000	      -1.606	     176.764	       0.321	      34.757	     -23.625	      -5.086	      -5.218	    -156.886
	41.000000000	      -1.588	     176.482	       0.203	      33.990	     -23.693	      -5.338	      -5.165	    -157.344
	41.500000000	      -1.573	     176.303	       0.081	      33.262	     -23.696	      -5.265	      -5.132	    -157.587
	42.000000000	      -1.578	     175.991	      -0.038	      32.536	     -23.777	      -5.594	      -5.069	    -157.716
	42.500000000	      -1.588	     175.596	      -0.163	      31.837	     -23.877	      -5.725	      -5.007	    -157.875
	43.000000000	      -1.584	     175.355	      -0.270	      31.238	     -24.010	      -4.818	      -4.945	    -158.158
	43.500000000	      -1.565	     175.148	      -0.387	      30.393	     -23.992	      -4.707	      -4.892	    -158.512
	44.000000000	      -1.571	     174.851	      -0.511	      29.666	     -24.036	      -4.620	      -4.821	    -158.966
	44.500000000	      -1.581	     174.424	      -0.635	      28.950	     -24.018	      -5.024	      -4.766	    -159.301
	45.000000000	      -1.593	     174.138	      -0.758	      28.296	     -24.044	      -5.483	      -4.706	    -159.640
	45.500000000	      -1.543	     173.774	      -1.041	      27.782	     -24.323	      -5.299	      -4.575	    -160.585
	46.000000000	      -1.523	     173.614	      -1.159	      27.183	     -24.396	      -5.655	      -4.536	    -160.972
	46.500000000	      -1.510	     173.244	      -1.264	      26.587	     -24.502	      -5.326	      -4.464	    -161.098
	47.000000000	      -1.504	     172.954	      -1.364	      25.879	     -24.521	      -5.114	      -4.417	    -161.344
	47.500000000	      -1.499	     172.661	      -1.473	      25.170	     -24.571	      -4.212	      -4.361	    -161.622
	48.000000000	      -1.481	     172.364	      -1.596	      24.557	     -24.499	      -4.405	      -4.321	    -161.775
	48.500000000	      -1.478	     172.067	      -1.712	      23.998	     -24.623	      -4.872	      -4.283	    -162.071
	49.000000000	      -1.490	     171.925	      -1.819	      23.376	     -24.672	      -4.470	      -4.215	    -162.246
	49.500000000	      -1.497	     171.675	      -1.920	      22.768	     -24.682	      -4.114	      -4.153	    -162.606
	50.000000000	      -1.481	     171.390	      -2.016	      22.261	     -24.830	      -4.567	      -4.101	    -162.801
	50.500000000	      -1.476	     171.151	      -2.087	      21.543	     -24.809	      -4.965	      -4.076	    -163.328
	51.000000000	      -1.456	     170.911	      -2.209	      20.934	     -24.837	      -3.487	      -4.049	    -163.628
	51.500000000	      -1.463	     170.740	      -2.311	      20.211	     -24.798	      -3.187	      -3.991	    -163.969
	52.000000000	      -1.439	     170.531	      -2.413	      19.459	     -24.835	      -3.575	      -3.935	    -164.224
	52.500000000	      -1.433	     170.163	      -2.520	      18.818	     -24.842	      -4.084	      -3.892	    -164.358
	53.000000000	      -1.435	     169.826	      -2.637	      18.164	     -24.783	      -4.345	      -3.843	    -164.527
	53.500000000	      -1.437	     169.645	      -2.742	      17.613	     -24.892	      -4.167	      -3.791	    -164.881
	54.000000000	      -1.418	     169.517	      -2.844	      17.051	     -24.889	      -4.109	      -3.723	    -165.155
	54.500000000	      -1.419	     169.083	      -2.948	      16.547	     -25.068	      -3.442	      -3.676	    -165.439
	55.000000000	      -1.428	     168.702	      -3.032	      15.862	     -25.054	      -3.658	      -3.637	    -165.683
	55.500000000	      -1.419	     168.393	      -3.124	      15.265	     -24.984	      -4.450	      -3.595	    -165.980
	56.000000000	      -1.404	     168.204	      -3.217	      14.587	     -25.132	      -4.558	      -3.550	    -166.546
	56.500000000	      -1.418	     167.905	      -3.335	      13.923	     -24.923	      -3.535	      -3.568	    -167.065
	57.000000000	      -1.424	     167.821	      -3.441	      13.384	     -25.176	      -4.176	      -3.515	    -167.230
	57.500000000	      -1.414	     167.657	      -3.556	      12.787	     -25.404	      -4.895	      -3.487	    -167.563
	58.000000000	      -1.403	     167.632	      -3.646	      12.291	     -25.560	      -4.921	      -3.449	    -167.817
	58.500000000	      -1.374	     167.434	      -3.728	      11.742	     -25.510	      -4.578	      -3.413	    -167.997
	59.000000000	      -1.348	     167.041	      -3.818	      11.127	     -25.518	      -3.599	      -3.343	    -168.220
	59.500000000	      -1.373	     166.824	      -3.912	      10.330	     -25.488	      -5.546	      -3.282	    -168.454
	60.000000000	      -1.364	     166.775	      -4.009	       9.974	     -25.509	      -4.937	      -3.337	    -168.872
	60.500000000	      -1.341	     166.596	      -4.110	       9.306	     -25.969	      -4.129	      -3.297	    -169.039
	61.000000000	      -1.290	     166.325	      -4.213	       8.901	     -25.759	      -3.467	      -3.272	    -169.221
	61.500000000	      -1.285	     166.057	      -4.294	       8.455	     -25.668	      -3.395	      -3.243	    -169.291
	62.000000000	      -1.270	     165.781	      -4.338	       7.871	     -26.179	      -4.526	      -3.231	    -169.471
	62.500000000	      -1.296	     165.429	      -4.428	       7.145	     -25.979	      -3.643	      -3.201	    -169.671
	63.000000000	      -1.254	     165.025	      -4.513	       6.461	     -26.046	      -2.222	      -3.165	    -169.677
	63.500000000	      -1.256	     164.904	      -4.576	       5.887	     -25.666	      -1.520	      -3.101	    -169.981
	64.000000000	      -1.251	     165.034	      -4.646	       5.075	     -25.874	      -2.383	      -3.031	    -169.936
	64.500000000	      -1.237	     164.888	      -4.726	       4.504	     -25.608	      -0.477	      -3.002	    -169.860
	65.000000000	      -1.248	     164.501	      -4.817	       3.507	     -25.409	      -3.221	      -2.957	    -170.113
	65.500000000	      -1.231	     163.966	      -4.930	       2.810	     -25.362	      -3.410	      -2.910	    -170.821
	66.000000000	      -1.228	     163.744	      -5.050	       2.013	     -25.959	      -2.303	      -2.889	    -171.407
	66.500000000	      -1.245	     163.583	      -5.190	       1.163	     -25.604	      -2.775	      -2.840	    -171.265
	67.000000000	      -1.304	     163.167	      -5.279	       0.705	     -25.465	      -2.976	      -2.848	    -171.425
	67.500000000	      -1.293	     162.567	      -5.447	      -0.318	     -25.704	      -2.776	      -2.846	    -171.782
	68.000000000	      -1.342	     162.363	      -5.542	      -0.971	     -25.730	      -2.972	      -2.871	    -172.077
	68.500000000	      -1.385	     162.132	      -5.632	      -1.447	     -25.727	      -3.109	      -2.823	    -172.188
	69.000000000	      -1.416	     161.984	      -5.767	      -1.956	     -25.755	      -3.531	      -2.758	    -172.424
	69.500000000	      -1.408	     161.811	      -5.871	      -2.344	     -25.812	      -3.595	      -2.742	    -172.564
	70.000000000	      -1.385	     161.658	      -5.971	      -2.845	     -25.883	      -3.198	      -2.715	    -172.648
	70.500000000	      -1.365	     161.528	      -6.066	      -3.259	     -25.867	      -2.905	      -2.676	    -172.766
	71.000000000	      -1.355	     161.371	      -6.128	      -3.651	     -25.877	      -3.361	      -2.638	    -172.947
	71.500000000	      -1.303	     161.320	      -6.239	      -4.123	     -25.848	      -3.696	      -2.573	    -173.180
	72.000000000	      -1.308	     160.948	      -6.355	      -4.722	     -25.832	      -4.365	      -2.578	    -173.413
	72.500000000	      -1.324	     160.541	      -6.455	      -5.368	     -25.879	      -4.886	      -2.553	    -173.740
	73.000000000	      -1.355	     160.395	      -6.559	      -5.919	     -25.998	      -5.665	      -2.513	    -173.895
	73.500000000	      -1.379	     160.279	      -6.671	      -6.448	     -26.192	      -5.825	      -2.445	    -174.195
	74.000000000	      -1.386	     160.040	      -6.779	      -6.847	     -26.323	      -5.220	      -2.441	    -174.727
	74.500000000	      -1.422	     159.757	      -6.861	      -7.262	     -26.397	      -4.748	      -2.462	    -174.962
	75.000000000	      -1.463	     159.695	      -6.964	      -7.834	     -26.485	      -4.642	      -2.448	    -175.070
	75.500000000	      -1.503	     159.738	      -7.086	      -8.334	     -26.706	      -4.305	      -2.448	    -175.173
	76.000000000	      -1.512	     159.879	      -7.209	      -8.687	     -27.016	      -2.548	      -2.451	    -175.254
	76.500000000	      -1.496	     160.069	      -7.335	      -8.805	     -27.166	       1.052	      -2.437	    -175.138
	77.000000000	      -1.461	     160.122	      -7.405	      -8.796	     -26.817	       5.089	      -2.379	    -175.055
	77.500000000	      -1.378	     160.027	      -7.432	      -8.773	     -26.197	       7.065	      -2.299	    -175.180
	78.000000000	      -1.302	     159.755	      -7.431	      -9.106	     -25.574	       6.742	      -2.261	    -175.241
	78.500000000	      -1.255	     159.206	      -7.455	      -9.862	     -25.156	       4.864	      -2.226	    -175.594
	79.000000000	      -1.284	     158.604	      -7.523	     -10.701	     -24.946	       2.658	      -2.160	    -175.882
	79.500000000	      -1.315	     158.220	      -7.589	     -11.488	     -24.788	       0.696	      -2.115	    -176.096
