!File name = EG0520U_1010_6x60_2SDBCB2EV_1915934D06_RC4034_Vg_N1.5V_Vd_0v.s2p
!Base file name = EG0520U_1010_6x60_2SDBCB2EV_1915934D06_RC4034
!Date = 8/23/2019
!Time = 12:55 PM
!Test duration(min) = 0.15
!Test = S-Parameters
!MPTS version = 8.91.5
!State File = C:\Data\PNA\20190821205423\S-Parameters_2019-08-23.sta
!Cal File = 
!ComputerName = CMPE-LAB-6
!Comments = 
!Attenuation = 0
!Z0 = 50
!Input Power(dBm) = -13.00
!Device ID = EG0520U_1010_6x60_2SDBCB2EV
!Row = 40
!Column = 34
!Technology = QPHT09
!Lot/Wafer = 1915934D06
!Gate Size = 360
!Mask = EG0520
!Cal Standards = GaAs BCB
!Cal Kit = EG2306
!Job Number = 20190821205423
!Device Type = FET
!set_Vg(v) = -1.500
!set_Vd(v) = 0.000
!file_name = EG0520U_1010_6x60_2SDBCB2EV_1915934D06_RC4034_Vg_N1.5V_Vd_0v.s2p
!Vd(V) = 0.000
!Vd(mA) = 0.002
!Vg(V) = -1.500
!Vg(mA) = -0.001
# GHz   S   DB   R   50
!%	Freq(GHz)	     s11(dB)	    s11(deg)	     s21(dB)	    s21(deg)	     s12(dB)	    s12(deg)	     s22(dB)	    s22(deg)
	0.500000000	      -0.004	      -4.081	     -29.312	      85.773	     -29.314	      85.868	      -0.003	      -3.671
	1.000000000	      -0.018	      -8.171	     -23.332	      82.163	     -23.334	      82.185	      -0.017	      -7.318
	1.500000000	      -0.037	     -12.225	     -19.865	      78.462	     -19.870	      78.466	      -0.035	     -10.938
	2.000000000	      -0.064	     -16.234	     -17.438	      74.770	     -17.443	      74.779	      -0.062	     -14.520
	2.500000000	      -0.100	     -20.191	     -15.595	      71.164	     -15.600	      71.152	      -0.095	     -18.063
	3.000000000	      -0.227	     -23.304	     -14.460	      66.710	     -14.468	      66.733	      -0.210	     -20.845
	3.500000000	      -0.286	     -26.978	     -13.264	      63.364	     -13.276	      63.310	      -0.267	     -24.119
	4.000000000	      -0.351	     -30.562	     -12.265	      60.003	     -12.276	      60.003	      -0.327	     -27.325
	4.500000000	      -0.421	     -34.068	     -11.410	      56.680	     -11.423	      56.695	      -0.391	     -30.471
	5.000000000	      -0.495	     -37.474	     -10.678	      53.480	     -10.691	      53.493	      -0.458	     -33.532
	5.500000000	      -0.567	     -40.805	     -10.043	      50.322	     -10.054	      50.307	      -0.527	     -36.525
	6.000000000	      -0.643	     -44.042	      -9.490	      47.284	      -9.502	      47.284	      -0.596	     -39.437
	6.500000000	      -0.718	     -47.165	      -9.010	      44.324	      -9.019	      44.312	      -0.665	     -42.266
	7.000000000	      -0.793	     -50.198	      -8.584	      41.447	      -8.596	      41.432	      -0.734	     -45.009
	7.500000000	      -0.863	     -53.158	      -8.211	      38.669	      -8.221	      38.649	      -0.799	     -47.677
	8.000000000	      -0.923	     -55.821	      -7.902	      36.153	      -7.913	      36.147	      -0.863	     -50.077
	8.500000000	      -0.995	     -58.587	      -7.610	      33.499	      -7.621	      33.489	      -0.929	     -52.597
	9.000000000	      -1.065	     -61.251	      -7.356	      30.921	      -7.365	      30.912	      -0.992	     -55.044
	9.500000000	      -1.129	     -63.822	      -7.127	      28.452	      -7.138	      28.434	      -1.051	     -57.406
	10.000000000	      -1.189	     -66.339	      -6.928	      26.050	      -6.938	      26.035	      -1.108	     -59.692
	10.500000000	      -1.244	     -68.770	      -6.748	      23.714	      -6.759	      23.669	      -1.160	     -61.908
	11.000000000	      -1.298	     -71.109	      -6.590	      21.471	      -6.602	      21.451	      -1.205	     -64.088
	11.500000000	      -1.349	     -73.381	      -6.449	      19.216	      -6.461	      19.206	      -1.249	     -66.195
	12.000000000	      -1.394	     -75.605	      -6.331	      17.136	      -6.343	      17.073	      -1.288	     -68.247
	12.500000000	      -1.438	     -77.755	      -6.228	      15.048	      -6.239	      15.026	      -1.327	     -70.292
	13.000000000	      -1.473	     -79.815	      -6.135	      13.043	      -6.149	      13.008	      -1.363	     -72.279
	13.500000000	      -1.506	     -81.847	      -6.055	      11.084	      -6.068	      11.047	      -1.391	     -74.163
	14.000000000	      -1.538	     -83.850	      -5.988	       9.157	      -6.000	       9.143	      -1.416	     -75.996
	14.500000000	      -1.564	     -85.765	      -5.930	       7.300	      -5.943	       7.273	      -1.439	     -77.835
	15.000000000	      -1.585	     -87.578	      -5.885	       5.501	      -5.895	       5.437	      -1.461	     -79.635
	15.500000000	      -1.603	     -89.362	      -5.843	       3.741	      -5.855	       3.671	      -1.478	     -81.369
	16.000000000	      -1.622	     -91.148	      -5.810	       2.017	      -5.821	       1.942	      -1.489	     -83.057
	16.500000000	      -1.640	     -92.876	      -5.786	       0.332	      -5.799	       0.251	      -1.501	     -84.703
	17.000000000	      -1.651	     -94.550	      -5.767	      -1.315	      -5.780	      -1.402	      -1.509	     -86.320
	17.500000000	      -1.661	     -96.153	      -5.760	      -2.931	      -5.772	      -3.006	      -1.519	     -87.948
	18.000000000	      -1.673	     -97.718	      -5.754	      -4.493	      -5.769	      -4.538	      -1.525	     -89.505
	18.500000000	      -1.679	     -99.267	      -5.752	      -6.011	      -5.767	      -6.062	      -1.525	     -91.021
	19.000000000	      -1.681	    -100.760	      -5.755	      -7.505	      -5.770	      -7.592	      -1.524	     -92.501
	19.500000000	      -1.678	    -102.233	      -5.765	      -8.977	      -5.779	      -9.067	      -1.523	     -93.950
	20.000000000	      -1.673	    -103.664	      -5.782	     -10.472	      -5.798	     -10.513	      -1.521	     -95.351
	20.500000000	      -1.672	    -105.080	      -5.802	     -11.864	      -5.818	     -11.905	      -1.509	     -96.775
	21.000000000	      -1.668	    -106.450	      -5.825	     -13.214	      -5.839	     -13.257	      -1.499	     -98.195
	21.500000000	      -1.661	    -107.828	      -5.846	     -14.557	      -5.862	     -14.612	      -1.490	     -99.564
	22.000000000	      -1.647	    -109.129	      -5.868	     -15.861	      -5.884	     -15.916	      -1.478	    -100.894
	22.500000000	      -1.636	    -110.437	      -5.895	     -17.178	      -5.911	     -17.233	      -1.476	    -102.202
	23.000000000	      -1.629	    -111.685	      -5.929	     -18.488	      -5.946	     -18.547	      -1.466	    -103.549
	23.500000000	      -1.621	    -112.916	      -5.968	     -19.827	      -5.986	     -19.884	      -1.457	    -104.878
	24.000000000	      -1.612	    -114.147	      -6.023	     -21.076	      -6.039	     -21.132	      -1.448	    -106.093
	24.500000000	      -1.588	    -115.332	      -6.068	     -22.196	      -6.085	     -22.265	      -1.430	    -107.255
	25.000000000	      -1.569	    -116.491	      -6.110	     -23.342	      -6.125	     -23.404	      -1.413	    -108.461
	25.500000000	      -1.561	    -117.694	      -6.154	     -24.530	      -6.171	     -24.576	      -1.399	    -109.684
	26.000000000	      -1.556	    -118.812	      -6.201	     -25.680	      -6.216	     -25.744	      -1.382	    -110.927
	26.500000000	      -1.542	    -119.905	      -6.251	     -26.800	      -6.266	     -26.851	      -1.365	    -112.089
	27.000000000	      -1.523	    -120.945	      -6.298	     -27.946	      -6.312	     -27.997	      -1.350	    -113.197
	27.500000000	      -1.502	    -121.857	      -6.368	     -29.055	      -6.383	     -29.105	      -1.339	    -114.236
	28.000000000	      -1.480	    -122.914	      -6.431	     -30.108	      -6.447	     -30.166	      -1.318	    -115.380
	28.500000000	      -1.445	    -123.991	      -6.480	     -31.024	      -6.497	     -31.073	      -1.298	    -116.518
	29.000000000	      -1.430	    -125.082	      -6.531	     -32.112	      -6.550	     -32.161	      -1.287	    -117.654
	29.500000000	      -1.418	    -126.107	      -6.596	     -33.155	      -6.609	     -33.230	      -1.269	    -118.653
	30.000000000	      -1.404	    -127.009	      -6.656	     -34.169	      -6.670	     -34.222	      -1.254	    -119.639
	30.500000000	      -1.396	    -127.889	      -6.715	     -35.135	      -6.731	     -35.190	      -1.243	    -120.650
	31.000000000	      -1.370	    -128.861	      -6.783	     -36.092	      -6.797	     -36.182	      -1.229	    -121.677
	31.500000000	      -1.339	    -129.793	      -6.854	     -37.035	      -6.871	     -37.080	      -1.212	    -122.667
	32.000000000	      -1.318	    -130.707	      -6.917	     -37.958	      -6.931	     -38.003	      -1.189	    -123.647
	32.500000000	      -1.310	    -131.673	      -6.978	     -38.912	      -6.990	     -38.951	      -1.164	    -124.609
	33.000000000	      -1.299	    -132.559	      -7.045	     -39.766	      -7.054	     -39.828	      -1.153	    -125.557
	33.500000000	      -1.280	    -133.452	      -7.111	     -40.714	      -7.123	     -40.806	      -1.141	    -126.519
	34.000000000	      -1.260	    -134.328	      -7.175	     -41.605	      -7.192	     -41.695	      -1.125	    -127.474
	34.500000000	      -1.247	    -135.211	      -7.246	     -42.564	      -7.264	     -42.677	      -1.098	    -128.363
	35.000000000	      -1.238	    -135.997	      -7.323	     -43.461	      -7.338	     -43.578	      -1.087	    -129.311
	35.500000000	      -1.215	    -136.814	      -7.410	     -44.266	      -7.423	     -44.364	      -1.069	    -130.143
	36.000000000	      -1.203	    -137.629	      -7.480	     -45.043	      -7.494	     -45.184	      -1.048	    -131.051
	36.500000000	      -1.182	    -138.368	      -7.538	     -45.832	      -7.559	     -45.973	      -1.034	    -131.947
	37.000000000	      -1.165	    -139.103	      -7.605	     -46.642	      -7.621	     -46.816	      -1.021	    -132.793
	37.500000000	      -1.149	    -139.824	      -7.680	     -47.510	      -7.703	     -47.693	      -1.009	    -133.650
	38.000000000	      -1.132	    -140.642	      -7.757	     -48.348	      -7.777	     -48.501	      -0.996	    -134.461
	38.500000000	      -1.118	    -141.419	      -7.836	     -49.153	      -7.852	     -49.340	      -0.984	    -135.330
	39.000000000	      -1.103	    -142.140	      -7.929	     -49.884	      -7.954	     -50.065	      -0.966	    -136.134
	39.500000000	      -1.090	    -142.712	      -8.003	     -50.608	      -8.020	     -50.720	      -0.949	    -136.991
	40.000000000	      -1.058	    -143.471	      -8.061	     -51.285	      -8.086	     -51.497	      -0.933	    -137.784
	40.500000000	      -1.044	    -144.339	      -8.137	     -52.076	      -8.158	     -52.254	      -0.911	    -138.486
	41.000000000	      -1.030	    -145.115	      -8.202	     -52.872	      -8.228	     -53.005	      -0.901	    -139.312
	41.500000000	      -1.011	    -145.711	      -8.286	     -53.644	      -8.314	     -53.832	      -0.897	    -140.045
	42.000000000	      -0.999	    -146.345	      -8.366	     -54.399	      -8.382	     -54.520	      -0.872	    -140.728
	42.500000000	      -0.996	    -147.098	      -8.443	     -55.138	      -8.459	     -55.295	      -0.851	    -141.316
	43.000000000	      -0.988	    -147.697	      -8.539	     -55.821	      -8.557	     -55.903	      -0.822	    -142.106
	43.500000000	      -0.964	    -148.348	      -8.602	     -56.485	      -8.630	     -56.663	      -0.815	    -142.911
	44.000000000	      -0.960	    -149.056	      -8.685	     -57.063	      -8.697	     -57.227	      -0.807	    -143.728
	44.500000000	      -0.970	    -149.747	      -8.769	     -57.772	      -8.789	     -57.910	      -0.786	    -144.386
	45.000000000	      -0.976	    -150.319	      -8.839	     -58.450	      -8.869	     -58.526	      -0.768	    -145.127
	45.500000000	      -0.945	    -151.757	      -9.099	     -59.576	      -9.119	     -59.693	      -0.762	    -146.406
	46.000000000	      -0.912	    -152.337	      -9.162	     -60.280	      -9.181	     -60.398	      -0.748	    -147.061
	46.500000000	      -0.900	    -153.062	      -9.262	     -61.007	      -9.281	     -61.148	      -0.714	    -147.630
	47.000000000	      -0.887	    -153.761	      -9.357	     -61.604	      -9.377	     -61.712	      -0.697	    -148.235
	47.500000000	      -0.879	    -154.347	      -9.454	     -62.219	      -9.467	     -62.391	      -0.683	    -148.917
	48.000000000	      -0.862	    -154.961	      -9.528	     -62.616	      -9.555	     -62.795	      -0.696	    -149.559
	48.500000000	      -0.856	    -155.600	      -9.598	     -63.224	      -9.617	     -63.357	      -0.680	    -150.079
	49.000000000	      -0.849	    -156.139	      -9.664	     -63.954	      -9.682	     -63.965	      -0.649	    -150.666
	49.500000000	      -0.855	    -156.606	      -9.730	     -64.560	      -9.762	     -64.749	      -0.640	    -151.407
	50.000000000	      -0.840	    -157.216	      -9.869	     -65.108	      -9.882	     -65.054	      -0.625	    -152.005
	50.500000000	      -0.829	    -157.814	      -9.956	     -65.401	      -9.992	     -65.720	      -0.640	    -152.671
	51.000000000	      -0.819	    -158.423	     -10.066	     -66.266	     -10.038	     -66.341	      -0.643	    -153.302
	51.500000000	      -0.819	    -158.821	     -10.117	     -66.489	     -10.137	     -66.695	      -0.644	    -153.912
	52.000000000	      -0.792	    -159.302	     -10.170	     -67.002	     -10.192	     -67.204	      -0.643	    -154.447
	52.500000000	      -0.795	    -159.966	     -10.253	     -67.659	     -10.263	     -67.770	      -0.622	    -154.907
	53.000000000	      -0.783	    -160.516	     -10.332	     -68.072	     -10.340	     -68.480	      -0.609	    -155.295
	53.500000000	      -0.782	    -160.979	     -10.408	     -68.717	     -10.420	     -68.941	      -0.582	    -155.859
	54.000000000	      -0.768	    -161.490	     -10.475	     -69.264	     -10.487	     -69.459	      -0.559	    -156.436
	54.500000000	      -0.773	    -162.116	     -10.546	     -69.563	     -10.569	     -69.885	      -0.550	    -156.878
	55.000000000	      -0.784	    -162.700	     -10.627	     -70.086	     -10.635	     -70.365	      -0.526	    -157.374
	55.500000000	      -0.777	    -163.124	     -10.673	     -70.698	     -10.690	     -70.750	      -0.513	    -157.955
	56.000000000	      -0.770	    -163.667	     -10.721	     -71.252	     -10.774	     -71.264	      -0.497	    -158.529
	56.500000000	      -0.765	    -164.094	     -10.804	     -71.545	     -10.814	     -72.088	      -0.503	    -159.209
	57.000000000	      -0.755	    -164.503	     -10.884	     -72.490	     -10.901	     -72.502	      -0.498	    -159.640
	57.500000000	      -0.740	    -164.916	     -10.980	     -73.049	     -10.994	     -73.316	      -0.501	    -160.212
	58.000000000	      -0.722	    -165.277	     -11.039	     -73.729	     -11.054	     -73.845	      -0.490	    -160.751
	58.500000000	      -0.699	    -165.775	     -11.114	     -74.274	     -11.146	     -74.519	      -0.480	    -161.268
	59.000000000	      -0.703	    -166.276	     -11.186	     -74.836	     -11.209	     -75.341	      -0.471	    -161.749
	59.500000000	      -0.670	    -166.704	     -11.276	     -75.470	     -11.296	     -75.765	      -0.453	    -162.342
	60.000000000	      -0.646	    -167.003	     -11.322	     -75.857	     -11.354	     -76.009	      -0.472	    -162.816
	60.500000000	      -0.622	    -167.650	     -11.379	     -76.605	     -11.396	     -76.706	      -0.471	    -163.027
	61.000000000	      -0.599	    -168.208	     -11.474	     -77.033	     -11.471	     -77.421	      -0.442	    -163.400
	61.500000000	      -0.601	    -168.726	     -11.537	     -77.727	     -11.558	     -77.757	      -0.430	    -163.904
	62.000000000	      -0.585	    -169.276	     -11.590	     -78.508	     -11.645	     -78.450	      -0.422	    -164.328
	62.500000000	      -0.588	    -169.780	     -11.778	     -78.988	     -11.736	     -79.357	      -0.431	    -164.724
	63.000000000	      -0.587	    -170.461	     -11.834	     -79.313	     -11.858	     -79.588	      -0.410	    -165.190
	63.500000000	      -0.577	    -170.839	     -11.947	     -80.140	     -11.943	     -80.154	      -0.394	    -165.756
	64.000000000	      -0.567	    -171.055	     -12.028	     -80.522	     -12.104	     -80.579	      -0.379	    -166.327
	64.500000000	      -0.540	    -171.532	     -12.076	     -81.095	     -12.108	     -81.115	      -0.393	    -166.525
	65.000000000	      -0.541	    -171.992	     -12.135	     -81.749	     -12.204	     -82.177	      -0.363	    -167.151
	65.500000000	      -0.546	    -172.569	     -12.321	     -82.203	     -12.359	     -82.361	      -0.390	    -167.967
	66.000000000	      -0.539	    -173.008	     -12.469	     -83.113	     -12.453	     -83.263	      -0.410	    -168.408
	66.500000000	      -0.520	    -173.446	     -12.567	     -82.584	     -12.596	     -83.197	      -0.433	    -168.810
	67.000000000	      -0.563	    -173.879	     -12.661	     -83.822	     -12.734	     -83.800	      -0.443	    -168.956
	67.500000000	      -0.584	    -174.728	     -12.812	     -83.914	     -12.823	     -83.847	      -0.469	    -169.521
	68.000000000	      -0.601	    -174.978	     -12.911	     -84.044	     -12.912	     -84.119	      -0.521	    -169.899
	68.500000000	      -0.612	    -175.295	     -12.983	     -84.476	     -13.004	     -84.401	      -0.520	    -170.145
	69.000000000	      -0.631	    -175.719	     -13.085	     -84.739	     -13.102	     -84.705	      -0.518	    -170.485
	69.500000000	      -0.628	    -176.148	     -13.180	     -84.990	     -13.214	     -85.000	      -0.525	    -170.711
	70.000000000	      -0.609	    -176.539	     -13.291	     -85.299	     -13.314	     -85.189	      -0.531	    -170.885
	70.500000000	      -0.594	    -176.992	     -13.379	     -85.325	     -13.402	     -85.289	      -0.527	    -171.128
	71.000000000	      -0.589	    -177.550	     -13.451	     -85.303	     -13.481	     -85.419	      -0.518	    -171.307
	71.500000000	      -0.587	    -178.209	     -13.554	     -85.647	     -13.546	     -85.603	      -0.476	    -171.504
	72.000000000	      -0.587	    -178.556	     -13.583	     -85.746	     -13.603	     -85.842	      -0.499	    -171.848
	72.500000000	      -0.601	    -178.973	     -13.633	     -86.164	     -13.656	     -86.278	      -0.498	    -172.227
	73.000000000	      -0.610	    -179.304	     -13.696	     -86.470	     -13.729	     -86.515	      -0.494	    -172.499
	73.500000000	      -0.624	    -179.649	     -13.791	     -86.924	     -13.815	     -87.026	      -0.457	    -172.851
	74.000000000	      -0.633	     179.917	     -13.871	     -87.152	     -13.896	     -87.258	      -0.472	    -173.379
	74.500000000	      -0.671	     179.561	     -13.927	     -87.291	     -13.953	     -87.428	      -0.500	    -173.724
	75.000000000	      -0.702	     179.295	     -13.967	     -87.702	     -13.987	     -87.773	      -0.502	    -173.932
	75.500000000	      -0.736	     179.034	     -14.016	     -88.375	     -14.029	     -88.395	      -0.506	    -174.164
	76.000000000	      -0.760	     178.995	     -14.123	     -89.361	     -14.143	     -89.326	      -0.515	    -174.421
	76.500000000	      -0.764	     178.992	     -14.321	     -90.149	     -14.350	     -90.090	      -0.529	    -174.627
	77.000000000	      -0.746	     178.945	     -14.556	     -90.271	     -14.584	     -90.118	      -0.509	    -174.706
	77.500000000	      -0.697	     178.578	     -14.732	     -89.610	     -14.751	     -89.541	      -0.464	    -174.979
	78.000000000	      -0.643	     178.149	     -14.808	     -88.864	     -14.838	     -88.787	      -0.453	    -175.193
	78.500000000	      -0.605	     177.642	     -14.854	     -88.463	     -14.885	     -88.402	      -0.463	    -175.648
	79.000000000	      -0.618	     177.148	     -14.894	     -88.339	     -14.915	     -88.310	      -0.444	    -175.959
	79.500000000	      -0.614	     176.648	     -14.925	     -88.213	     -14.945	     -88.124	      -0.433	    -176.189
