!File name = EG0520U_1010_6x60_2SDBCB2EV_1915934D06_RC7325_Vg_N1.5V_Vd_0v.s2p
!Base file name = EG0520U_1010_6x60_2SDBCB2EV_1915934D06_RC7325
!Date = 8/23/2019
!Time = 1:07 PM
!Test duration(min) = 0.15
!Test = S-Parameters
!MPTS version = 8.91.5
!State File = C:\Data\PNA\20190821205423\S-Parameters_2019-08-23.sta
!Cal File = 
!ComputerName = CMPE-LAB-6
!Comments = 
!Attenuation = 0
!Z0 = 50
!Input Power(dBm) = -13.00
!Device ID = EG0520U_1010_6x60_2SDBCB2EV
!Row = 73
!Column = 25
!Technology = QPHT09
!Lot/Wafer = 1915934D06
!Gate Size = 360
!Mask = EG0520
!Cal Standards = GaAs BCB
!Cal Kit = EG2306
!Job Number = 20190821205423
!Device Type = FET
!set_Vg(v) = -1.500
!set_Vd(v) = 0.000
!file_name = EG0520U_1010_6x60_2SDBCB2EV_1915934D06_RC7325_Vg_N1.5V_Vd_0v.s2p
!Vd(V) = 0.000
!Vd(mA) = 0.002
!Vg(V) = -1.500
!Vg(mA) = -0.001
# GHz   S   DB   R   50
!%	Freq(GHz)	     s11(dB)	    s11(deg)	     s21(dB)	    s21(deg)	     s12(dB)	    s12(deg)	     s22(dB)	    s22(deg)
	0.500000000	      -0.003	      -4.050	     -29.362	      85.836	     -29.364	      85.934	      -0.004	      -3.615
	1.000000000	      -0.017	      -8.107	     -23.381	      82.252	     -23.384	      82.263	      -0.017	      -7.226
	1.500000000	      -0.035	     -12.134	     -19.914	      78.575	     -19.920	      78.556	      -0.035	     -10.817
	2.000000000	      -0.062	     -16.111	     -17.486	      74.915	     -17.495	      74.945	      -0.061	     -14.367
	2.500000000	      -0.097	     -20.037	     -15.643	      71.345	     -15.650	      71.283	      -0.094	     -17.869
	3.000000000	      -0.223	     -23.128	     -14.509	      66.950	     -14.516	      66.923	      -0.208	     -20.622
	3.500000000	      -0.281	     -26.768	     -13.311	      63.602	     -13.325	      63.531	      -0.264	     -23.868
	4.000000000	      -0.346	     -30.329	     -12.310	      60.270	     -12.325	      60.246	      -0.324	     -27.045
	4.500000000	      -0.416	     -33.805	     -11.455	      56.965	     -11.471	      56.968	      -0.387	     -30.159
	5.000000000	      -0.488	     -37.186	     -10.724	      53.800	     -10.739	      53.792	      -0.454	     -33.189
	5.500000000	      -0.559	     -40.493	     -10.088	      50.670	     -10.101	      50.639	      -0.523	     -36.140
	6.000000000	      -0.634	     -43.697	      -9.534	      47.653	      -9.547	      47.641	      -0.590	     -39.027
	6.500000000	      -0.709	     -46.795	      -9.054	      44.724	      -9.065	      44.697	      -0.660	     -41.825
	7.000000000	      -0.782	     -49.798	      -8.626	      41.845	      -8.641	      41.840	      -0.728	     -44.538
	7.500000000	      -0.851	     -52.737	      -8.254	      39.122	      -8.268	      39.091	      -0.793	     -47.177
	8.000000000	      -0.911	     -55.365	      -7.944	      36.638	      -7.958	      36.621	      -0.856	     -49.536
	8.500000000	      -0.984	     -58.111	      -7.652	      34.012	      -7.666	      33.985	      -0.922	     -52.028
	9.000000000	      -1.054	     -60.741	      -7.397	      31.464	      -7.408	      31.443	      -0.985	     -54.438
	9.500000000	      -1.116	     -63.281	      -7.168	      29.031	      -7.181	      28.998	      -1.044	     -56.764
	10.000000000	      -1.175	     -65.772	      -6.967	      26.658	      -6.979	      26.585	      -1.100	     -59.018
	10.500000000	      -1.231	     -68.174	      -6.786	      24.348	      -6.802	      24.320	      -1.153	     -61.202
	11.000000000	      -1.285	     -70.478	      -6.629	      22.140	      -6.643	      22.105	      -1.199	     -63.339
	11.500000000	      -1.334	     -72.718	      -6.489	      19.965	      -6.500	      19.887	      -1.241	     -65.415
	12.000000000	      -1.381	     -74.912	      -6.368	      17.862	      -6.382	      17.777	      -1.282	     -67.444
	12.500000000	      -1.422	     -77.040	      -6.262	      15.813	      -6.275	      15.728	      -1.319	     -69.458
	13.000000000	      -1.459	     -79.079	      -6.168	      13.819	      -6.184	      13.777	      -1.355	     -71.407
	13.500000000	      -1.493	     -81.074	      -6.089	      11.895	      -6.104	      11.840	      -1.385	     -73.261
	14.000000000	      -1.525	     -83.041	      -6.022	      10.022	      -6.037	       9.978	      -1.409	     -75.056
	14.500000000	      -1.551	     -84.937	      -5.962	       8.182	      -5.978	       8.136	      -1.432	     -76.867
	15.000000000	      -1.571	     -86.729	      -5.917	       6.417	      -5.930	       6.369	      -1.455	     -78.631
	15.500000000	      -1.590	     -88.481	      -5.873	       4.693	      -5.887	       4.603	      -1.472	     -80.330
	16.000000000	      -1.609	     -90.223	      -5.839	       3.014	      -5.852	       2.913	      -1.483	     -81.970
	16.500000000	      -1.627	     -91.921	      -5.812	       1.348	      -5.828	       1.252	      -1.496	     -83.586
	17.000000000	      -1.640	     -93.574	      -5.791	      -0.253	      -5.808	      -0.328	      -1.504	     -85.165
	17.500000000	      -1.649	     -95.146	      -5.781	      -1.874	      -5.796	      -1.941	      -1.515	     -86.755
	18.000000000	      -1.661	     -96.664	      -5.775	      -3.364	      -5.792	      -3.436	      -1.522	     -88.285
	18.500000000	      -1.669	     -98.185	      -5.770	      -4.842	      -5.787	      -4.959	      -1.523	     -89.756
	19.000000000	      -1.672	     -99.656	      -5.771	      -6.313	      -5.789	      -6.431	      -1.522	     -91.193
	19.500000000	      -1.668	    -101.106	      -5.780	      -7.756	      -5.799	      -7.831	      -1.519	     -92.611
	20.000000000	      -1.664	    -102.506	      -5.797	      -9.160	      -5.815	      -9.229	      -1.520	     -93.981
	20.500000000	      -1.661	    -103.885	      -5.810	     -10.520	      -5.829	     -10.626	      -1.510	     -95.371
	21.000000000	      -1.662	    -105.242	      -5.829	     -11.873	      -5.847	     -11.948	      -1.501	     -96.759
	21.500000000	      -1.657	    -106.596	      -5.849	     -13.188	      -5.868	     -13.272	      -1.494	     -98.072
	22.000000000	      -1.642	    -107.890	      -5.868	     -14.478	      -5.887	     -14.564	      -1.485	     -99.357
	22.500000000	      -1.632	    -109.159	      -5.893	     -15.769	      -5.912	     -15.855	      -1.484	    -100.627
	23.000000000	      -1.630	    -110.367	      -5.923	     -17.038	      -5.943	     -17.130	      -1.474	    -101.952
	23.500000000	      -1.623	    -111.621	      -5.960	     -18.355	      -5.978	     -18.424	      -1.465	    -103.247
	24.000000000	      -1.618	    -112.783	      -6.010	     -19.572	      -6.029	     -19.666	      -1.455	    -104.415
	24.500000000	      -1.592	    -113.926	      -6.052	     -20.672	      -6.070	     -20.761	      -1.438	    -105.537
	25.000000000	      -1.572	    -115.027	      -6.087	     -21.762	      -6.106	     -21.859	      -1.425	    -106.699
	25.500000000	      -1.568	    -116.208	      -6.136	     -22.916	      -6.153	     -22.995	      -1.409	    -107.905
	26.000000000	      -1.561	    -117.298	      -6.175	     -24.036	      -6.195	     -24.121	      -1.392	    -109.119
	26.500000000	      -1.543	    -118.372	      -6.217	     -25.147	      -6.236	     -25.231	      -1.375	    -110.201
	27.000000000	      -1.520	    -119.361	      -6.264	     -26.262	      -6.283	     -26.372	      -1.363	    -111.298
	27.500000000	      -1.497	    -120.272	      -6.331	     -27.327	      -6.349	     -27.430	      -1.349	    -112.304
	28.000000000	      -1.478	    -121.361	      -6.390	     -28.375	      -6.406	     -28.468	      -1.329	    -113.400
	28.500000000	      -1.447	    -122.453	      -6.443	     -29.295	      -6.458	     -29.371	      -1.307	    -114.546
	29.000000000	      -1.435	    -123.485	      -6.487	     -30.322	      -6.508	     -30.369	      -1.299	    -115.643
	29.500000000	      -1.419	    -124.469	      -6.541	     -31.342	      -6.558	     -31.421	      -1.282	    -116.622
	30.000000000	      -1.406	    -125.349	      -6.598	     -32.317	      -6.616	     -32.399	      -1.268	    -117.564
	30.500000000	      -1.403	    -126.218	      -6.650	     -33.263	      -6.670	     -33.365	      -1.260	    -118.530
	31.000000000	      -1.381	    -127.209	      -6.716	     -34.242	      -6.732	     -34.326	      -1.251	    -119.538
	31.500000000	      -1.351	    -128.118	      -6.789	     -35.127	      -6.800	     -35.210	      -1.228	    -120.506
	32.000000000	      -1.331	    -129.039	      -6.852	     -36.025	      -6.867	     -36.116	      -1.210	    -121.457
	32.500000000	      -1.329	    -129.923	      -6.899	     -36.906	      -6.920	     -36.993	      -1.185	    -122.304
	33.000000000	      -1.325	    -130.793	      -6.967	     -37.782	      -6.977	     -37.888	      -1.173	    -123.283
	33.500000000	      -1.305	    -131.670	      -7.028	     -38.694	      -7.043	     -38.801	      -1.163	    -124.227
	34.000000000	      -1.284	    -132.507	      -7.090	     -39.546	      -7.105	     -39.724	      -1.150	    -125.166
	34.500000000	      -1.266	    -133.377	      -7.152	     -40.467	      -7.169	     -40.603	      -1.126	    -126.028
	35.000000000	      -1.258	    -134.170	      -7.229	     -41.345	      -7.241	     -41.511	      -1.113	    -126.938
	35.500000000	      -1.248	    -134.940	      -7.302	     -42.112	      -7.316	     -42.247	      -1.101	    -127.768
	36.000000000	      -1.235	    -135.695	      -7.362	     -42.840	      -7.383	     -43.030	      -1.077	    -128.634
	36.500000000	      -1.201	    -136.384	      -7.418	     -43.644	      -7.437	     -43.775	      -1.063	    -129.506
	37.000000000	      -1.174	    -137.072	      -7.481	     -44.481	      -7.497	     -44.660	      -1.047	    -130.326
	37.500000000	      -1.160	    -137.859	      -7.551	     -45.357	      -7.561	     -45.485	      -1.040	    -131.115
	38.000000000	      -1.149	    -138.639	      -7.625	     -46.090	      -7.643	     -46.237	      -1.028	    -131.909
	38.500000000	      -1.128	    -139.484	      -7.692	     -46.954	      -7.710	     -47.160	      -1.012	    -132.749
	39.000000000	      -1.106	    -140.193	      -7.769	     -47.706	      -7.793	     -47.885	      -0.992	    -133.573
	39.500000000	      -1.089	    -140.817	      -7.845	     -48.430	      -7.869	     -48.597	      -0.976	    -134.388
	40.000000000	      -1.075	    -141.605	      -7.903	     -49.102	      -7.919	     -49.300	      -0.957	    -135.171
	40.500000000	      -1.069	    -142.485	      -7.973	     -49.887	      -8.000	     -50.090	      -0.939	    -135.897
	41.000000000	      -1.050	    -143.290	      -8.054	     -50.666	      -8.059	     -50.819	      -0.935	    -136.700
	41.500000000	      -1.032	    -143.828	      -8.116	     -51.388	      -8.140	     -51.502	      -0.925	    -137.413
	42.000000000	      -1.027	    -144.465	      -8.188	     -52.133	      -8.208	     -52.264	      -0.903	    -138.039
	42.500000000	      -1.036	    -145.120	      -8.260	     -52.847	      -8.282	     -52.964	      -0.882	    -138.587
	43.000000000	      -1.029	    -145.734	      -8.335	     -53.429	      -8.367	     -53.663	      -0.850	    -139.375
	43.500000000	      -1.011	    -146.315	      -8.416	     -54.078	      -8.445	     -54.251	      -0.850	    -140.191
	44.000000000	      -1.003	    -146.931	      -8.480	     -54.711	      -8.519	     -54.974	      -0.831	    -141.018
	44.500000000	      -1.006	    -147.661	      -8.551	     -55.450	      -8.570	     -55.632	      -0.819	    -141.611
	45.000000000	      -1.008	    -148.227	      -8.614	     -56.058	      -8.634	     -56.218	      -0.803	    -142.321
	45.500000000	      -0.971	    -149.713	      -8.858	     -57.307	      -8.890	     -57.469	      -0.796	    -143.685
	46.000000000	      -0.937	    -150.419	      -8.937	     -58.064	      -8.962	     -58.224	      -0.785	    -144.328
	46.500000000	      -0.919	    -151.114	      -9.027	     -58.742	      -9.056	     -58.933	      -0.745	    -144.882
	47.000000000	      -0.905	    -151.793	      -9.110	     -59.360	      -9.121	     -59.533	      -0.725	    -145.510
	47.500000000	      -0.908	    -152.448	      -9.204	     -59.956	      -9.229	     -60.132	      -0.737	    -146.186
	48.000000000	      -0.890	    -153.090	      -9.284	     -60.443	      -9.301	     -60.595	      -0.728	    -146.797
	48.500000000	      -0.884	    -153.742	      -9.346	     -60.881	      -9.371	     -61.198	      -0.710	    -147.293
	49.000000000	      -0.881	    -154.212	      -9.413	     -61.533	      -9.433	     -61.856	      -0.691	    -147.872
	49.500000000	      -0.895	    -154.725	      -9.499	     -62.269	      -9.491	     -62.226	      -0.671	    -148.487
	50.000000000	      -0.880	    -155.372	      -9.599	     -62.885	      -9.583	     -63.089	      -0.648	    -149.277
	50.500000000	      -0.868	    -155.886	      -9.687	     -63.453	      -9.686	     -63.863	      -0.655	    -149.894
	51.000000000	      -0.857	    -156.527	      -9.744	     -63.928	      -9.795	     -64.151	      -0.673	    -150.489
	51.500000000	      -0.846	    -156.901	      -9.829	     -64.414	      -9.862	     -64.526	      -0.669	    -151.172
	52.000000000	      -0.826	    -157.512	      -9.881	     -64.890	      -9.903	     -65.109	      -0.663	    -151.691
	52.500000000	      -0.829	    -158.159	      -9.950	     -65.352	      -9.984	     -65.571	      -0.648	    -152.148
	53.000000000	      -0.814	    -158.804	     -10.030	     -66.055	     -10.037	     -66.155	      -0.630	    -152.519
	53.500000000	      -0.815	    -159.195	     -10.095	     -66.487	     -10.116	     -66.826	      -0.613	    -153.123
	54.000000000	      -0.801	    -159.647	     -10.164	     -67.017	     -10.168	     -67.269	      -0.584	    -153.686
	54.500000000	      -0.809	    -160.370	     -10.230	     -67.577	     -10.252	     -67.817	      -0.572	    -154.138
	55.000000000	      -0.823	    -160.976	     -10.293	     -68.069	     -10.336	     -68.204	      -0.557	    -154.612
	55.500000000	      -0.816	    -161.505	     -10.381	     -68.639	     -10.382	     -68.759	      -0.542	    -155.175
	56.000000000	      -0.813	    -161.984	     -10.396	     -69.269	     -10.434	     -69.380	      -0.533	    -155.857
	56.500000000	      -0.806	    -162.356	     -10.445	     -70.026	     -10.537	     -70.262	      -0.534	    -156.692
	57.000000000	      -0.799	    -162.766	     -10.568	     -70.405	     -10.533	     -70.570	      -0.535	    -156.917
	57.500000000	      -0.782	    -163.270	     -10.602	     -70.624	     -10.640	     -71.356	      -0.522	    -157.467
	58.000000000	      -0.758	    -163.561	     -10.688	     -71.477	     -10.705	     -71.869	      -0.513	    -157.977
	58.500000000	      -0.721	    -164.055	     -10.766	     -72.056	     -10.780	     -72.323	      -0.500	    -158.550
	59.000000000	      -0.723	    -164.758	     -10.817	     -72.787	     -10.797	     -72.903	      -0.467	    -158.998
	59.500000000	      -0.694	    -165.088	     -10.878	     -73.545	     -10.910	     -73.766	      -0.466	    -159.598
	60.000000000	      -0.685	    -165.557	     -10.952	     -73.813	     -10.973	     -74.408	      -0.489	    -160.073
	60.500000000	      -0.632	    -166.200	     -10.997	     -74.449	     -11.021	     -74.807	      -0.495	    -160.296
	61.000000000	      -0.624	    -166.862	     -11.090	     -75.257	     -11.101	     -75.462	      -0.469	    -160.825
	61.500000000	      -0.624	    -167.441	     -11.215	     -75.853	     -11.239	     -76.268	      -0.458	    -161.305
	62.000000000	      -0.601	    -167.947	     -11.267	     -76.482	     -11.296	     -77.043	      -0.441	    -161.766
	62.500000000	      -0.615	    -168.452	     -11.352	     -77.337	     -11.395	     -77.382	      -0.448	    -162.113
	63.000000000	      -0.603	    -169.086	     -11.471	     -77.574	     -11.496	     -77.723	      -0.422	    -162.561
	63.500000000	      -0.587	    -169.524	     -11.592	     -78.070	     -11.613	     -78.498	      -0.407	    -163.162
	64.000000000	      -0.560	    -169.687	     -11.662	     -78.638	     -11.685	     -78.966	      -0.401	    -163.686
	64.500000000	      -0.526	    -170.047	     -11.744	     -79.297	     -11.753	     -79.472	      -0.388	    -164.001
	65.000000000	      -0.547	    -170.604	     -11.812	     -79.696	     -11.821	     -80.141	      -0.377	    -164.574
	65.500000000	      -0.560	    -171.328	     -11.963	     -80.546	     -11.944	     -80.694	      -0.394	    -165.507
	66.000000000	      -0.544	    -171.834	     -12.026	     -81.196	     -12.114	     -81.609	      -0.417	    -166.145
	66.500000000	      -0.550	    -172.178	     -12.167	     -81.466	     -12.227	     -81.504	      -0.410	    -166.150
	67.000000000	      -0.578	    -172.744	     -12.292	     -81.781	     -12.366	     -82.257	      -0.436	    -166.620
	67.500000000	      -0.612	    -173.722	     -12.412	     -82.269	     -12.445	     -82.348	      -0.474	    -167.161
	68.000000000	      -0.636	    -173.993	     -12.487	     -82.693	     -12.518	     -82.587	      -0.523	    -167.524
	68.500000000	      -0.659	    -174.329	     -12.580	     -82.820	     -12.615	     -82.871	      -0.526	    -167.838
	69.000000000	      -0.681	    -174.773	     -12.682	     -83.172	     -12.717	     -83.308	      -0.508	    -168.180
	69.500000000	      -0.674	    -175.240	     -12.790	     -83.515	     -12.815	     -83.586	      -0.536	    -168.460
	70.000000000	      -0.648	    -175.650	     -12.893	     -83.780	     -12.925	     -83.803	      -0.547	    -168.675
	70.500000000	      -0.630	    -176.108	     -13.001	     -83.820	     -13.016	     -83.874	      -0.542	    -168.879
	71.000000000	      -0.615	    -176.650	     -13.056	     -83.994	     -13.104	     -84.059	      -0.531	    -169.099
	71.500000000	      -0.587	    -177.259	     -13.137	     -83.991	     -13.160	     -84.205	      -0.504	    -169.383
	72.000000000	      -0.595	    -177.780	     -13.197	     -84.343	     -13.212	     -84.490	      -0.532	    -169.716
	72.500000000	      -0.622	    -178.286	     -13.245	     -84.714	     -13.254	     -84.906	      -0.534	    -170.104
	73.000000000	      -0.638	    -178.676	     -13.298	     -85.114	     -13.322	     -85.287	      -0.527	    -170.376
	73.500000000	      -0.655	    -179.020	     -13.396	     -85.663	     -13.413	     -85.838	      -0.491	    -170.745
	74.000000000	      -0.670	    -179.501	     -13.483	     -85.944	     -13.502	     -86.156	      -0.508	    -171.262
	74.500000000	      -0.716	    -179.876	     -13.552	     -86.083	     -13.572	     -86.325	      -0.537	    -171.508
	75.000000000	      -0.755	     179.865	     -13.600	     -86.444	     -13.616	     -86.689	      -0.534	    -171.736
	75.500000000	      -0.796	     179.661	     -13.659	     -87.142	     -13.666	     -87.263	      -0.532	    -171.991
	76.000000000	      -0.809	     179.632	     -13.761	     -88.077	     -13.774	     -88.188	      -0.546	    -172.288
	76.500000000	      -0.805	     179.624	     -13.956	     -88.806	     -13.980	     -88.923	      -0.556	    -172.477
	77.000000000	      -0.782	     179.523	     -14.189	     -88.895	     -14.211	     -88.921	      -0.540	    -172.594
	77.500000000	      -0.724	     179.091	     -14.363	     -88.258	     -14.378	     -88.261	      -0.498	    -172.847
	78.000000000	      -0.663	     178.556	     -14.431	     -87.439	     -14.449	     -87.473	      -0.484	    -173.128
	78.500000000	      -0.631	     177.996	     -14.464	     -87.119	     -14.494	     -87.183	      -0.485	    -173.538
	79.000000000	      -0.656	     177.434	     -14.498	     -87.022	     -14.512	     -87.154	      -0.475	    -173.869
	79.500000000	      -0.664	     176.887	     -14.520	     -87.052	     -14.540	     -87.055	      -0.467	    -174.152
