!File name = EG0520F_1010_6x25_2SDBCB2EV_191593406_RC6642_Vg_N1p5_Vd_0.s2p
!Base file name = EG0520F_1010_6x25_2SDBCB2EV_191593406_RC6642
!Date = 10/8/2019
!Time = 7:48 AM
!Test duration(min) = 0.15
!Test = S-Parameters
!MPTS version = 8.91.5
!Cal File = 
!ComputerName = CMPE-LAB-6
!Comments = 
!Z0 = 50
!Input Power(dBm) = -13.00
!Device ID = EG0520F_1010_6x25_2SDBCB2EV
!Row = 66
!Column = 42
!Technology = QPHT09BCB
!Lot/Wafer = 191593406
!Gate Size = 150
!Mask = EG0520
!Cal Standards = EG2306 GaAs
!Cal Kit = EG2308
!Job Number = 20191002105035
!Device Type = FET
!set_Vg(v) = -1.500
!set_Vd(v) = 0.000
!file_name = EG0520F_1010_6x25_2SDBCB2EV_191593406_RC6642_Vg_N1p5_Vd_0.s2p
!Vg(V) = -1.500
!Vg(mA) = -0.000
!Vd(V) = 0.000
!Vd(mA) = 0.002
# GHz   S   DB   R   50
!%	Freq(GHz)	     s11(dB)	    s11(deg)	     s21(dB)	    s21(deg)	     s12(dB)	    s12(deg)	     s22(dB)	    s22(deg)
	0.500000000	      -0.007	      -2.703	     -33.310	      87.223	     -33.308	      87.205	       0.002	      -2.522
	1.000000000	      -0.014	      -5.380	     -27.319	      84.763	     -27.320	      84.747	      -0.006	      -5.048
	1.500000000	      -0.020	      -8.054	     -23.822	      82.309	     -23.824	      82.282	      -0.011	      -7.535
	2.000000000	      -0.030	     -10.721	     -21.355	      79.863	     -21.356	      79.850	      -0.022	     -10.008
	2.500000000	      -0.070	     -12.934	     -19.766	      76.774	     -19.767	      76.759	      -0.073	     -12.097
	3.000000000	      -0.102	     -15.528	     -18.233	      74.341	     -18.235	      74.354	      -0.086	     -14.420
	3.500000000	      -0.122	     -18.012	     -16.964	      71.952	     -16.968	      71.927	      -0.118	     -16.765
	4.000000000	      -0.156	     -20.492	     -15.872	      69.531	     -15.876	      69.541	      -0.143	     -19.112
	4.500000000	      -0.185	     -23.013	     -14.928	      67.141	     -14.932	      67.149	      -0.181	     -21.370
	5.000000000	      -0.224	     -25.457	     -14.100	      64.755	     -14.103	      64.781	      -0.214	     -23.659
	5.500000000	      -0.265	     -27.878	     -13.360	      62.451	     -13.365	      62.489	      -0.244	     -25.890
	6.000000000	      -0.302	     -30.240	     -12.703	      60.163	     -12.705	      60.203	      -0.284	     -28.109
	6.500000000	      -0.344	     -32.603	     -12.107	      57.880	     -12.109	      57.908	      -0.322	     -30.298
	7.000000000	      -0.387	     -34.903	     -11.572	      55.620	     -11.574	      55.657	      -0.364	     -32.496
	7.500000000	      -0.429	     -37.197	     -11.086	      53.458	     -11.087	      53.446	      -0.407	     -34.613
	8.000000000	      -0.463	     -39.356	     -10.671	      51.469	     -10.675	      51.542	      -0.446	     -36.438
	8.500000000	      -0.515	     -41.554	     -10.270	      49.333	     -10.268	      49.344	      -0.488	     -38.514
	9.000000000	      -0.562	     -43.746	      -9.897	      47.193	      -9.897	      47.250	      -0.536	     -40.558
	9.500000000	      -0.610	     -45.867	      -9.555	      45.063	      -9.555	      45.112	      -0.582	     -42.571
	10.000000000	      -0.660	     -47.981	      -9.245	      42.983	      -9.247	      43.031	      -0.630	     -44.513
	10.500000000	      -0.704	     -50.043	      -8.964	      40.994	      -8.963	      41.024	      -0.679	     -46.423
	11.000000000	      -0.757	     -52.064	      -8.702	      39.007	      -8.703	      39.062	      -0.720	     -48.330
	11.500000000	      -0.799	     -54.087	      -8.460	      37.075	      -8.460	      37.129	      -0.767	     -50.166
	12.000000000	      -0.851	     -56.013	      -8.238	      35.248	      -8.237	      35.258	      -0.800	     -51.986
	12.500000000	      -0.898	     -57.881	      -8.025	      33.331	      -8.025	      33.392	      -0.839	     -53.849
	13.000000000	      -0.939	     -59.713	      -7.832	      31.496	      -7.832	      31.566	      -0.882	     -55.676
	13.500000000	      -0.982	     -61.565	      -7.658	      29.701	      -7.656	      29.737	      -0.927	     -57.406
	14.000000000	      -1.021	     -63.357	      -7.495	      27.920	      -7.495	      27.999	      -0.968	     -59.135
	14.500000000	      -1.056	     -65.122	      -7.349	      26.172	      -7.345	      26.233	      -1.010	     -60.814
	15.000000000	      -1.093	     -66.877	      -7.210	      24.431	      -7.211	      24.513	      -1.045	     -62.470
	15.500000000	      -1.130	     -68.611	      -7.085	      22.760	      -7.084	      22.839	      -1.077	     -64.114
	16.000000000	      -1.166	     -70.296	      -6.963	      21.105	      -6.964	      21.187	      -1.113	     -65.762
	16.500000000	      -1.199	     -71.933	      -6.855	      19.467	      -6.856	      19.554	      -1.149	     -67.361
	17.000000000	      -1.228	     -73.544	      -6.761	      17.907	      -6.761	      17.969	      -1.184	     -68.913
	17.500000000	      -1.258	     -75.146	      -6.669	      16.307	      -6.668	      16.427	      -1.209	     -70.427
	18.000000000	      -1.293	     -76.757	      -6.587	      14.748	      -6.583	      14.877	      -1.235	     -71.896
	18.500000000	      -1.316	     -78.293	      -6.507	      13.277	      -6.503	      13.359	      -1.261	     -73.391
	19.000000000	      -1.339	     -79.774	      -6.434	      11.757	      -6.431	      11.869	      -1.286	     -74.841
	19.500000000	      -1.362	     -81.225	      -6.372	      10.325	      -6.369	      10.428	      -1.308	     -76.268
	20.000000000	      -1.387	     -82.666	      -6.317	       8.864	      -6.312	       8.931	      -1.330	     -77.697
	20.500000000	      -1.405	     -84.120	      -6.262	       7.430	      -6.257	       7.509	      -1.347	     -79.106
	21.000000000	      -1.419	     -85.518	      -6.213	       5.976	      -6.208	       6.101	      -1.365	     -80.482
	21.500000000	      -1.429	     -86.867	      -6.169	       4.653	      -6.165	       4.717	      -1.384	     -81.874
	22.000000000	      -1.447	     -88.250	      -6.132	       3.226	      -6.127	       3.340	      -1.400	     -83.269
	22.500000000	      -1.465	     -89.627	      -6.092	       1.849	      -6.089	       1.959	      -1.410	     -84.648
	23.000000000	      -1.477	     -90.985	      -6.066	       0.471	      -6.063	       0.594	      -1.424	     -85.964
	23.500000000	      -1.481	     -92.320	      -6.055	      -0.900	      -6.052	      -0.794	      -1.441	     -87.215
	24.000000000	      -1.488	     -93.626	      -6.060	      -2.165	      -6.056	      -2.034	      -1.466	     -88.427
	24.500000000	      -1.504	     -94.858	      -6.039	      -3.361	      -6.038	      -3.236	      -1.474	     -89.665
	25.000000000	      -1.520	     -96.087	      -6.024	      -4.590	      -6.023	      -4.482	      -1.486	     -90.966
	25.500000000	      -1.522	     -97.307	      -6.008	      -5.786	      -6.009	      -5.661	      -1.490	     -92.174
	26.000000000	      -1.518	     -98.492	      -6.003	      -6.991	      -6.002	      -6.874	      -1.485	     -93.349
	26.500000000	      -1.517	     -99.685	      -5.995	      -8.196	      -5.991	      -8.055	      -1.487	     -94.556
	27.000000000	      -1.539	    -100.827	      -5.989	      -9.478	      -5.988	      -9.359	      -1.508	     -95.800
	27.500000000	      -1.549	    -101.915	      -6.016	     -10.644	      -6.011	     -10.524	      -1.520	     -96.906
	28.000000000	      -1.535	    -103.121	      -6.035	     -11.671	      -6.030	     -11.560	      -1.513	     -97.983
	28.500000000	      -1.527	    -104.305	      -6.032	     -12.599	      -6.029	     -12.498	      -1.483	     -99.050
	29.000000000	      -1.536	    -105.323	      -6.030	     -13.823	      -6.025	     -13.680	      -1.482	    -100.338
	29.500000000	      -1.543	    -106.386	      -6.036	     -14.953	      -6.035	     -14.827	      -1.508	    -101.481
	30.000000000	      -1.532	    -107.502	      -6.049	     -16.028	      -6.043	     -15.925	      -1.519	    -102.578
	30.500000000	      -1.523	    -108.630	      -6.074	     -17.148	      -6.073	     -17.002	      -1.520	    -103.680
	31.000000000	      -1.517	    -109.630	      -6.088	     -18.163	      -6.085	     -18.045	      -1.507	    -104.645
	31.500000000	      -1.517	    -110.526	      -6.115	     -19.129	      -6.108	     -19.017	      -1.502	    -105.568
	32.000000000	      -1.523	    -111.551	      -6.132	     -20.109	      -6.133	     -19.965	      -1.491	    -106.576
	32.500000000	      -1.520	    -112.602	      -6.148	     -21.090	      -6.146	     -20.916	      -1.497	    -107.712
	33.000000000	      -1.505	    -113.579	      -6.164	     -22.133	      -6.160	     -21.929	      -1.493	    -108.803
	33.500000000	      -1.496	    -114.428	      -6.190	     -23.068	      -6.187	     -22.916	      -1.490	    -109.691
	34.000000000	      -1.492	    -115.261	      -6.201	     -24.079	      -6.202	     -23.910	      -1.478	    -110.630
	34.500000000	      -1.479	    -116.159	      -6.235	     -25.011	      -6.233	     -24.888	      -1.486	    -111.506
	35.000000000	      -1.450	    -117.227	      -6.268	     -25.983	      -6.269	     -25.884	      -1.472	    -112.436
	35.500000000	      -1.415	    -118.310	      -6.300	     -26.933	      -6.304	     -26.742	      -1.449	    -113.459
	36.000000000	      -1.406	    -119.173	      -6.319	     -27.787	      -6.318	     -27.627	      -1.436	    -114.468
	36.500000000	      -1.416	    -120.155	      -6.336	     -28.705	      -6.333	     -28.537	      -1.442	    -115.341
	37.000000000	      -1.412	    -121.119	      -6.357	     -29.733	      -6.354	     -29.574	      -1.429	    -116.311
	37.500000000	      -1.375	    -122.107	      -6.386	     -30.749	      -6.378	     -30.598	      -1.411	    -117.337
	38.000000000	      -1.348	    -122.983	      -6.420	     -31.689	      -6.417	     -31.525	      -1.405	    -118.305
	38.500000000	      -1.340	    -123.747	      -6.472	     -32.682	      -6.459	     -32.495	      -1.397	    -119.061
	39.000000000	      -1.351	    -124.603	      -6.525	     -33.467	      -6.527	     -33.267	      -1.388	    -119.865
	39.500000000	      -1.339	    -125.547	      -6.567	     -34.205	      -6.566	     -34.045	      -1.374	    -120.594
	40.000000000	      -1.313	    -126.503	      -6.594	     -35.053	      -6.593	     -34.907	      -1.332	    -121.429
	40.500000000	      -1.287	    -127.265	      -6.631	     -36.002	      -6.622	     -35.784	      -1.303	    -122.280
	41.000000000	      -1.265	    -127.923	      -6.655	     -36.827	      -6.640	     -36.573	      -1.275	    -123.026
	41.500000000	      -1.276	    -128.868	      -6.683	     -37.685	      -6.676	     -37.454	      -1.248	    -124.052
	42.000000000	      -1.276	    -129.931	      -6.734	     -38.649	      -6.720	     -38.438	      -1.253	    -124.964
	42.500000000	      -1.258	    -130.950	      -6.782	     -39.607	      -6.775	     -39.360	      -1.251	    -125.870
	43.000000000	      -1.250	    -131.674	      -6.838	     -40.386	      -6.823	     -40.202	      -1.227	    -126.610
	43.500000000	      -1.245	    -132.330	      -6.868	     -41.097	      -6.872	     -40.937	      -1.203	    -127.499
	44.000000000	      -1.264	    -133.188	      -6.921	     -41.828	      -6.919	     -41.663	      -1.186	    -128.275
	44.500000000	      -1.241	    -133.962	      -6.979	     -42.740	      -6.979	     -42.437	      -1.181	    -129.251
	45.000000000	      -1.244	    -134.873	      -7.046	     -43.432	      -7.035	     -43.207	      -1.178	    -130.173
	45.500000000	      -1.233	    -135.444	      -7.079	     -44.149	      -7.079	     -43.963	      -1.163	    -130.927
	46.000000000	      -1.204	    -137.506	      -7.287	     -45.895	      -7.295	     -45.675	      -1.120	    -132.380
	46.500000000	      -1.196	    -138.266	      -7.340	     -46.723	      -7.331	     -46.540	      -1.101	    -132.999
	47.000000000	      -1.184	    -139.237	      -7.392	     -47.498	      -7.406	     -47.224	      -1.081	    -133.941
	47.500000000	      -1.156	    -139.806	      -7.442	     -48.261	      -7.439	     -47.942	      -1.066	    -134.851
	48.000000000	      -1.141	    -140.499	      -7.507	     -49.026	      -7.512	     -48.823	      -1.057	    -135.763
	48.500000000	      -1.151	    -141.070	      -7.552	     -49.677	      -7.544	     -49.468	      -1.033	    -136.450
	49.000000000	      -1.139	    -141.988	      -7.621	     -50.511	      -7.619	     -50.241	      -1.060	    -137.163
	49.500000000	      -1.126	    -142.624	      -7.661	     -51.286	      -7.678	     -51.043	      -1.045	    -138.047
	50.000000000	      -1.090	    -143.317	      -7.754	     -51.818	      -7.754	     -51.827	      -1.059	    -138.695
	50.500000000	      -1.090	    -143.804	      -7.801	     -52.722	      -7.812	     -52.472	      -0.973	    -139.574
	51.000000000	      -1.082	    -144.444	      -7.910	     -53.153	      -7.886	     -53.018	      -0.968	    -140.498
	51.500000000	      -1.091	    -145.084	      -7.948	     -53.552	      -7.937	     -53.366	      -0.981	    -140.970
	52.000000000	      -1.073	    -145.770	      -7.999	     -54.149	      -7.979	     -53.983	      -0.994	    -141.596
	52.500000000	      -1.063	    -146.276	      -8.026	     -54.782	      -8.043	     -54.559	      -1.008	    -142.399
	53.000000000	      -1.042	    -146.836	      -8.074	     -55.531	      -8.078	     -55.281	      -1.001	    -143.284
	53.500000000	      -1.033	    -147.673	      -8.110	     -56.310	      -8.132	     -56.080	      -0.981	    -143.668
	54.000000000	      -1.042	    -148.451	      -8.174	     -56.898	      -8.160	     -56.728	      -0.965	    -144.102
	54.500000000	      -1.024	    -148.900	      -8.226	     -57.521	      -8.249	     -57.285	      -0.941	    -144.796
	55.000000000	      -0.995	    -149.415	      -8.272	     -58.101	      -8.286	     -57.910	      -0.938	    -145.596
	55.500000000	      -0.989	    -150.029	      -8.327	     -58.674	      -8.310	     -58.664	      -0.907	    -146.361
	56.000000000	      -0.991	    -150.499	      -8.362	     -59.245	      -8.371	     -59.225	      -0.863	    -146.713
	56.500000000	      -1.005	    -150.999	      -8.422	     -59.990	      -8.404	     -59.719	      -0.836	    -147.464
	57.000000000	      -0.991	    -151.557	      -8.449	     -60.444	      -8.484	     -60.340	      -0.834	    -148.351
	57.500000000	      -0.992	    -152.156	      -8.512	     -61.261	      -8.521	     -61.244	      -0.813	    -149.016
	58.000000000	      -0.994	    -152.469	      -8.583	     -62.009	      -8.563	     -61.662	      -0.825	    -149.822
	58.500000000	      -0.996	    -152.775	      -8.625	     -62.491	      -8.620	     -62.219	      -0.844	    -150.308
	59.000000000	      -0.998	    -153.136	      -8.703	     -63.102	      -8.656	     -62.852	      -0.866	    -150.828
	59.500000000	      -0.956	    -153.739	      -8.698	     -63.648	      -8.707	     -63.513	      -0.869	    -151.174
	60.000000000	      -0.964	    -154.217	      -8.749	     -64.117	      -8.762	     -64.131	      -0.803	    -151.983
	60.500000000	      -0.949	    -154.618	      -8.772	     -65.287	      -8.809	     -64.854	      -0.774	    -152.579
	61.000000000	      -0.920	    -155.032	      -8.851	     -65.891	      -8.834	     -65.647	      -0.753	    -153.294
	61.500000000	      -0.903	    -155.591	      -8.894	     -66.700	      -8.860	     -66.464	      -0.741	    -154.031
	62.000000000	      -0.907	    -156.265	      -8.959	     -67.342	      -8.938	     -67.399	      -0.720	    -154.847
	62.500000000	      -0.896	    -156.802	      -9.033	     -68.226	      -9.031	     -67.658	      -0.692	    -155.857
	63.000000000	      -0.856	    -157.201	      -9.143	     -68.901	      -9.084	     -68.597	      -0.706	    -156.318
	63.500000000	      -0.874	    -157.546	      -9.200	     -69.721	      -9.202	     -69.240	      -0.727	    -156.732
	64.000000000	      -0.922	    -158.150	      -9.279	     -70.164	      -9.258	     -69.906	      -0.807	    -157.422
	64.500000000	      -0.947	    -158.704	      -9.333	     -70.844	      -9.308	     -70.926	      -0.835	    -158.104
	65.000000000	      -0.895	    -159.033	      -9.401	     -71.758	      -9.413	     -71.526	      -0.804	    -158.610
	65.500000000	      -0.854	    -159.318	      -9.547	     -72.352	      -9.522	     -72.082	      -0.752	    -158.691
	66.000000000	      -0.838	    -159.873	      -9.692	     -73.056	      -9.683	     -72.618	      -0.775	    -159.259
	66.500000000	      -0.849	    -160.766	      -9.704	     -73.203	      -9.746	     -73.258	      -0.850	    -160.019
	67.000000000	      -0.846	    -161.398	      -9.869	     -73.463	      -9.808	     -73.008	      -0.825	    -161.307
	67.500000000	      -0.756	    -161.361	      -9.931	     -73.058	      -9.948	     -73.728	      -0.713	    -161.524
	68.000000000	      -0.761	    -162.046	      -9.980	     -73.262	     -10.012	     -74.283	      -0.727	    -162.222
	68.500000000	      -0.760	    -162.772	     -10.090	     -73.887	     -10.097	     -74.685	      -0.778	    -163.039
	69.000000000	      -0.759	    -163.211	     -10.190	     -74.236	     -10.197	     -74.987	      -0.827	    -163.492
	69.500000000	      -0.743	    -163.534	     -10.306	     -74.376	     -10.288	     -75.174	      -0.845	    -163.829
	70.000000000	      -0.718	    -164.022	     -10.419	     -74.530	     -10.406	     -75.414	      -0.869	    -164.190
	70.500000000	      -0.713	    -164.578	     -10.514	     -74.649	     -10.501	     -75.436	      -0.882	    -164.538
	71.000000000	      -0.721	    -164.938	     -10.556	     -74.375	     -10.563	     -75.321	      -0.872	    -164.822
	71.500000000	      -0.740	    -165.270	     -10.615	     -74.492	     -10.616	     -75.215	      -0.882	    -164.933
	72.000000000	      -0.727	    -165.532	     -10.632	     -74.424	     -10.636	     -75.164	      -0.853	    -165.150
	72.500000000	      -0.704	    -166.050	     -10.634	     -74.288	     -10.623	     -75.065	      -0.849	    -165.342
	73.000000000	      -0.701	    -166.646	     -10.623	     -74.467	     -10.619	     -75.230	      -0.840	    -165.459
	73.500000000	      -0.696	    -167.209	     -10.618	     -74.787	     -10.617	     -75.602	      -0.809	    -165.838
	74.000000000	      -0.716	    -167.810	     -10.637	     -75.128	     -10.631	     -75.931	      -0.774	    -166.238
	74.500000000	      -0.741	    -168.274	     -10.622	     -75.507	     -10.612	     -76.177	      -0.745	    -166.740
	75.000000000	      -0.764	    -168.664	     -10.596	     -76.030	     -10.584	     -76.727	      -0.731	    -167.341
	75.500000000	      -0.765	    -168.885	     -10.609	     -76.537	     -10.590	     -77.366	      -0.708	    -167.767
	76.000000000	      -0.772	    -169.145	     -10.640	     -77.188	     -10.629	     -77.899	      -0.683	    -168.348
	76.500000000	      -0.750	    -169.444	     -10.673	     -77.889	     -10.667	     -78.526	      -0.677	    -169.053
	77.000000000	      -0.736	    -169.760	     -10.721	     -78.526	     -10.715	     -79.048	      -0.659	    -169.607
	77.500000000	      -0.729	    -169.988	     -10.776	     -79.055	     -10.774	     -79.624	      -0.645	    -170.279
	78.000000000	      -0.726	    -170.132	     -10.837	     -79.496	     -10.837	     -80.185	      -0.652	    -170.933
	78.500000000	      -0.700	    -170.491	     -10.902	     -79.850	     -10.903	     -80.593	      -0.681	    -171.309
	79.000000000	      -0.666	    -170.890	     -10.973	     -80.269	     -10.965	     -81.065	      -0.694	    -171.561
	79.500000000	      -0.659	    -171.335	     -11.050	     -80.629	     -11.040	     -81.499	      -0.707	    -171.762
	80.000000000	      -0.626	    -171.867	     -11.129	     -80.926	     -11.113	     -81.675	      -0.693	    -172.083
