!File name = EG0520U_1010_6x60_2SDBCB2EV_1915934D06_RC2952_Vg_N1.5V_Vd_0v.s2p
!Base file name = EG0520U_1010_6x60_2SDBCB2EV_1915934D06_RC2952
!Date = 8/23/2019
!Time = 1:12 PM
!Test duration(min) = 0.15
!Test = S-Parameters
!MPTS version = 8.91.5
!State File = C:\Data\PNA\20190821205423\S-Parameters_2019-08-23.sta
!Cal File = 
!ComputerName = CMPE-LAB-6
!Comments = 
!Attenuation = 0
!Z0 = 50
!Input Power(dBm) = -13.00
!Device ID = EG0520U_1010_6x60_2SDBCB2EV
!Row = 29
!Column = 52
!Technology = QPHT09
!Lot/Wafer = 1915934D06
!Gate Size = 360
!Mask = EG0520
!Cal Standards = GaAs BCB
!Cal Kit = EG2306
!Job Number = 20190821205423
!Device Type = FET
!set_Vg(v) = -1.500
!set_Vd(v) = 0.000
!file_name = EG0520U_1010_6x60_2SDBCB2EV_1915934D06_RC2952_Vg_N1.5V_Vd_0v.s2p
!Vd(V) = 0.000
!Vd(mA) = 0.002
!Vg(V) = -1.500
!Vg(mA) = -0.001
# GHz   S   DB   R   50
!%	Freq(GHz)	     s11(dB)	    s11(deg)	     s21(dB)	    s21(deg)	     s12(dB)	    s12(deg)	     s22(dB)	    s22(deg)
	0.500000000	      -0.003	      -4.064	     -29.337	      85.864	     -29.342	      85.905	      -0.005	      -3.613
	1.000000000	      -0.017	      -8.137	     -23.359	      82.242	     -23.362	      82.226	      -0.018	      -7.235
	1.500000000	      -0.036	     -12.179	     -19.893	      78.580	     -19.898	      78.517	      -0.036	     -10.835
	2.000000000	      -0.063	     -16.174	     -17.465	      74.871	     -17.472	      74.887	      -0.062	     -14.390
	2.500000000	      -0.098	     -20.117	     -15.618	      71.238	     -15.627	      71.245	      -0.096	     -17.903
	3.000000000	      -0.225	     -23.222	     -14.483	      66.828	     -14.490	      66.831	      -0.210	     -20.668
	3.500000000	      -0.284	     -26.882	     -13.284	      63.467	     -13.298	      63.465	      -0.266	     -23.929
	4.000000000	      -0.349	     -30.474	     -12.282	      60.144	     -12.294	      60.117	      -0.326	     -27.122
	4.500000000	      -0.419	     -33.967	     -11.423	      56.838	     -11.439	      56.821	      -0.391	     -30.251
	5.000000000	      -0.493	     -37.376	     -10.690	      53.642	     -10.702	      53.580	      -0.458	     -33.298
	5.500000000	      -0.566	     -40.709	     -10.052	      50.487	     -10.061	      50.441	      -0.528	     -36.274
	6.000000000	      -0.641	     -43.954	      -9.495	      47.439	      -9.506	      47.415	      -0.597	     -39.188
	6.500000000	      -0.717	     -47.085	      -9.013	      44.473	      -9.021	      44.441	      -0.667	     -42.014
	7.000000000	      -0.793	     -50.123	      -8.582	      41.604	      -8.595	      41.550	      -0.736	     -44.752
	7.500000000	      -0.864	     -53.097	      -8.207	      38.807	      -8.218	      38.764	      -0.804	     -47.417
	8.000000000	      -0.926	     -55.772	      -7.896	      36.283	      -7.907	      36.258	      -0.869	     -49.810
	8.500000000	      -1.000	     -58.552	      -7.600	      33.626	      -7.612	      33.593	      -0.936	     -52.329
	9.000000000	      -1.071	     -61.223	      -7.343	      31.042	      -7.353	      31.003	      -1.000	     -54.778
	9.500000000	      -1.136	     -63.818	      -7.111	      28.558	      -7.121	      28.515	      -1.061	     -57.143
	10.000000000	      -1.198	     -66.347	      -6.908	      26.139	      -6.918	      26.055	      -1.120	     -59.434
	10.500000000	      -1.255	     -68.801	      -6.728	      23.745	      -6.739	      23.705	      -1.176	     -61.655
	11.000000000	      -1.311	     -71.159	      -6.569	      21.525	      -6.581	      21.486	      -1.223	     -63.822
	11.500000000	      -1.362	     -73.438	      -6.427	      19.307	      -6.437	      19.230	      -1.267	     -65.945
	12.000000000	      -1.408	     -75.685	      -6.305	      17.177	      -6.317	      17.081	      -1.308	     -68.006
	12.500000000	      -1.451	     -77.869	      -6.198	      15.077	      -6.208	      15.016	      -1.347	     -70.062
	13.000000000	      -1.490	     -79.967	      -6.102	      13.035	      -6.116	      12.975	      -1.383	     -72.067
	13.500000000	      -1.525	     -82.014	      -6.022	      11.049	      -6.034	      10.949	      -1.414	     -73.968
	14.000000000	      -1.558	     -84.029	      -5.954	       9.119	      -5.967	       9.066	      -1.439	     -75.810
	14.500000000	      -1.584	     -85.984	      -5.894	       7.225	      -5.908	       7.167	      -1.463	     -77.669
	15.000000000	      -1.605	     -87.842	      -5.850	       5.400	      -5.861	       5.350	      -1.486	     -79.481
	15.500000000	      -1.625	     -89.643	      -5.808	       3.639	      -5.820	       3.537	      -1.505	     -81.226
	16.000000000	      -1.645	     -91.452	      -5.773	       1.912	      -5.784	       1.798	      -1.518	     -82.925
	16.500000000	      -1.663	     -93.212	      -5.746	       0.208	      -5.762	       0.125	      -1.530	     -84.580
	17.000000000	      -1.676	     -94.923	      -5.725	      -1.457	      -5.739	      -1.542	      -1.537	     -86.215
	17.500000000	      -1.685	     -96.555	      -5.714	      -3.094	      -5.728	      -3.209	      -1.547	     -87.858
	18.000000000	      -1.696	     -98.128	      -5.707	      -4.687	      -5.723	      -4.766	      -1.553	     -89.449
	18.500000000	      -1.704	     -99.706	      -5.704	      -6.229	      -5.720	      -6.317	      -1.553	     -90.982
	19.000000000	      -1.706	    -101.269	      -5.708	      -7.767	      -5.724	      -7.893	      -1.552	     -92.483
	19.500000000	      -1.704	    -102.790	      -5.720	      -9.281	      -5.737	      -9.360	      -1.549	     -93.954
	20.000000000	      -1.701	    -104.245	      -5.739	     -10.716	      -5.755	     -10.786	      -1.550	     -95.393
	20.500000000	      -1.702	    -105.692	      -5.756	     -12.152	      -5.772	     -12.233	      -1.539	     -96.848
	21.000000000	      -1.705	    -107.086	      -5.774	     -13.540	      -5.789	     -13.619	      -1.529	     -98.287
	21.500000000	      -1.698	    -108.483	      -5.794	     -14.914	      -5.811	     -15.001	      -1.517	     -99.657
	22.000000000	      -1.686	    -109.791	      -5.820	     -16.266	      -5.836	     -16.359	      -1.506	    -100.995
	22.500000000	      -1.666	    -111.093	      -5.847	     -17.613	      -5.862	     -17.704	      -1.504	    -102.345
	23.000000000	      -1.660	    -112.385	      -5.878	     -18.948	      -5.896	     -19.044	      -1.494	    -103.742
	23.500000000	      -1.654	    -113.647	      -5.920	     -20.313	      -5.937	     -20.402	      -1.478	    -105.107
	24.000000000	      -1.644	    -114.899	      -5.971	     -21.581	      -5.988	     -21.681	      -1.468	    -106.384
	24.500000000	      -1.612	    -116.098	      -6.015	     -22.762	      -6.030	     -22.872	      -1.455	    -107.582
	25.000000000	      -1.583	    -117.260	      -6.058	     -23.962	      -6.076	     -24.046	      -1.443	    -108.807
	25.500000000	      -1.571	    -118.555	      -6.109	     -25.147	      -6.126	     -25.235	      -1.427	    -110.072
	26.000000000	      -1.572	    -119.760	      -6.160	     -26.338	      -6.174	     -26.438	      -1.407	    -111.353
	26.500000000	      -1.559	    -120.921	      -6.208	     -27.500	      -6.225	     -27.616	      -1.389	    -112.501
	27.000000000	      -1.538	    -121.975	      -6.263	     -28.647	      -6.274	     -28.760	      -1.374	    -113.661
	27.500000000	      -1.522	    -122.914	      -6.335	     -29.803	      -6.348	     -29.889	      -1.364	    -114.711
	28.000000000	      -1.508	    -123.984	      -6.403	     -30.877	      -6.417	     -30.987	      -1.344	    -115.880
	28.500000000	      -1.473	    -125.013	      -6.457	     -31.872	      -6.469	     -31.953	      -1.324	    -117.095
	29.000000000	      -1.451	    -126.119	      -6.517	     -32.913	      -6.533	     -32.999	      -1.317	    -118.240
	29.500000000	      -1.429	    -127.101	      -6.575	     -33.959	      -6.584	     -34.029	      -1.296	    -119.274
	30.000000000	      -1.413	    -128.081	      -6.631	     -34.993	      -6.646	     -35.067	      -1.280	    -120.268
	30.500000000	      -1.401	    -129.057	      -6.691	     -36.005	      -6.709	     -36.087	      -1.263	    -121.318
	31.000000000	      -1.384	    -130.045	      -6.758	     -36.933	      -6.780	     -37.074	      -1.256	    -122.356
	31.500000000	      -1.350	    -131.031	      -6.844	     -37.951	      -6.859	     -38.074	      -1.238	    -123.382
	32.000000000	      -1.332	    -131.993	      -6.922	     -38.878	      -6.937	     -38.965	      -1.216	    -124.358
	32.500000000	      -1.332	    -132.848	      -6.979	     -39.800	      -6.997	     -39.856	      -1.189	    -125.269
	33.000000000	      -1.330	    -133.807	      -7.050	     -40.645	      -7.057	     -40.764	      -1.177	    -126.320
	33.500000000	      -1.307	    -134.696	      -7.115	     -41.589	      -7.134	     -41.694	      -1.166	    -127.313
	34.000000000	      -1.280	    -135.506	      -7.180	     -42.476	      -7.195	     -42.641	      -1.150	    -128.322
	34.500000000	      -1.252	    -136.387	      -7.248	     -43.515	      -7.269	     -43.668	      -1.124	    -129.227
	35.000000000	      -1.237	    -137.223	      -7.330	     -44.442	      -7.346	     -44.611	      -1.108	    -130.221
	35.500000000	      -1.217	    -138.028	      -7.418	     -45.277	      -7.426	     -45.393	      -1.097	    -131.085
	36.000000000	      -1.193	    -138.911	      -7.488	     -46.076	      -7.498	     -46.240	      -1.077	    -132.021
	36.500000000	      -1.159	    -139.712	      -7.556	     -46.885	      -7.572	     -47.082	      -1.066	    -132.899
	37.000000000	      -1.142	    -140.462	      -7.631	     -47.706	      -7.642	     -47.901	      -1.046	    -133.742
	37.500000000	      -1.146	    -141.293	      -7.708	     -48.587	      -7.719	     -48.797	      -1.044	    -134.569
	38.000000000	      -1.139	    -142.107	      -7.789	     -49.416	      -7.803	     -49.648	      -1.028	    -135.389
	38.500000000	      -1.122	    -142.879	      -7.880	     -50.309	      -7.884	     -50.523	      -1.005	    -136.288
	39.000000000	      -1.104	    -143.554	      -7.975	     -50.978	      -7.996	     -51.146	      -0.987	    -137.122
	39.500000000	      -1.086	    -144.117	      -8.042	     -51.715	      -8.065	     -51.943	      -0.966	    -137.996
	40.000000000	      -1.072	    -144.921	      -8.116	     -52.445	      -8.132	     -52.597	      -0.947	    -138.809
	40.500000000	      -1.060	    -145.750	      -8.192	     -53.147	      -8.220	     -53.386	      -0.927	    -139.605
	41.000000000	      -1.030	    -146.516	      -8.262	     -53.920	      -8.285	     -54.102	      -0.917	    -140.438
	41.500000000	      -1.003	    -147.071	      -8.335	     -54.729	      -8.359	     -54.878	      -0.913	    -141.147
	42.000000000	      -0.984	    -147.706	      -8.399	     -55.502	      -8.425	     -55.680	      -0.889	    -141.796
	42.500000000	      -0.985	    -148.435	      -8.481	     -56.285	      -8.497	     -56.485	      -0.867	    -142.373
	43.000000000	      -0.978	    -149.119	      -8.582	     -56.945	      -8.616	     -57.203	      -0.836	    -143.145
	43.500000000	      -0.950	    -149.723	      -8.674	     -57.662	      -8.698	     -57.863	      -0.826	    -144.067
	44.000000000	      -0.956	    -150.395	      -8.765	     -58.269	      -8.805	     -58.467	      -0.818	    -144.928
	44.500000000	      -0.961	    -151.154	      -8.844	     -59.005	      -8.860	     -59.185	      -0.802	    -145.602
	45.000000000	      -0.971	    -151.736	      -8.916	     -59.658	      -8.947	     -59.873	      -0.785	    -146.318
	45.500000000	      -0.941	    -153.163	      -9.187	     -60.692	      -9.204	     -60.939	      -0.780	    -147.621
	46.000000000	      -0.901	    -153.766	      -9.269	     -61.470	      -9.290	     -61.654	      -0.775	    -148.282
	46.500000000	      -0.883	    -154.510	      -9.361	     -62.168	      -9.385	     -62.386	      -0.735	    -148.849
	47.000000000	      -0.872	    -155.165	      -9.453	     -62.768	      -9.454	     -62.789	      -0.726	    -149.440
	47.500000000	      -0.865	    -155.818	      -9.571	     -63.314	      -9.591	     -63.489	      -0.725	    -150.064
	48.000000000	      -0.847	    -156.448	      -9.651	     -63.668	      -9.667	     -63.885	      -0.715	    -150.708
	48.500000000	      -0.841	    -157.056	      -9.716	     -64.267	      -9.744	     -64.507	      -0.709	    -151.216
	49.000000000	      -0.847	    -157.544	      -9.771	     -64.908	      -9.787	     -65.053	      -0.673	    -151.711
	49.500000000	      -0.854	    -157.985	      -9.847	     -65.485	      -9.855	     -65.758	      -0.642	    -152.238
	50.000000000	      -0.842	    -158.604	      -9.925	     -66.194	      -9.966	     -66.251	      -0.608	    -152.990
	50.500000000	      -0.833	    -159.067	     -10.032	     -66.660	     -10.089	     -66.989	      -0.606	    -153.734
	51.000000000	      -0.815	    -159.695	     -10.160	     -67.143	     -10.156	     -67.418	      -0.616	    -154.361
	51.500000000	      -0.807	    -160.019	     -10.197	     -67.582	     -10.235	     -67.958	      -0.603	    -155.025
	52.000000000	      -0.781	    -160.567	     -10.279	     -68.413	     -10.270	     -68.454	      -0.596	    -155.656
	52.500000000	      -0.779	    -161.271	     -10.353	     -68.859	     -10.367	     -69.090	      -0.581	    -156.128
	53.000000000	      -0.772	    -161.908	     -10.427	     -69.448	     -10.466	     -69.760	      -0.568	    -156.594
	53.500000000	      -0.761	    -162.229	     -10.517	     -69.934	     -10.564	     -70.226	      -0.553	    -157.150
	54.000000000	      -0.759	    -162.662	     -10.606	     -70.509	     -10.623	     -70.687	      -0.536	    -157.766
	54.500000000	      -0.760	    -163.360	     -10.692	     -70.959	     -10.735	     -71.219	      -0.520	    -158.222
	55.000000000	      -0.769	    -163.919	     -10.750	     -71.307	     -10.794	     -71.685	      -0.510	    -158.752
	55.500000000	      -0.770	    -164.468	     -10.824	     -71.793	     -10.856	     -72.102	      -0.494	    -159.340
	56.000000000	      -0.758	    -164.863	     -10.908	     -72.491	     -10.909	     -72.666	      -0.492	    -160.075
	56.500000000	      -0.741	    -165.238	     -10.979	     -73.107	     -10.968	     -73.484	      -0.483	    -160.691
	57.000000000	      -0.730	    -165.652	     -11.025	     -73.574	     -11.024	     -73.941	      -0.521	    -161.155
	57.500000000	      -0.727	    -166.102	     -11.158	     -74.110	     -11.161	     -74.589	      -0.491	    -161.596
	58.000000000	      -0.693	    -166.431	     -11.234	     -74.907	     -11.244	     -75.054	      -0.493	    -162.103
	58.500000000	      -0.672	    -166.916	     -11.323	     -75.228	     -11.310	     -75.336	      -0.488	    -162.642
	59.000000000	      -0.660	    -167.508	     -11.393	     -75.881	     -11.404	     -75.986	      -0.458	    -163.122
	59.500000000	      -0.636	    -167.861	     -11.470	     -76.236	     -11.477	     -76.597	      -0.435	    -163.584
	60.000000000	      -0.631	    -168.168	     -11.473	     -76.555	     -11.547	     -76.939	      -0.481	    -164.086
	60.500000000	      -0.592	    -168.765	     -11.578	     -77.270	     -11.613	     -77.733	      -0.491	    -164.378
	61.000000000	      -0.562	    -169.423	     -11.681	     -78.022	     -11.684	     -78.263	      -0.460	    -164.762
	61.500000000	      -0.563	    -169.884	     -11.755	     -78.605	     -11.775	     -78.641	      -0.420	    -165.136
	62.000000000	      -0.559	    -170.348	     -11.825	     -79.280	     -11.842	     -79.846	      -0.445	    -165.549
	62.500000000	      -0.589	    -170.796	     -11.970	     -79.586	     -12.009	     -80.097	      -0.437	    -166.036
	63.000000000	      -0.561	    -171.361	     -12.043	     -80.247	     -12.033	     -80.587	      -0.417	    -166.420
	63.500000000	      -0.539	    -171.731	     -12.132	     -80.634	     -12.135	     -80.864	      -0.388	    -166.999
	64.000000000	      -0.521	    -171.723	     -12.188	     -81.334	     -12.198	     -81.504	      -0.347	    -167.355
	64.500000000	      -0.483	    -171.966	     -12.303	     -81.658	     -12.235	     -81.834	      -0.371	    -167.586
	65.000000000	      -0.492	    -172.574	     -12.379	     -82.375	     -12.409	     -82.724	      -0.343	    -168.155
	65.500000000	      -0.505	    -173.226	     -12.510	     -83.014	     -12.536	     -83.246	      -0.359	    -169.044
	66.000000000	      -0.494	    -173.752	     -12.608	     -83.543	     -12.603	     -84.010	      -0.377	    -169.768
	66.500000000	      -0.502	    -174.017	     -12.794	     -84.211	     -12.752	     -84.167	      -0.389	    -169.937
	67.000000000	      -0.556	    -174.486	     -12.876	     -84.571	     -12.908	     -84.653	      -0.446	    -170.188
	67.500000000	      -0.561	    -175.485	     -13.020	     -84.645	     -13.034	     -84.617	      -0.468	    -170.754
	68.000000000	      -0.593	    -175.729	     -13.099	     -84.958	     -13.099	     -84.831	      -0.524	    -171.042
	68.500000000	      -0.620	    -175.984	     -13.165	     -85.207	     -13.191	     -85.122	      -0.517	    -171.336
	69.000000000	      -0.644	    -176.363	     -13.276	     -85.459	     -13.287	     -85.460	      -0.507	    -171.570
	69.500000000	      -0.629	    -176.748	     -13.381	     -85.785	     -13.403	     -85.737	      -0.516	    -171.817
	70.000000000	      -0.608	    -177.132	     -13.483	     -86.011	     -13.510	     -85.916	      -0.518	    -172.014
	70.500000000	      -0.579	    -177.526	     -13.576	     -86.044	     -13.608	     -85.948	      -0.510	    -172.208
	71.000000000	      -0.564	    -177.991	     -13.653	     -86.114	     -13.707	     -86.067	      -0.505	    -172.445
	71.500000000	      -0.519	    -178.660	     -13.701	     -86.158	     -13.757	     -86.298	      -0.475	    -172.752
	72.000000000	      -0.538	    -178.981	     -13.783	     -86.396	     -13.815	     -86.529	      -0.493	    -173.059
	72.500000000	      -0.562	    -179.453	     -13.839	     -86.700	     -13.857	     -86.859	      -0.497	    -173.431
	73.000000000	      -0.581	    -179.763	     -13.906	     -87.137	     -13.926	     -87.219	      -0.484	    -173.695
	73.500000000	      -0.594	     179.919	     -13.997	     -87.548	     -14.017	     -87.680	      -0.446	    -174.017
	74.000000000	      -0.611	     179.461	     -14.070	     -87.753	     -14.095	     -87.873	      -0.464	    -174.526
	74.500000000	      -0.658	     179.130	     -14.126	     -87.867	     -14.147	     -88.075	      -0.487	    -174.823
	75.000000000	      -0.699	     178.939	     -14.169	     -88.221	     -14.186	     -88.434	      -0.485	    -174.961
	75.500000000	      -0.742	     178.818	     -14.230	     -89.000	     -14.233	     -89.051	      -0.490	    -175.247
	76.000000000	      -0.753	     178.830	     -14.322	     -89.938	     -14.339	     -89.945	      -0.496	    -175.502
	76.500000000	      -0.741	     178.897	     -14.534	     -90.620	     -14.555	     -90.674	      -0.514	    -175.694
	77.000000000	      -0.709	     178.811	     -14.762	     -90.757	     -14.780	     -90.740	      -0.493	    -175.842
	77.500000000	      -0.652	     178.383	     -14.926	     -90.029	     -14.946	     -90.030	      -0.456	    -176.102
	78.000000000	      -0.594	     177.946	     -15.008	     -89.243	     -15.025	     -89.190	      -0.460	    -176.313
	78.500000000	      -0.553	     177.431	     -15.052	     -88.855	     -15.069	     -88.806	      -0.450	    -176.711
	79.000000000	      -0.576	     176.892	     -15.086	     -88.711	     -15.103	     -88.779	      -0.439	    -177.055
	79.500000000	      -0.591	     176.426	     -15.103	     -88.692	     -15.112	     -88.621	      -0.428	    -177.321
