!File name = EG0520U_1010_6x60_2SDBCB2EV_1915934D06_RC2952_Vg_N1.0V_Vd_0v.s2p
!Base file name = EG0520U_1010_6x60_2SDBCB2EV_1915934D06_RC2952
!Date = 8/23/2019
!Time = 1:13 PM
!Test duration(min) = 0.15
!Test = S-Parameters
!MPTS version = 8.91.5
!State File = C:\Data\PNA\20190821205423\S-Parameters_2019-08-23.sta
!Cal File = 
!ComputerName = CMPE-LAB-6
!Comments = 
!Attenuation = 0
!Z0 = 50
!Input Power(dBm) = -13.00
!Device ID = EG0520U_1010_6x60_2SDBCB2EV
!Row = 29
!Column = 52
!Technology = QPHT09
!Lot/Wafer = 1915934D06
!Gate Size = 360
!Mask = EG0520
!Cal Standards = GaAs BCB
!Cal Kit = EG2306
!Job Number = 20190821205423
!Device Type = FET
!set_Vg(v) = -1.000
!set_Vd(v) = 0.000
!file_name = EG0520U_1010_6x60_2SDBCB2EV_1915934D06_RC2952_Vg_N1.0V_Vd_0v.s2p
!Vd(V) = 0.000
!Vd(mA) = 0.002
!Vg(V) = -1.000
!Vg(mA) = -0.000
# GHz   S   DB   R   50
!%	Freq(GHz)	     s11(dB)	    s11(deg)	     s21(dB)	    s21(deg)	     s12(dB)	    s12(deg)	     s22(dB)	    s22(deg)
	0.500000000	      -0.004	      -4.570	     -28.273	      85.589	     -28.271	      85.671	      -0.011	      -3.915
	1.000000000	      -0.021	      -9.134	     -22.304	      81.511	     -22.299	      81.492	      -0.028	      -7.830
	1.500000000	      -0.046	     -13.661	     -18.850	      77.428	     -18.850	      77.369	      -0.052	     -11.710
	2.000000000	      -0.083	     -18.117	     -16.443	      73.390	     -16.440	      73.351	      -0.087	     -15.539
	2.500000000	      -0.128	     -22.502	     -14.619	      69.394	     -14.618	      69.330	      -0.131	     -19.309
	3.000000000	      -0.275	     -25.935	     -13.513	      64.729	     -13.514	      64.683	      -0.258	     -22.250
	3.500000000	      -0.345	     -29.980	     -12.340	      61.069	     -12.350	      60.964	      -0.328	     -25.718
	4.000000000	      -0.426	     -33.920	     -11.369	      57.428	     -11.378	      57.394	      -0.400	     -29.099
	4.500000000	      -0.511	     -37.737	     -10.545	      53.873	     -10.555	      53.854	      -0.477	     -32.396
	5.000000000	      -0.597	     -41.436	      -9.845	      50.450	      -9.853	      50.428	      -0.557	     -35.594
	5.500000000	      -0.683	     -45.043	      -9.242	      47.095	      -9.248	      47.091	      -0.637	     -38.700
	6.000000000	      -0.770	     -48.519	      -8.720	      43.881	      -8.726	      43.851	      -0.717	     -41.728
	6.500000000	      -0.857	     -51.864	      -8.273	      40.761	      -8.277	      40.713	      -0.798	     -44.651
	7.000000000	      -0.941	     -55.092	      -7.877	      37.753	      -7.887	      37.683	      -0.876	     -47.481
	7.500000000	      -1.019	     -58.245	      -7.535	      34.836	      -7.543	      34.775	      -0.949	     -50.217
	8.000000000	      -1.085	     -61.057	      -7.254	      32.217	      -7.264	      32.174	      -1.020	     -52.663
	8.500000000	      -1.165	     -63.973	      -6.993	      29.473	      -7.001	      29.421	      -1.090	     -55.233
	9.000000000	      -1.241	     -66.755	      -6.767	      26.814	      -6.775	      26.758	      -1.157	     -57.726
	9.500000000	      -1.307	     -69.445	      -6.566	      24.263	      -6.574	      24.204	      -1.220	     -60.130
	10.000000000	      -1.368	     -72.064	      -6.393	      21.790	      -6.400	      21.692	      -1.279	     -62.454
	10.500000000	      -1.427	     -74.585	      -6.240	      19.354	      -6.252	      19.335	      -1.333	     -64.700
	11.000000000	      -1.481	     -77.006	      -6.110	      17.105	      -6.120	      17.038	      -1.380	     -66.892
	11.500000000	      -1.531	     -79.340	      -5.995	      14.812	      -6.003	      14.756	      -1.422	     -69.026
	12.000000000	      -1.573	     -81.626	      -5.899	      12.699	      -5.909	      12.583	      -1.459	     -71.103
	12.500000000	      -1.611	     -83.849	      -5.816	      10.576	      -5.826	      10.503	      -1.495	     -73.178
	13.000000000	      -1.645	     -85.965	      -5.745	       8.520	      -5.756	       8.452	      -1.525	     -75.188
	13.500000000	      -1.675	     -88.036	      -5.687	       6.525	      -5.698	       6.451	      -1.550	     -77.096
	14.000000000	      -1.703	     -90.064	      -5.642	       4.591	      -5.652	       4.528	      -1.569	     -78.945
	14.500000000	      -1.722	     -92.023	      -5.603	       2.699	      -5.615	       2.621	      -1.587	     -80.817
	15.000000000	      -1.736	     -93.882	      -5.578	       0.881	      -5.587	       0.766	      -1.605	     -82.637
	15.500000000	      -1.749	     -95.686	      -5.556	      -0.889	      -5.567	      -1.001	      -1.616	     -84.393
	16.000000000	      -1.764	     -97.485	      -5.542	      -2.608	      -5.551	      -2.737	      -1.623	     -86.093
	16.500000000	      -1.775	     -99.236	      -5.533	      -4.309	      -5.547	      -4.400	      -1.629	     -87.748
	17.000000000	      -1.780	    -100.941	      -5.530	      -5.961	      -5.543	      -6.060	      -1.629	     -89.383
	17.500000000	      -1.783	    -102.559	      -5.535	      -7.623	      -5.548	      -7.721	      -1.633	     -91.033
	18.000000000	      -1.788	    -104.121	      -5.546	      -9.168	      -5.560	      -9.271	      -1.632	     -92.629
	18.500000000	      -1.789	    -105.677	      -5.558	     -10.698	      -5.574	     -10.809	      -1.625	     -94.170
	19.000000000	      -1.783	    -107.217	      -5.577	     -12.259	      -5.594	     -12.332	      -1.618	     -95.667
	19.500000000	      -1.775	    -108.719	      -5.606	     -13.718	      -5.620	     -13.864	      -1.608	     -97.142
	20.000000000	      -1.765	    -110.150	      -5.639	     -15.184	      -5.654	     -15.283	      -1.602	     -98.586
	20.500000000	      -1.761	    -111.574	      -5.672	     -16.529	      -5.687	     -16.669	      -1.586	    -100.040
	21.000000000	      -1.760	    -112.942	      -5.702	     -17.934	      -5.718	     -18.038	      -1.568	    -101.507
	21.500000000	      -1.744	    -114.331	      -5.738	     -19.295	      -5.754	     -19.407	      -1.554	    -102.853
	22.000000000	      -1.727	    -115.583	      -5.776	     -20.628	      -5.793	     -20.746	      -1.538	    -104.192
	22.500000000	      -1.702	    -116.850	      -5.817	     -21.957	      -5.832	     -22.064	      -1.531	    -105.548
	23.000000000	      -1.691	    -118.108	      -5.861	     -23.272	      -5.878	     -23.388	      -1.515	    -106.937
	23.500000000	      -1.680	    -119.346	      -5.915	     -24.619	      -5.931	     -24.729	      -1.494	    -108.337
	24.000000000	      -1.661	    -120.604	      -5.979	     -25.876	      -5.996	     -26.000	      -1.481	    -109.584
	24.500000000	      -1.630	    -121.737	      -6.034	     -27.039	      -6.050	     -27.175	      -1.465	    -110.777
	25.000000000	      -1.598	    -122.863	      -6.090	     -28.207	      -6.105	     -28.338	      -1.446	    -111.987
	25.500000000	      -1.581	    -124.122	      -6.150	     -29.392	      -6.168	     -29.489	      -1.430	    -113.253
	26.000000000	      -1.577	    -125.303	      -6.212	     -30.550	      -6.228	     -30.661	      -1.405	    -114.532
	26.500000000	      -1.560	    -126.421	      -6.273	     -31.692	      -6.291	     -31.803	      -1.383	    -115.703
	27.000000000	      -1.538	    -127.416	      -6.336	     -32.822	      -6.354	     -32.917	      -1.366	    -116.824
	27.500000000	      -1.518	    -128.357	      -6.419	     -33.959	      -6.434	     -34.086	      -1.351	    -117.885
	28.000000000	      -1.503	    -129.404	      -6.498	     -35.012	      -6.514	     -35.129	      -1.326	    -119.083
	28.500000000	      -1.466	    -130.396	      -6.565	     -35.962	      -6.581	     -36.084	      -1.307	    -120.258
	29.000000000	      -1.439	    -131.460	      -6.634	     -36.984	      -6.651	     -37.120	      -1.297	    -121.389
	29.500000000	      -1.416	    -132.454	      -6.700	     -38.016	      -6.718	     -38.123	      -1.274	    -122.377
	30.000000000	      -1.396	    -133.343	      -6.768	     -39.019	      -6.783	     -39.140	      -1.257	    -123.355
	30.500000000	      -1.384	    -134.306	      -6.840	     -40.017	      -6.854	     -40.131	      -1.241	    -124.401
	31.000000000	      -1.361	    -135.274	      -6.918	     -40.977	      -6.930	     -41.098	      -1.229	    -125.480
	31.500000000	      -1.327	    -136.199	      -7.007	     -41.932	      -7.027	     -42.075	      -1.210	    -126.489
	32.000000000	      -1.310	    -137.069	      -7.091	     -42.821	      -7.108	     -42.944	      -1.186	    -127.476
	32.500000000	      -1.307	    -138.019	      -7.161	     -43.701	      -7.182	     -43.805	      -1.159	    -128.373
	33.000000000	      -1.303	    -138.882	      -7.240	     -44.557	      -7.251	     -44.711	      -1.143	    -129.410
	33.500000000	      -1.283	    -139.723	      -7.317	     -45.434	      -7.328	     -45.624	      -1.133	    -130.401
	34.000000000	      -1.252	    -140.497	      -7.389	     -46.350	      -7.404	     -46.510	      -1.114	    -131.375
	34.500000000	      -1.224	    -141.345	      -7.464	     -47.317	      -7.477	     -47.482	      -1.088	    -132.264
	35.000000000	      -1.205	    -142.145	      -7.553	     -48.260	      -7.567	     -48.405	      -1.071	    -133.258
	35.500000000	      -1.187	    -142.934	      -7.647	     -49.064	      -7.662	     -49.208	      -1.062	    -134.124
	36.000000000	      -1.162	    -143.761	      -7.722	     -49.776	      -7.739	     -49.979	      -1.040	    -135.031
	36.500000000	      -1.131	    -144.525	      -7.798	     -50.599	      -7.820	     -50.781	      -1.027	    -135.938
	37.000000000	      -1.113	    -145.238	      -7.883	     -51.411	      -7.896	     -51.622	      -1.010	    -136.736
	37.500000000	      -1.111	    -146.068	      -7.972	     -52.319	      -7.991	     -52.471	      -1.005	    -137.571
	38.000000000	      -1.110	    -146.828	      -8.052	     -53.099	      -8.073	     -53.253	      -0.992	    -138.355
	38.500000000	      -1.092	    -147.546	      -8.149	     -53.940	      -8.174	     -54.137	      -0.972	    -139.258
	39.000000000	      -1.072	    -148.185	      -8.250	     -54.572	      -8.268	     -54.761	      -0.951	    -140.081
	39.500000000	      -1.053	    -148.748	      -8.334	     -55.328	      -8.358	     -55.524	      -0.928	    -140.924
	40.000000000	      -1.041	    -149.513	      -8.409	     -55.966	      -8.429	     -56.134	      -0.908	    -141.730
	40.500000000	      -1.032	    -150.309	      -8.494	     -56.654	      -8.512	     -56.928	      -0.887	    -142.478
	41.000000000	      -0.996	    -151.010	      -8.572	     -57.394	      -8.602	     -57.603	      -0.883	    -143.309
	41.500000000	      -0.970	    -151.535	      -8.645	     -58.121	      -8.669	     -58.364	      -0.876	    -144.005
	42.000000000	      -0.953	    -152.167	      -8.717	     -58.939	      -8.744	     -59.194	      -0.853	    -144.667
	42.500000000	      -0.953	    -152.863	      -8.809	     -59.691	      -8.835	     -59.904	      -0.827	    -145.238
	43.000000000	      -0.949	    -153.474	      -8.927	     -60.431	      -8.935	     -60.579	      -0.795	    -145.989
	43.500000000	      -0.920	    -154.088	      -9.014	     -61.005	      -9.035	     -61.256	      -0.793	    -146.890
	44.000000000	      -0.919	    -154.721	      -9.109	     -61.665	      -9.140	     -61.919	      -0.776	    -147.702
	44.500000000	      -0.930	    -155.469	      -9.189	     -62.321	      -9.218	     -62.557	      -0.766	    -148.395
	45.000000000	      -0.940	    -155.980	      -9.275	     -62.932	      -9.289	     -63.162	      -0.747	    -149.094
	45.500000000	      -0.909	    -157.299	      -9.536	     -63.926	      -9.571	     -64.115	      -0.743	    -150.322
	46.000000000	      -0.872	    -157.872	      -9.652	     -64.590	      -9.660	     -64.857	      -0.733	    -150.963
	46.500000000	      -0.844	    -158.585	      -9.751	     -65.329	      -9.753	     -65.540	      -0.700	    -151.525
	47.000000000	      -0.842	    -159.178	      -9.832	     -65.826	      -9.848	     -66.000	      -0.677	    -152.101
	47.500000000	      -0.837	    -159.842	      -9.938	     -66.455	      -9.971	     -66.661	      -0.683	    -152.817
	48.000000000	      -0.824	    -160.432	     -10.049	     -66.745	     -10.067	     -67.051	      -0.700	    -153.387
	48.500000000	      -0.817	    -161.001	     -10.111	     -67.168	     -10.131	     -67.462	      -0.661	    -153.826
	49.000000000	      -0.820	    -161.429	     -10.162	     -67.841	     -10.194	     -68.002	      -0.640	    -154.368
	49.500000000	      -0.828	    -161.892	     -10.252	     -68.452	     -10.268	     -68.749	      -0.609	    -154.937
	50.000000000	      -0.818	    -162.452	     -10.365	     -69.039	     -10.401	     -69.488	      -0.585	    -155.512
	50.500000000	      -0.800	    -163.006	     -10.447	     -69.256	     -10.475	     -69.764	      -0.597	    -156.297
	51.000000000	      -0.790	    -163.580	     -10.564	     -69.932	     -10.585	     -70.477	      -0.588	    -156.983
	51.500000000	      -0.783	    -163.879	     -10.613	     -70.412	     -10.634	     -70.840	      -0.581	    -157.619
	52.000000000	      -0.754	    -164.353	     -10.692	     -71.129	     -10.733	     -71.314	      -0.572	    -158.173
	52.500000000	      -0.753	    -164.997	     -10.794	     -71.800	     -10.797	     -71.869	      -0.556	    -158.575
	53.000000000	      -0.747	    -165.560	     -10.871	     -72.256	     -10.914	     -72.412	      -0.543	    -159.051
	53.500000000	      -0.741	    -165.946	     -10.949	     -72.849	     -11.005	     -73.103	      -0.525	    -159.701
	54.000000000	      -0.730	    -166.351	     -11.048	     -73.318	     -11.073	     -73.464	      -0.508	    -160.170
	54.500000000	      -0.727	    -166.973	     -11.130	     -73.775	     -11.144	     -74.037	      -0.496	    -160.705
	55.000000000	      -0.746	    -167.541	     -11.226	     -74.116	     -11.233	     -74.275	      -0.484	    -161.163
	55.500000000	      -0.730	    -167.988	     -11.257	     -74.419	     -11.316	     -74.752	      -0.471	    -161.727
	56.000000000	      -0.726	    -168.455	     -11.360	     -75.135	     -11.358	     -75.267	      -0.452	    -162.464
	56.500000000	      -0.719	    -168.814	     -11.401	     -75.516	     -11.532	     -76.012	      -0.454	    -163.157
	57.000000000	      -0.709	    -169.203	     -11.496	     -76.319	     -11.542	     -76.534	      -0.484	    -163.339
	57.500000000	      -0.699	    -169.634	     -11.614	     -76.730	     -11.630	     -77.004	      -0.477	    -163.950
	58.000000000	      -0.669	    -169.962	     -11.694	     -77.464	     -11.708	     -77.568	      -0.458	    -164.476
	58.500000000	      -0.653	    -170.367	     -11.796	     -77.653	     -11.814	     -78.021	      -0.461	    -164.924
	59.000000000	      -0.626	    -170.888	     -11.884	     -78.186	     -11.850	     -78.517	      -0.442	    -165.402
	59.500000000	      -0.620	    -171.277	     -11.942	     -78.871	     -11.910	     -79.017	      -0.426	    -165.906
	60.000000000	      -0.613	    -171.549	     -11.989	     -79.420	     -12.026	     -79.786	      -0.462	    -166.277
	60.500000000	      -0.577	    -172.139	     -12.086	     -79.858	     -12.100	     -80.116	      -0.454	    -166.702
	61.000000000	      -0.546	    -172.741	     -12.165	     -80.270	     -12.175	     -80.821	      -0.440	    -167.045
	61.500000000	      -0.558	    -173.221	     -12.258	     -80.938	     -12.266	     -81.027	      -0.434	    -167.422
	62.000000000	      -0.543	    -173.657	     -12.318	     -81.640	     -12.337	     -82.116	      -0.427	    -167.964
	62.500000000	      -0.560	    -174.018	     -12.466	     -82.237	     -12.552	     -82.217	      -0.436	    -168.391
	63.000000000	      -0.547	    -174.647	     -12.566	     -82.354	     -12.567	     -82.670	      -0.396	    -168.610
	63.500000000	      -0.531	    -174.991	     -12.655	     -82.707	     -12.688	     -83.438	      -0.386	    -169.280
	64.000000000	      -0.517	    -174.978	     -12.710	     -83.519	     -12.756	     -83.788	      -0.356	    -169.640
	64.500000000	      -0.470	    -175.281	     -12.797	     -83.690	     -12.916	     -84.508	      -0.370	    -169.760
	65.000000000	      -0.509	    -175.841	     -12.907	     -84.819	     -12.977	     -84.696	      -0.340	    -170.428
	65.500000000	      -0.489	    -176.463	     -13.006	     -85.373	     -13.037	     -85.473	      -0.365	    -171.358
	66.000000000	      -0.486	    -176.848	     -13.226	     -85.691	     -13.207	     -85.967	      -0.406	    -171.881
	66.500000000	      -0.499	    -177.251	     -13.315	     -85.561	     -13.339	     -86.672	      -0.402	    -172.038
	67.000000000	      -0.557	    -177.627	     -13.439	     -86.674	     -13.495	     -86.350	      -0.432	    -172.289
	67.500000000	      -0.555	    -178.612	     -13.568	     -86.645	     -13.582	     -86.587	      -0.475	    -172.789
	68.000000000	      -0.584	    -178.828	     -13.623	     -86.934	     -13.664	     -86.803	      -0.522	    -173.128
	68.500000000	      -0.613	    -179.099	     -13.716	     -86.937	     -13.740	     -87.076	      -0.526	    -173.332
	69.000000000	      -0.640	    -179.461	     -13.819	     -87.325	     -13.856	     -87.330	      -0.505	    -173.576
	69.500000000	      -0.632	    -179.798	     -13.922	     -87.554	     -13.954	     -87.622	      -0.520	    -173.819
	70.000000000	      -0.609	     179.834	     -14.035	     -87.840	     -14.060	     -87.756	      -0.524	    -173.992
	70.500000000	      -0.583	     179.492	     -14.128	     -87.774	     -14.151	     -87.763	      -0.512	    -174.151
	71.000000000	      -0.567	     179.054	     -14.218	     -87.624	     -14.253	     -87.875	      -0.502	    -174.360
	71.500000000	      -0.524	     178.737	     -14.262	     -88.178	     -14.307	     -88.082	      -0.470	    -174.670
	72.000000000	      -0.527	     178.093	     -14.335	     -88.149	     -14.356	     -88.284	      -0.491	    -174.948
	72.500000000	      -0.554	     177.639	     -14.392	     -88.423	     -14.412	     -88.580	      -0.487	    -175.319
	73.000000000	      -0.572	     177.372	     -14.464	     -88.857	     -14.478	     -88.909	      -0.480	    -175.564
	73.500000000	      -0.593	     177.051	     -14.543	     -89.230	     -14.555	     -89.396	      -0.444	    -175.895
	74.000000000	      -0.611	     176.626	     -14.621	     -89.435	     -14.637	     -89.618	      -0.457	    -176.415
	74.500000000	      -0.656	     176.286	     -14.671	     -89.574	     -14.686	     -89.799	      -0.482	    -176.712
	75.000000000	      -0.695	     176.093	     -14.718	     -89.973	     -14.726	     -90.207	      -0.481	    -176.887
	75.500000000	      -0.736	     175.997	     -14.769	     -90.731	     -14.773	     -90.868	      -0.488	    -177.154
	76.000000000	      -0.749	     176.021	     -14.883	     -91.800	     -14.886	     -91.871	      -0.503	    -177.465
	76.500000000	      -0.738	     176.061	     -15.098	     -92.549	     -15.115	     -92.646	      -0.511	    -177.625
	77.000000000	      -0.712	     175.961	     -15.357	     -92.684	     -15.362	     -92.649	      -0.501	    -177.705
	77.500000000	      -0.648	     175.681	     -15.552	     -91.875	     -15.562	     -91.925	      -0.462	    -177.930
	78.000000000	      -0.591	     175.255	     -15.641	     -91.003	     -15.650	     -90.995	      -0.456	    -178.109
	78.500000000	      -0.553	     174.707	     -15.684	     -90.432	     -15.706	     -90.445	      -0.457	    -178.548
	79.000000000	      -0.584	     174.149	     -15.712	     -90.237	     -15.717	     -90.252	      -0.447	    -178.854
	79.500000000	      -0.596	     173.685	     -15.725	     -90.076	     -15.732	     -90.014	      -0.441	    -179.079
