!File name = EG0520U_1010_6x60_2SDBCB2EV_1915934D06_RC7325_Vg_N1.0V_Vd_0v.s2p
!Base file name = EG0520U_1010_6x60_2SDBCB2EV_1915934D06_RC7325
!Date = 8/23/2019
!Time = 1:07 PM
!Test duration(min) = 0.15
!Test = S-Parameters
!MPTS version = 8.91.5
!State File = C:\Data\PNA\20190821205423\S-Parameters_2019-08-23.sta
!Cal File = 
!ComputerName = CMPE-LAB-6
!Comments = 
!Attenuation = 0
!Z0 = 50
!Input Power(dBm) = -13.00
!Device ID = EG0520U_1010_6x60_2SDBCB2EV
!Row = 73
!Column = 25
!Technology = QPHT09
!Lot/Wafer = 1915934D06
!Gate Size = 360
!Mask = EG0520
!Cal Standards = GaAs BCB
!Cal Kit = EG2306
!Job Number = 20190821205423
!Device Type = FET
!set_Vg(v) = -1.000
!set_Vd(v) = 0.000
!file_name = EG0520U_1010_6x60_2SDBCB2EV_1915934D06_RC7325_Vg_N1.0V_Vd_0v.s2p
!Vd(V) = 0.000
!Vd(mA) = 0.002
!Vg(V) = -1.000
!Vg(mA) = -0.000
# GHz   S   DB   R   50
!%	Freq(GHz)	     s11(dB)	    s11(deg)	     s21(dB)	    s21(deg)	     s12(dB)	    s12(deg)	     s22(dB)	    s22(deg)
	0.500000000	      -0.004	      -4.567	     -28.276	      85.574	     -28.276	      85.678	      -0.034	      -3.930
	1.000000000	      -0.022	      -9.131	     -22.304	      81.570	     -22.303	      81.508	      -0.053	      -7.840
	1.500000000	      -0.047	     -13.650	     -18.851	      77.427	     -18.853	      77.395	      -0.074	     -11.718
	2.000000000	      -0.082	     -18.103	     -16.445	      73.385	     -16.443	      73.379	      -0.108	     -15.550
	2.500000000	      -0.127	     -22.477	     -14.621	      69.439	     -14.623	      69.364	      -0.152	     -19.312
	3.000000000	      -0.274	     -25.900	     -13.518	      64.728	     -13.521	      64.718	      -0.271	     -22.255
	3.500000000	      -0.345	     -29.931	     -12.349	      61.132	     -12.360	      61.055	      -0.340	     -25.708
	4.000000000	      -0.424	     -33.848	     -11.379	      57.493	     -11.391	      57.465	      -0.413	     -29.084
	4.500000000	      -0.508	     -37.655	     -10.559	      53.955	     -10.570	      53.936	      -0.488	     -32.371
	5.000000000	      -0.594	     -41.329	      -9.860	      50.550	      -9.872	      50.529	      -0.568	     -35.554
	5.500000000	      -0.679	     -44.909	      -9.262	      47.211	      -9.271	      47.211	      -0.645	     -38.643
	6.000000000	      -0.765	     -48.360	      -8.744	      44.025	      -8.752	      43.998	      -0.724	     -41.652
	6.500000000	      -0.850	     -51.672	      -8.300	      40.926	      -8.306	      40.893	      -0.803	     -44.552
	7.000000000	      -0.933	     -54.861	      -7.908	      37.957	      -7.918	      37.899	      -0.879	     -47.351
	7.500000000	      -1.009	     -57.971	      -7.570	      35.079	      -7.579	      35.024	      -0.949	     -50.065
	8.000000000	      -1.074	     -60.746	      -7.291	      32.490	      -7.301	      32.455	      -1.018	     -52.483
	8.500000000	      -1.151	     -63.620	      -7.032	      29.784	      -7.042	      29.732	      -1.086	     -55.024
	9.000000000	      -1.224	     -66.363	      -6.810	      27.154	      -6.818	      27.111	      -1.152	     -57.482
	9.500000000	      -1.289	     -68.998	      -6.612	      24.657	      -6.622	      24.602	      -1.212	     -59.850
	10.000000000	      -1.349	     -71.571	      -6.441	      22.237	      -6.451	      22.178	      -1.269	     -62.131
	10.500000000	      -1.404	     -74.046	      -6.291	      19.881	      -6.302	      19.831	      -1.320	     -64.348
	11.000000000	      -1.456	     -76.420	      -6.160	      17.629	      -6.171	      17.576	      -1.363	     -66.507
	11.500000000	      -1.505	     -78.706	      -6.047	      15.416	      -6.057	      15.368	      -1.404	     -68.606
	12.000000000	      -1.547	     -80.945	      -5.952	      13.312	      -5.963	      13.202	      -1.439	     -70.644
	12.500000000	      -1.585	     -83.107	      -5.872	      11.234	      -5.881	      11.130	      -1.473	     -72.671
	13.000000000	      -1.617	     -85.175	      -5.803	       9.226	      -5.816	       9.163	      -1.504	     -74.634
	13.500000000	      -1.645	     -87.186	      -5.746	       7.303	      -5.759	       7.217	      -1.527	     -76.490
	14.000000000	      -1.671	     -89.162	      -5.702	       5.411	      -5.714	       5.348	      -1.545	     -78.298
	14.500000000	      -1.690	     -91.065	      -5.663	       3.574	      -5.677	       3.507	      -1.563	     -80.117
	15.000000000	      -1.704	     -92.858	      -5.637	       1.815	      -5.647	       1.706	      -1.580	     -81.884
	15.500000000	      -1.717	     -94.606	      -5.614	       0.047	      -5.629	       0.023	      -1.590	     -83.591
	16.000000000	      -1.731	     -96.347	      -5.599	      -1.594	      -5.611	      -1.709	      -1.596	     -85.244
	16.500000000	      -1.742	     -98.039	      -5.591	      -3.243	      -5.606	      -3.360	      -1.601	     -86.855
	17.000000000	      -1.746	     -99.681	      -5.589	      -4.840	      -5.603	      -4.972	      -1.603	     -88.439
	17.500000000	      -1.750	    -101.242	      -5.597	      -6.415	      -5.610	      -6.541	      -1.607	     -90.039
	18.000000000	      -1.757	    -102.740	      -5.606	      -7.935	      -5.621	      -8.060	      -1.607	     -91.566
	18.500000000	      -1.758	    -104.240	      -5.618	      -9.400	      -5.635	      -9.499	      -1.602	     -93.039
	19.000000000	      -1.753	    -105.698	      -5.636	     -10.856	      -5.652	     -10.988	      -1.594	     -94.479
	19.500000000	      -1.743	    -107.130	      -5.660	     -12.289	      -5.677	     -12.385	      -1.586	     -95.897
	20.000000000	      -1.733	    -108.510	      -5.689	     -13.721	      -5.706	     -13.809	      -1.580	     -97.268
	20.500000000	      -1.725	    -109.858	      -5.718	     -15.061	      -5.738	     -15.152	      -1.564	     -98.659
	21.000000000	      -1.719	    -111.197	      -5.752	     -16.356	      -5.768	     -16.463	      -1.549	    -100.052
	21.500000000	      -1.708	    -112.523	      -5.787	     -17.668	      -5.804	     -17.766	      -1.537	    -101.365
	22.000000000	      -1.689	    -113.784	      -5.818	     -18.930	      -5.837	     -19.043	      -1.522	    -102.635
	22.500000000	      -1.673	    -115.021	      -5.857	     -20.201	      -5.876	     -20.302	      -1.517	    -103.910
	23.000000000	      -1.666	    -116.207	      -5.900	     -21.456	      -5.920	     -21.566	      -1.502	    -105.240
	23.500000000	      -1.656	    -117.398	      -5.949	     -22.745	      -5.967	     -22.842	      -1.488	    -106.540
	24.000000000	      -1.644	    -118.564	      -6.011	     -23.957	      -6.029	     -24.068	      -1.475	    -107.706
	24.500000000	      -1.612	    -119.675	      -6.066	     -25.031	      -6.086	     -25.145	      -1.455	    -108.835
	25.000000000	      -1.589	    -120.747	      -6.114	     -26.132	      -6.133	     -26.224	      -1.436	    -109.976
	25.500000000	      -1.580	    -121.895	      -6.171	     -27.238	      -6.190	     -27.355	      -1.416	    -111.217
	26.000000000	      -1.570	    -122.954	      -6.224	     -28.323	      -6.241	     -28.424	      -1.396	    -112.394
	26.500000000	      -1.549	    -124.000	      -6.275	     -29.434	      -6.296	     -29.542	      -1.375	    -113.516
	27.000000000	      -1.524	    -124.945	      -6.334	     -30.517	      -6.348	     -30.633	      -1.359	    -114.564
	27.500000000	      -1.498	    -125.849	      -6.412	     -31.600	      -6.430	     -31.696	      -1.344	    -115.571
	28.000000000	      -1.476	    -126.887	      -6.480	     -32.609	      -6.497	     -32.724	      -1.320	    -116.697
	28.500000000	      -1.443	    -127.962	      -6.540	     -33.532	      -6.554	     -33.620	      -1.297	    -117.804
	29.000000000	      -1.429	    -128.954	      -6.598	     -34.518	      -6.617	     -34.613	      -1.285	    -118.895
	29.500000000	      -1.410	    -129.905	      -6.658	     -35.504	      -6.682	     -35.631	      -1.268	    -119.902
	30.000000000	      -1.398	    -130.705	      -6.727	     -36.474	      -6.742	     -36.567	      -1.251	    -120.789
	30.500000000	      -1.387	    -131.654	      -6.794	     -37.414	      -6.810	     -37.500	      -1.239	    -121.813
	31.000000000	      -1.365	    -132.545	      -6.862	     -38.331	      -6.875	     -38.479	      -1.227	    -122.768
	31.500000000	      -1.336	    -133.439	      -6.946	     -39.238	      -6.965	     -39.366	      -1.206	    -123.721
	32.000000000	      -1.315	    -134.331	      -7.015	     -40.087	      -7.036	     -40.195	      -1.185	    -124.656
	32.500000000	      -1.310	    -135.165	      -7.076	     -40.949	      -7.099	     -41.024	      -1.161	    -125.562
	33.000000000	      -1.304	    -136.006	      -7.145	     -41.764	      -7.162	     -41.901	      -1.148	    -126.478
	33.500000000	      -1.282	    -136.861	      -7.221	     -42.644	      -7.240	     -42.809	      -1.137	    -127.401
	34.000000000	      -1.258	    -137.654	      -7.295	     -43.518	      -7.311	     -43.659	      -1.121	    -128.360
	34.500000000	      -1.240	    -138.494	      -7.365	     -44.424	      -7.387	     -44.550	      -1.097	    -129.186
	35.000000000	      -1.231	    -139.254	      -7.448	     -45.272	      -7.467	     -45.441	      -1.079	    -130.105
	35.500000000	      -1.220	    -140.002	      -7.526	     -46.012	      -7.541	     -46.162	      -1.066	    -130.915
	36.000000000	      -1.205	    -140.716	      -7.594	     -46.731	      -7.614	     -46.946	      -1.046	    -131.766
	36.500000000	      -1.173	    -141.375	      -7.663	     -47.493	      -7.683	     -47.699	      -1.030	    -132.638
	37.000000000	      -1.144	    -142.017	      -7.732	     -48.301	      -7.749	     -48.474	      -1.014	    -133.448
	37.500000000	      -1.130	    -142.781	      -7.799	     -49.181	      -7.827	     -49.253	      -1.002	    -134.227
	38.000000000	      -1.118	    -143.572	      -7.882	     -49.880	      -7.900	     -50.065	      -0.989	    -135.012
	38.500000000	      -1.096	    -144.332	      -7.967	     -50.753	      -7.979	     -50.944	      -0.978	    -135.825
	39.000000000	      -1.077	    -145.035	      -8.054	     -51.468	      -8.076	     -51.657	      -0.957	    -136.632
	39.500000000	      -1.060	    -145.605	      -8.124	     -52.087	      -8.162	     -52.372	      -0.937	    -137.432
	40.000000000	      -1.046	    -146.387	      -8.191	     -52.819	      -8.222	     -53.069	      -0.920	    -138.210
	40.500000000	      -1.041	    -147.227	      -8.269	     -53.561	      -8.295	     -53.742	      -0.902	    -138.937
	41.000000000	      -1.021	    -147.990	      -8.357	     -54.284	      -8.370	     -54.496	      -0.887	    -139.707
	41.500000000	      -1.002	    -148.528	      -8.434	     -55.063	      -8.455	     -55.192	      -0.888	    -140.418
	42.000000000	      -0.997	    -149.127	      -8.500	     -55.694	      -8.520	     -55.872	      -0.862	    -141.052
	42.500000000	      -1.002	    -149.744	      -8.583	     -56.344	      -8.599	     -56.528	      -0.844	    -141.565
	43.000000000	      -0.997	    -150.328	      -8.673	     -57.044	      -8.697	     -57.161	      -0.815	    -142.352
	43.500000000	      -0.973	    -150.908	      -8.758	     -57.710	      -8.763	     -57.875	      -0.814	    -143.178
	44.000000000	      -0.971	    -151.433	      -8.829	     -58.175	      -8.854	     -58.477	      -0.803	    -143.952
	44.500000000	      -0.978	    -152.214	      -8.906	     -58.858	      -8.931	     -59.124	      -0.783	    -144.545
	45.000000000	      -0.976	    -152.746	      -8.967	     -59.570	      -8.996	     -59.696	      -0.772	    -145.229
	45.500000000	      -0.942	    -154.136	      -9.234	     -60.620	      -9.249	     -60.788	      -0.756	    -146.525
	46.000000000	      -0.909	    -154.752	      -9.306	     -61.381	      -9.339	     -61.520	      -0.748	    -147.142
	46.500000000	      -0.888	    -155.433	      -9.409	     -62.029	      -9.431	     -62.303	      -0.714	    -147.731
	47.000000000	      -0.877	    -156.094	      -9.491	     -62.632	      -9.517	     -62.894	      -0.692	    -148.344
	47.500000000	      -0.876	    -156.733	      -9.597	     -63.183	      -9.632	     -63.531	      -0.696	    -148.964
	48.000000000	      -0.861	    -157.303	      -9.682	     -63.615	      -9.701	     -63.831	      -0.697	    -149.575
	48.500000000	      -0.856	    -157.948	      -9.749	     -64.098	      -9.775	     -64.404	      -0.679	    -150.109
	49.000000000	      -0.854	    -158.380	      -9.828	     -64.800	      -9.852	     -64.992	      -0.646	    -150.674
	49.500000000	      -0.856	    -158.876	      -9.882	     -65.327	      -9.904	     -65.711	      -0.627	    -151.325
	50.000000000	      -0.849	    -159.447	      -9.988	     -65.820	      -9.969	     -66.275	      -0.616	    -151.999
	50.500000000	      -0.835	    -160.016	     -10.068	     -66.729	     -10.123	     -66.751	      -0.628	    -152.639
	51.000000000	      -0.827	    -160.587	     -10.214	     -67.017	     -10.208	     -67.336	      -0.634	    -153.239
	51.500000000	      -0.821	    -161.020	     -10.244	     -67.346	     -10.288	     -67.653	      -0.631	    -153.819
	52.000000000	      -0.795	    -161.479	     -10.336	     -67.829	     -10.349	     -68.063	      -0.628	    -154.388
	52.500000000	      -0.797	    -162.146	     -10.383	     -68.511	     -10.425	     -68.691	      -0.615	    -154.799
	53.000000000	      -0.784	    -162.724	     -10.450	     -69.021	     -10.478	     -69.287	      -0.592	    -155.191
	53.500000000	      -0.782	    -163.154	     -10.533	     -69.442	     -10.583	     -69.814	      -0.577	    -155.760
	54.000000000	      -0.770	    -163.598	     -10.621	     -69.862	     -10.627	     -70.329	      -0.570	    -156.258
	54.500000000	      -0.780	    -164.258	     -10.690	     -70.548	     -10.704	     -70.723	      -0.547	    -156.726
	55.000000000	      -0.796	    -164.832	     -10.776	     -70.883	     -10.773	     -71.277	      -0.521	    -157.199
	55.500000000	      -0.791	    -165.373	     -10.813	     -71.297	     -10.859	     -71.632	      -0.510	    -157.762
	56.000000000	      -0.779	    -165.893	     -10.896	     -71.899	     -10.918	     -72.090	      -0.509	    -158.399
	56.500000000	      -0.774	    -166.248	     -10.991	     -72.556	     -10.990	     -72.901	      -0.509	    -159.104
	57.000000000	      -0.767	    -166.623	     -11.035	     -72.945	     -11.082	     -73.459	      -0.512	    -159.528
	57.500000000	      -0.758	    -167.064	     -11.104	     -73.612	     -11.129	     -73.923	      -0.498	    -160.061
	58.000000000	      -0.737	    -167.414	     -11.119	     -74.357	     -11.202	     -74.689	      -0.491	    -160.552
	58.500000000	      -0.691	    -167.808	     -11.235	     -74.916	     -11.271	     -74.919	      -0.483	    -161.021
	59.000000000	      -0.692	    -168.486	     -11.286	     -75.146	     -11.306	     -75.972	      -0.457	    -161.567
	59.500000000	      -0.687	    -168.865	     -11.343	     -76.299	     -11.386	     -76.220	      -0.434	    -161.978
	60.000000000	      -0.664	    -169.290	     -11.432	     -76.693	     -11.494	     -76.836	      -0.483	    -162.475
	60.500000000	      -0.617	    -169.811	     -11.513	     -77.129	     -11.539	     -77.346	      -0.479	    -162.843
	61.000000000	      -0.595	    -170.514	     -11.603	     -77.928	     -11.628	     -78.094	      -0.451	    -163.247
	61.500000000	      -0.604	    -170.959	     -11.720	     -78.299	     -11.729	     -78.520	      -0.437	    -163.736
	62.000000000	      -0.587	    -171.486	     -11.823	     -78.913	     -11.803	     -79.488	      -0.434	    -164.203
	62.500000000	      -0.598	    -172.010	     -11.933	     -79.879	     -11.937	     -80.340	      -0.445	    -164.676
	63.000000000	      -0.587	    -172.686	     -12.019	     -80.076	     -12.008	     -80.255	      -0.428	    -165.040
	63.500000000	      -0.571	    -173.047	     -12.098	     -80.463	     -12.117	     -80.884	      -0.403	    -165.533
	64.000000000	      -0.557	    -173.117	     -12.189	     -81.203	     -12.237	     -81.384	      -0.383	    -166.095
	64.500000000	      -0.524	    -173.534	     -12.244	     -81.619	     -12.303	     -81.798	      -0.396	    -166.264
	65.000000000	      -0.544	    -174.025	     -12.343	     -82.325	     -12.407	     -82.764	      -0.368	    -166.940
	65.500000000	      -0.549	    -174.758	     -12.510	     -82.928	     -12.523	     -83.268	      -0.392	    -167.718
	66.000000000	      -0.531	    -175.183	     -12.599	     -83.203	     -12.618	     -83.591	      -0.440	    -168.298
	66.500000000	      -0.549	    -175.641	     -12.788	     -83.861	     -12.755	     -84.013	      -0.422	    -168.625
	67.000000000	      -0.585	    -176.058	     -12.865	     -83.916	     -12.846	     -84.744	      -0.457	    -168.916
	67.500000000	      -0.605	    -177.103	     -12.982	     -84.287	     -13.007	     -84.424	      -0.484	    -169.386
	68.000000000	      -0.632	    -177.336	     -13.069	     -84.710	     -13.086	     -84.601	      -0.537	    -169.723
	68.500000000	      -0.655	    -177.670	     -13.152	     -84.915	     -13.177	     -84.917	      -0.536	    -169.928
	69.000000000	      -0.675	    -178.080	     -13.258	     -85.134	     -13.271	     -85.264	      -0.528	    -170.279
	69.500000000	      -0.671	    -178.540	     -13.358	     -85.451	     -13.377	     -85.557	      -0.544	    -170.581
	70.000000000	      -0.650	    -178.916	     -13.457	     -85.686	     -13.483	     -85.716	      -0.557	    -170.720
	70.500000000	      -0.630	    -179.341	     -13.554	     -85.693	     -13.581	     -85.828	      -0.545	    -170.933
	71.000000000	      -0.618	    -179.842	     -13.586	     -85.751	     -13.670	     -85.917	      -0.545	    -171.134
	71.500000000	      -0.581	     179.602	     -13.687	     -86.038	     -13.728	     -86.103	      -0.507	    -171.456
	72.000000000	      -0.590	     179.072	     -13.765	     -86.133	     -13.773	     -86.353	      -0.535	    -171.725
	72.500000000	      -0.617	     178.608	     -13.810	     -86.530	     -13.815	     -86.785	      -0.533	    -172.100
	73.000000000	      -0.640	     178.238	     -13.864	     -86.932	     -13.885	     -87.094	      -0.527	    -172.393
	73.500000000	      -0.655	     177.904	     -13.964	     -87.426	     -13.971	     -87.672	      -0.492	    -172.748
	74.000000000	      -0.670	     177.427	     -14.050	     -87.722	     -14.056	     -87.969	      -0.504	    -173.237
	74.500000000	      -0.715	     177.075	     -14.107	     -87.904	     -14.124	     -88.169	      -0.526	    -173.516
	75.000000000	      -0.753	     176.828	     -14.158	     -88.251	     -14.165	     -88.539	      -0.527	    -173.669
	75.500000000	      -0.791	     176.642	     -14.222	     -89.023	     -14.229	     -89.183	      -0.533	    -174.005
	76.000000000	      -0.813	     176.620	     -14.329	     -89.994	     -14.335	     -90.137	      -0.538	    -174.328
	76.500000000	      -0.804	     176.629	     -14.539	     -90.751	     -14.552	     -90.945	      -0.564	    -174.516
	77.000000000	      -0.788	     176.507	     -14.795	     -90.911	     -14.802	     -90.978	      -0.547	    -174.615
	77.500000000	      -0.718	     176.181	     -14.993	     -90.134	     -14.992	     -90.269	      -0.512	    -174.840
	78.000000000	      -0.658	     175.635	     -15.071	     -89.250	     -15.075	     -89.356	      -0.495	    -175.056
	78.500000000	      -0.627	     175.104	     -15.112	     -88.821	     -15.122	     -88.924	      -0.510	    -175.421
	79.000000000	      -0.651	     174.503	     -15.143	     -88.618	     -15.150	     -88.790	      -0.497	    -175.771
	79.500000000	      -0.666	     174.023	     -15.163	     -88.573	     -15.170	     -88.644	      -0.485	    -175.988
