!File name = EG0520U_1010_6x60_2SDBCB2EV_1915934D06_RC7325_3Vd_27mA.s2p
!Base file name = EG0520U_1010_6x60_2SDBCB2EV_1915934D06_RC7325
!Date = 8/23/2019
!Time = 1:09 PM
!Test duration(min) = 0.15
!Test = S-Parameters
!MPTS version = 8.91.5
!State File = C:\Data\PNA\20190821205423\S-Parameters_2019-08-23.sta
!Cal File = 
!ComputerName = CMPE-LAB-6
!Comments = 
!Attenuation = 0
!Z0 = 50
!Input Power(dBm) = -13.00
!Device ID = EG0520U_1010_6x60_2SDBCB2EV
!Row = 73
!Column = 25
!Technology = QPHT09
!Lot/Wafer = 1915934D06
!Gate Size = 360
!Mask = EG0520
!Cal Standards = GaAs BCB
!Cal Kit = EG2306
!Job Number = 20190821205423
!Device Type = FET
!set_Vg(v) = -1.500
!set_Vd(v) = 3.000
!set_Vd(mA) = 27.000
!file_name = EG0520U_1010_6x60_2SDBCB2EV_1915934D06_RC7325_3Vd_27mA.s2p
!Vd(V) = 3.000
!Vd(mA) = 27.017
!Vg(V) = -0.591
!Vg(mA) = -0.003
# GHz   S   DB   R   50
!%	Freq(GHz)	     s11(dB)	    s11(deg)	     s21(dB)	    s21(deg)	     s12(dB)	    s12(deg)	     s22(dB)	    s22(deg)
	0.500000000	      -0.047	     -13.414	      20.829	     171.767	     -38.311	      81.567	      -8.772	     -14.742
	1.000000000	      -0.128	     -26.564	      20.487	     163.604	     -32.507	      74.561	      -8.761	     -28.354
	1.500000000	      -0.164	     -39.085	      20.187	     156.926	     -29.299	      67.603	      -8.654	     -41.432
	2.000000000	      -0.310	     -50.675	      19.936	     149.649	     -27.237	      60.980	      -8.580	     -54.225
	2.500000000	      -0.402	     -61.492	      19.548	     143.491	     -25.816	      55.402	      -8.636	     -64.655
	3.000000000	      -0.792	     -68.943	      18.899	     138.346	     -24.959	      51.085	      -8.963	     -69.035
	3.500000000	      -0.911	     -77.570	      18.405	     133.341	     -24.154	      46.678	      -8.957	     -77.005
	4.000000000	      -1.018	     -85.249	      17.886	     128.922	     -23.536	      42.750	      -8.944	     -84.052
	4.500000000	      -1.140	     -92.099	      17.354	     124.687	     -23.072	      39.139	      -8.929	     -90.522
	5.000000000	      -1.218	     -98.236	      16.837	     121.083	     -22.700	      36.035	      -8.930	     -96.014
	5.500000000	      -1.300	    -103.845	      16.331	     117.655	     -22.409	      33.318	      -8.947	    -100.881
	6.000000000	      -1.369	    -108.869	      15.837	     114.543	     -22.167	      30.796	      -8.923	    -105.092
	6.500000000	      -1.424	    -113.341	      15.354	     111.775	     -21.976	      28.555	      -8.903	    -108.825
	7.000000000	      -1.478	    -117.407	      14.887	     109.123	     -21.815	      26.494	      -8.880	    -112.121
	7.500000000	      -1.515	    -121.070	      14.432	     106.714	     -21.688	      24.648	      -8.851	    -115.107
	8.000000000	      -1.534	    -124.189	      14.013	     104.588	     -21.558	      23.129	      -8.853	    -117.101
	8.500000000	      -1.570	    -127.298	      13.590	     102.487	     -21.468	      21.527	      -8.832	    -119.492
	9.000000000	      -1.605	    -130.082	      13.174	     100.517	     -21.391	      20.032	      -8.802	    -121.575
	9.500000000	      -1.631	    -132.702	      12.786	      98.595	     -21.330	      18.631	      -8.770	    -123.459
	10.000000000	      -1.649	    -135.104	      12.407	      96.820	     -21.286	      17.312	      -8.735	    -125.262
	10.500000000	      -1.673	    -137.368	      12.042	      95.075	     -21.255	      16.166	      -8.705	    -126.840
	11.000000000	      -1.689	    -139.426	      11.690	      93.473	     -21.225	      15.078	      -8.672	    -128.227
	11.500000000	      -1.710	    -141.379	      11.345	      91.897	     -21.208	      14.041	      -8.635	    -129.510
	12.000000000	      -1.725	    -143.185	      11.017	      90.414	     -21.195	      13.111	      -8.589	    -130.652
	12.500000000	      -1.733	    -144.868	      10.697	      88.987	     -21.179	      12.206	      -8.539	    -131.792
	13.000000000	      -1.745	    -146.454	      10.386	      87.573	     -21.178	      11.361	      -8.493	    -132.880
	13.500000000	      -1.756	    -147.959	      10.086	      86.240	     -21.180	      10.473	      -8.441	    -133.724
	14.000000000	      -1.769	    -149.396	       9.793	      84.944	     -21.188	       9.751	      -8.388	    -134.539
	14.500000000	      -1.772	    -150.693	       9.510	      83.674	     -21.197	       9.067	      -8.342	    -135.370
	15.000000000	      -1.777	    -151.863	       9.232	      82.459	     -21.213	       8.428	      -8.299	    -136.170
	15.500000000	      -1.784	    -153.026	       8.964	      81.253	     -21.216	       7.839	      -8.247	    -136.801
	16.000000000	      -1.789	    -154.173	       8.703	      80.077	     -21.217	       7.134	      -8.187	    -137.413
	16.500000000	      -1.794	    -155.287	       8.447	      78.920	     -21.240	       6.493	      -8.132	    -138.000
	17.000000000	      -1.794	    -156.321	       8.201	      77.798	     -21.270	       5.908	      -8.083	    -138.528
	17.500000000	      -1.802	    -157.257	       7.955	      76.691	     -21.288	       5.411	      -8.025	    -139.132
	18.000000000	      -1.811	    -158.172	       7.721	      75.620	     -21.318	       4.822	      -7.967	    -139.693
	18.500000000	      -1.813	    -159.075	       7.490	      74.573	     -21.333	       4.267	      -7.902	    -140.139
	19.000000000	      -1.812	    -159.937	       7.264	      73.524	     -21.375	       3.725	      -7.843	    -140.577
	19.500000000	      -1.810	    -160.753	       7.045	      72.512	     -21.425	       3.313	      -7.793	    -141.025
	20.000000000	      -1.815	    -161.529	       6.831	      71.518	     -21.480	       2.999	      -7.747	    -141.419
	20.500000000	      -1.817	    -162.266	       6.625	      70.525	     -21.502	       2.768	      -7.683	    -141.769
	21.000000000	      -1.818	    -162.976	       6.420	      69.544	     -21.511	       2.444	      -7.615	    -142.150
	21.500000000	      -1.809	    -163.737	       6.218	      68.563	     -21.531	       1.990	      -7.552	    -142.478
	22.000000000	      -1.800	    -164.377	       6.022	      67.598	     -21.555	       1.528	      -7.487	    -142.833
	22.500000000	      -1.800	    -165.046	       5.825	      66.625	     -21.579	       1.071	      -7.433	    -143.202
	23.000000000	      -1.802	    -165.706	       5.630	      65.692	     -21.620	       0.609	      -7.369	    -143.655
	23.500000000	      -1.804	    -166.380	       5.439	      64.783	     -21.707	       0.068	      -7.314	    -144.131
	24.000000000	      -1.815	    -166.972	       5.254	      63.929	     -21.802	      -0.038	      -7.273	    -144.380
	24.500000000	      -1.808	    -167.455	       5.080	      63.046	     -21.820	       0.047	      -7.216	    -144.485
	25.000000000	      -1.792	    -167.933	       4.908	      62.124	     -21.800	      -0.188	      -7.147	    -144.698
	25.500000000	      -1.795	    -168.503	       4.729	      61.253	     -21.848	      -0.593	      -7.078	    -145.039
	26.000000000	      -1.796	    -169.102	       4.556	      60.394	     -21.899	      -1.025	      -6.995	    -145.407
	26.500000000	      -1.789	    -169.624	       4.388	      59.513	     -21.924	      -1.283	      -6.926	    -145.729
	27.000000000	      -1.782	    -170.028	       4.222	      58.675	     -21.984	      -1.706	      -6.873	    -146.035
	27.500000000	      -1.785	    -170.407	       4.059	      57.924	     -22.107	      -1.679	      -6.836	    -146.121
	28.000000000	      -1.781	    -170.962	       3.907	      57.092	     -22.176	      -1.726	      -6.771	    -146.460
	28.500000000	      -1.762	    -171.448	       3.764	      56.170	     -22.135	      -1.630	      -6.681	    -146.713
	29.000000000	      -1.757	    -171.920	       3.600	      55.273	     -22.151	      -1.981	      -6.618	    -147.082
	29.500000000	      -1.753	    -172.328	       3.443	      54.435	     -22.194	      -2.333	      -6.554	    -147.394
	30.000000000	      -1.753	    -172.779	       3.288	      53.682	     -22.239	      -2.613	      -6.503	    -147.630
	30.500000000	      -1.753	    -173.221	       3.142	      52.859	     -22.284	      -2.970	      -6.446	    -147.936
	31.000000000	      -1.743	    -173.678	       2.993	      52.086	     -22.351	      -3.262	      -6.398	    -148.214
	31.500000000	      -1.732	    -174.072	       2.861	      51.350	     -22.473	      -2.992	      -6.340	    -148.434
	32.000000000	      -1.729	    -174.450	       2.718	      50.507	     -22.466	      -2.955	      -6.276	    -148.672
	32.500000000	      -1.738	    -174.873	       2.575	      49.641	     -22.447	      -3.138	      -6.205	    -148.902
	33.000000000	      -1.736	    -175.293	       2.435	      48.865	     -22.468	      -3.118	      -6.150	    -149.181
	33.500000000	      -1.726	    -175.678	       2.290	      48.111	     -22.545	      -3.609	      -6.094	    -149.552
	34.000000000	      -1.715	    -176.035	       2.149	      47.351	     -22.582	      -3.835	      -6.032	    -149.890
	34.500000000	      -1.717	    -176.421	       2.005	      46.529	     -22.618	      -4.248	      -5.957	    -150.126
	35.000000000	      -1.719	    -176.779	       1.869	      45.789	     -22.740	      -4.165	      -5.905	    -150.522
	35.500000000	      -1.717	    -177.159	       1.749	      45.115	     -22.805	      -3.903	      -5.859	    -150.705
	36.000000000	      -1.711	    -177.475	       1.627	      44.311	     -22.775	      -4.252	      -5.793	    -150.957
	36.500000000	      -1.693	    -177.714	       1.500	      43.535	     -22.772	      -4.289	      -5.729	    -151.246
	37.000000000	      -1.688	    -177.982	       1.370	      42.802	     -22.826	      -4.552	      -5.672	    -151.547
	37.500000000	      -1.686	    -178.392	       1.242	      42.041	     -22.900	      -4.846	      -5.619	    -151.775
	38.000000000	      -1.680	    -178.734	       1.113	      41.337	     -22.886	      -5.226	      -5.565	    -152.096
	38.500000000	      -1.668	    -179.101	       0.981	      40.609	     -23.040	      -5.088	      -5.515	    -152.462
	39.000000000	      -1.656	    -179.342	       0.862	      39.934	     -23.071	      -5.323	      -5.453	    -152.763
	39.500000000	      -1.652	    -179.578	       0.745	      39.241	     -23.126	      -5.225	      -5.393	    -153.069
	40.000000000	      -1.641	     179.973	       0.639	      38.452	     -23.147	      -5.204	      -5.327	    -153.382
	40.500000000	      -1.639	     179.525	       0.510	      37.674	     -23.192	      -5.139	      -5.266	    -153.651
	41.000000000	      -1.624	     179.173	       0.392	      36.942	     -23.227	      -5.295	      -5.227	    -154.032
	41.500000000	      -1.622	     178.952	       0.272	      36.237	     -23.296	      -5.880	      -5.188	    -154.230
	42.000000000	      -1.628	     178.657	       0.153	      35.556	     -23.341	      -5.815	      -5.123	    -154.375
	42.500000000	      -1.638	     178.289	       0.032	      34.936	     -23.419	      -5.910	      -5.075	    -154.508
	43.000000000	      -1.634	     178.013	      -0.059	      34.298	     -23.531	      -5.636	      -5.009	    -154.825
	43.500000000	      -1.621	     177.800	      -0.176	      33.500	     -23.552	      -5.827	      -4.963	    -155.180
	44.000000000	      -1.630	     177.501	      -0.294	      32.772	     -23.517	      -5.767	      -4.905	    -155.583
	44.500000000	      -1.633	     177.101	      -0.410	      32.072	     -23.575	      -5.335	      -4.851	    -155.902
	45.000000000	      -1.646	     176.792	      -0.522	      31.392	     -23.518	      -6.158	      -4.786	    -156.193
	45.500000000	      -1.597	     176.363	      -0.797	      30.801	     -23.741	      -6.377	      -4.664	    -157.203
	46.000000000	      -1.576	     176.102	      -0.914	      30.168	     -23.904	      -7.093	      -4.619	    -157.470
	46.500000000	      -1.555	     175.718	      -1.019	      29.595	     -24.030	      -6.153	      -4.544	    -157.660
	47.000000000	      -1.564	     175.382	      -1.108	      28.843	     -24.058	      -5.570	      -4.485	    -158.023
	47.500000000	      -1.559	     175.076	      -1.230	      28.202	     -24.164	      -6.077	      -4.453	    -158.100
	48.000000000	      -1.541	     174.776	      -1.338	      27.512	     -24.109	      -5.480	      -4.397	    -158.379
	48.500000000	      -1.540	     174.444	      -1.448	      26.891	     -24.183	      -5.753	      -4.350	    -158.718
	49.000000000	      -1.555	     174.221	      -1.554	      26.237	     -24.182	      -6.434	      -4.289	    -158.892
	49.500000000	      -1.561	     173.952	      -1.663	      25.695	     -24.297	      -6.904	      -4.234	    -159.254
	50.000000000	      -1.543	     173.673	      -1.771	      25.027	     -24.337	      -6.912	      -4.180	    -159.475
	50.500000000	      -1.535	     173.426	      -1.865	      24.441	     -24.423	      -5.629	      -4.182	    -160.053
	51.000000000	      -1.523	     173.095	      -1.971	      23.809	     -24.467	      -5.822	      -4.156	    -160.489
	51.500000000	      -1.521	     172.907	      -2.078	      23.166	     -24.372	      -5.062	      -4.097	    -160.714
	52.000000000	      -1.504	     172.713	      -2.173	      22.499	     -24.435	      -5.201	      -4.061	    -161.006
	52.500000000	      -1.500	     172.290	      -2.281	      21.907	     -24.381	      -5.713	      -4.026	    -161.103
	53.000000000	      -1.494	     171.951	      -2.396	      21.286	     -24.481	      -5.863	      -3.999	    -161.228
	53.500000000	      -1.494	     171.749	      -2.477	      20.732	     -24.429	      -5.776	      -3.923	    -161.548
	54.000000000	      -1.481	     171.502	      -2.572	      20.230	     -24.653	      -5.288	      -3.871	    -161.848
	54.500000000	      -1.483	     171.063	      -2.654	      19.644	     -24.549	      -6.516	      -3.837	    -162.108
	55.000000000	      -1.498	     170.654	      -2.738	      18.991	     -24.579	      -5.409	      -3.788	    -162.178
	55.500000000	      -1.487	     170.335	      -2.828	      18.360	     -24.571	      -6.726	      -3.750	    -162.495
	56.000000000	      -1.470	     170.056	      -2.919	      17.631	     -24.741	      -5.262	      -3.707	    -162.980
	56.500000000	      -1.492	     169.822	      -3.030	      17.041	     -24.941	      -9.156	      -3.676	    -163.512
	57.000000000	      -1.475	     169.637	      -3.124	      16.404	     -24.760	      -7.460	      -3.662	    -163.788
	57.500000000	      -1.470	     169.353	      -3.226	      15.817	     -24.827	      -6.895	      -3.617	    -164.073
	58.000000000	      -1.455	     169.200	      -3.314	      15.229	     -25.065	      -7.569	      -3.587	    -164.320
	58.500000000	      -1.438	     169.007	      -3.394	      14.651	     -24.811	      -7.541	      -3.551	    -164.583
	59.000000000	      -1.440	     168.603	      -3.464	      13.990	     -24.804	      -6.373	      -3.498	    -164.756
	59.500000000	      -1.440	     168.431	      -3.546	      13.151	     -24.787	      -7.142	      -3.441	    -165.072
	60.000000000	      -1.436	     168.233	      -3.655	      12.638	     -24.846	      -6.670	      -3.480	    -165.383
	60.500000000	      -1.401	     167.955	      -3.759	      11.940	     -25.052	      -6.821	      -3.453	    -165.498
	61.000000000	      -1.366	     167.590	      -3.856	      11.457	     -25.142	      -7.036	      -3.417	    -165.670
	61.500000000	      -1.364	     167.415	      -3.965	      10.977	     -25.247	      -6.877	      -3.383	    -166.003
	62.000000000	      -1.351	     167.030	      -4.025	      10.313	     -25.232	      -7.496	      -3.349	    -165.870
	62.500000000	      -1.364	     166.782	      -4.112	       9.618	     -25.399	      -6.835	      -3.331	    -166.090
	63.000000000	      -1.345	     166.272	      -4.184	       9.014	     -25.102	      -5.355	      -3.277	    -166.234
	63.500000000	      -1.347	     166.085	      -4.270	       8.349	     -25.120	      -6.316	      -3.238	    -166.619
	64.000000000	      -1.324	     166.212	      -4.329	       7.400	     -25.191	      -6.301	      -3.142	    -166.643
	64.500000000	      -1.312	     165.983	      -4.414	       6.616	     -25.276	      -6.328	      -3.117	    -166.545
	65.000000000	      -1.339	     165.529	      -4.534	       5.828	     -25.095	      -9.179	      -3.044	    -166.872
	65.500000000	      -1.316	     165.056	      -4.626	       5.146	     -25.338	      -7.566	      -3.036	    -167.724
	66.000000000	      -1.301	     164.757	      -4.761	       4.326	     -25.363	      -7.004	      -3.010	    -168.171
	66.500000000	      -1.324	     164.547	      -4.854	       3.668	     -25.002	      -7.292	      -2.949	    -168.125
	67.000000000	      -1.370	     164.009	      -4.995	       3.121	     -25.212	      -5.246	      -2.959	    -168.304
	67.500000000	      -1.365	     163.460	      -5.107	       2.185	     -25.318	      -7.360	      -2.964	    -168.676
	68.000000000	      -1.405	     163.287	      -5.213	       1.433	     -25.270	      -8.030	      -2.977	    -168.905
	68.500000000	      -1.437	     163.021	      -5.312	       0.834	     -25.317	      -8.123	      -2.943	    -169.107
	69.000000000	      -1.468	     162.792	      -5.450	       0.296	     -25.302	      -8.701	      -2.870	    -169.332
	69.500000000	      -1.464	     162.552	      -5.569	      -0.171	     -25.394	      -8.826	      -2.855	    -169.564
	70.000000000	      -1.449	     162.356	      -5.673	      -0.704	     -25.495	      -9.063	      -2.835	    -169.621
	70.500000000	      -1.430	     162.154	      -5.782	      -1.179	     -25.467	      -8.618	      -2.790	    -169.832
	71.000000000	      -1.420	     161.905	      -5.865	      -1.671	     -25.461	      -8.927	      -2.759	    -169.941
	71.500000000	      -1.381	     161.747	      -5.989	      -2.186	     -25.448	      -9.597	      -2.678	    -170.188
	72.000000000	      -1.379	     161.523	      -6.095	      -2.706	     -25.424	     -10.309	      -2.702	    -170.552
	72.500000000	      -1.399	     161.024	      -6.202	      -3.374	     -25.498	     -11.391	      -2.679	    -170.835
	73.000000000	      -1.435	     160.795	      -6.315	      -3.936	     -25.669	     -12.349	      -2.636	    -171.021
	73.500000000	      -1.453	     160.699	      -6.432	      -4.435	     -25.909	     -12.676	      -2.570	    -171.309
	74.000000000	      -1.462	     160.431	      -6.551	      -4.836	     -26.065	     -12.301	      -2.571	    -171.874
	74.500000000	      -1.492	     160.175	      -6.637	      -5.214	     -26.169	     -11.874	      -2.587	    -172.071
	75.000000000	      -1.522	     160.090	      -6.740	      -5.780	     -26.298	     -11.771	      -2.583	    -172.183
	75.500000000	      -1.557	     160.047	      -6.869	      -6.230	     -26.536	     -11.657	      -2.573	    -172.321
	76.000000000	      -1.561	     160.103	      -6.980	      -6.618	     -26.889	     -10.204	      -2.578	    -172.392
	76.500000000	      -1.554	     160.237	      -7.104	      -6.709	     -27.151	      -6.458	      -2.575	    -172.256
	77.000000000	      -1.531	     160.269	      -7.176	      -6.777	     -26.901	      -1.897	      -2.515	    -172.156
	77.500000000	      -1.443	     160.134	      -7.201	      -6.789	     -26.299	       0.706	      -2.427	    -172.282
	78.000000000	      -1.367	     159.803	      -7.202	      -7.116	     -25.701	       0.732	      -2.387	    -172.441
	78.500000000	      -1.335	     159.262	      -7.224	      -7.928	     -25.230	      -0.522	      -2.343	    -172.695
	79.000000000	      -1.359	     158.635	      -7.293	      -8.817	     -24.941	      -2.678	      -2.279	    -172.989
	79.500000000	      -1.393	     158.108	      -7.359	      -9.685	     -24.734	      -4.467	      -2.238	    -173.232
