!File name = EG0520U_1010_6x60_2SDBCB2EV_1915934D06_RC4034_3Vd_27mA.s2p
!Base file name = EG0520U_1010_6x60_2SDBCB2EV_1915934D06_RC4034
!Date = 8/23/2019
!Time = 12:57 PM
!Test duration(min) = 0.15
!Test = S-Parameters
!MPTS version = 8.91.5
!State File = C:\Data\PNA\20190821205423\S-Parameters_2019-08-23.sta
!Cal File = 
!ComputerName = CMPE-LAB-6
!Comments = 
!Attenuation = 0
!Z0 = 50
!Input Power(dBm) = -13.00
!Device ID = EG0520U_1010_6x60_2SDBCB2EV
!Row = 40
!Column = 34
!Technology = QPHT09
!Lot/Wafer = 1915934D06
!Gate Size = 360
!Mask = EG0520
!Cal Standards = GaAs BCB
!Cal Kit = EG2306
!Job Number = 20190821205423
!Device Type = FET
!set_Vg(v) = -1.500
!set_Vd(v) = 3.000
!set_Vd(mA) = 27.000
!file_name = EG0520U_1010_6x60_2SDBCB2EV_1915934D06_RC4034_3Vd_27mA.s2p
!Vd(V) = 3.000
!Vd(mA) = 27.062
!Vg(V) = -0.573
!Vg(mA) = -0.003
# GHz   S   DB   R   50
!%	Freq(GHz)	     s11(dB)	    s11(deg)	     s21(dB)	    s21(deg)	     s12(dB)	    s12(deg)	     s22(dB)	    s22(deg)
	0.500000000	      -0.051	     -13.632	      20.947	     171.629	     -38.259	      81.398	      -8.816	     -15.079
	1.000000000	      -0.133	     -26.999	      20.600	     163.349	     -32.462	      74.331	      -8.800	     -28.964
	1.500000000	      -0.171	     -39.704	      20.292	     156.559	     -29.263	      67.285	      -8.686	     -42.283
	2.000000000	      -0.319	     -51.438	      20.033	     149.203	     -27.211	      60.579	      -8.605	     -55.291
	2.500000000	      -0.414	     -62.382	      19.638	     142.978	     -25.799	      54.938	      -8.654	     -65.845
	3.000000000	      -0.807	     -69.882	      18.979	     137.816	     -24.952	      50.620	      -8.988	     -70.318
	3.500000000	      -0.928	     -78.579	      18.476	     132.766	     -24.159	      46.192	      -8.977	     -78.364
	4.000000000	      -1.033	     -86.298	      17.949	     128.320	     -23.551	      42.252	      -8.960	     -85.452
	4.500000000	      -1.155	     -93.182	      17.410	     124.071	     -23.090	      38.641	      -8.940	     -91.964
	5.000000000	      -1.233	     -99.338	      16.886	     120.450	     -22.727	      35.522	      -8.937	     -97.480
	5.500000000	      -1.313	    -104.969	      16.375	     117.000	     -22.444	      32.805	      -8.949	    -102.368
	6.000000000	      -1.382	    -109.991	      15.875	     113.886	     -22.208	      30.293	      -8.923	    -106.580
	6.500000000	      -1.436	    -114.473	      15.389	     111.100	     -22.014	      28.047	      -8.902	    -110.326
	7.000000000	      -1.488	    -118.549	      14.917	     108.436	     -21.862	      25.996	      -8.875	    -113.628
	7.500000000	      -1.524	    -122.214	      14.460	     106.018	     -21.738	      24.158	      -8.845	    -116.632
	8.000000000	      -1.541	    -125.334	      14.038	     103.878	     -21.614	      22.611	      -8.845	    -118.640
	8.500000000	      -1.576	    -128.450	      13.613	     101.761	     -21.525	      21.029	      -8.822	    -121.034
	9.000000000	      -1.610	    -131.241	      13.194	      99.779	     -21.450	      19.552	      -8.791	    -123.138
	9.500000000	      -1.635	    -133.860	      12.803	      97.848	     -21.388	      18.137	      -8.756	    -125.026
	10.000000000	      -1.653	    -136.272	      12.422	      96.055	     -21.349	      16.815	      -8.722	    -126.828
	10.500000000	      -1.678	    -138.538	      12.055	      94.299	     -21.323	      15.676	      -8.690	    -128.419
	11.000000000	      -1.692	    -140.600	      11.701	      92.686	     -21.293	      14.590	      -8.655	    -129.814
	11.500000000	      -1.712	    -142.559	      11.354	      91.096	     -21.279	      13.558	      -8.616	    -131.121
	12.000000000	      -1.727	    -144.369	      11.024	      89.596	     -21.269	      12.630	      -8.571	    -132.289
	12.500000000	      -1.736	    -146.065	      10.702	      88.155	     -21.260	      11.710	      -8.521	    -133.464
	13.000000000	      -1.746	    -147.646	      10.391	      86.730	     -21.257	      10.863	      -8.474	    -134.517
	13.500000000	      -1.754	    -149.168	      10.090	      85.379	     -21.257	       9.980	      -8.420	    -135.393
	14.000000000	      -1.766	    -150.625	       9.796	      84.055	     -21.272	       9.235	      -8.369	    -136.241
	14.500000000	      -1.772	    -151.924	       9.511	      82.776	     -21.285	       8.513	      -8.322	    -137.109
	15.000000000	      -1.777	    -153.109	       9.232	      81.541	     -21.298	       7.895	      -8.278	    -137.887
	15.500000000	      -1.783	    -154.280	       8.961	      80.319	     -21.309	       7.280	      -8.225	    -138.548
	16.000000000	      -1.787	    -155.457	       8.698	      79.118	     -21.317	       6.607	      -8.165	    -139.180
	16.500000000	      -1.792	    -156.562	       8.441	      77.948	     -21.338	       6.000	      -8.108	    -139.783
	17.000000000	      -1.793	    -157.611	       8.193	      76.808	     -21.370	       5.375	      -8.056	    -140.376
	17.500000000	      -1.801	    -158.554	       7.945	      75.686	     -21.392	       4.861	      -8.000	    -140.957
	18.000000000	      -1.809	    -159.488	       7.709	      74.598	     -21.424	       4.286	      -7.943	    -141.535
	18.500000000	      -1.810	    -160.393	       7.477	      73.524	     -21.445	       3.749	      -7.876	    -142.001
	19.000000000	      -1.810	    -161.258	       7.249	      72.465	     -21.487	       3.220	      -7.816	    -142.414
	19.500000000	      -1.806	    -162.091	       7.029	      71.435	     -21.534	       2.753	      -7.764	    -142.929
	20.000000000	      -1.813	    -162.882	       6.812	      70.425	     -21.605	       2.466	      -7.718	    -143.349
	20.500000000	      -1.817	    -163.631	       6.605	      69.421	     -21.632	       2.268	      -7.655	    -143.701
	21.000000000	      -1.814	    -164.366	       6.399	      68.419	     -21.642	       1.931	      -7.585	    -144.105
	21.500000000	      -1.806	    -165.100	       6.196	      67.425	     -21.661	       1.559	      -7.519	    -144.456
	22.000000000	      -1.800	    -165.736	       5.998	      66.454	     -21.683	       1.083	      -7.452	    -144.835
	22.500000000	      -1.796	    -166.417	       5.800	      65.459	     -21.709	       0.604	      -7.394	    -145.225
	23.000000000	      -1.798	    -167.084	       5.604	      64.508	     -21.761	       0.119	      -7.334	    -145.681
	23.500000000	      -1.798	    -167.742	       5.412	      63.593	     -21.843	      -0.347	      -7.277	    -146.167
	24.000000000	      -1.806	    -168.378	       5.226	      62.715	     -21.937	      -0.443	      -7.235	    -146.434
	24.500000000	      -1.798	    -168.843	       5.052	      61.814	     -21.949	      -0.319	      -7.173	    -146.580
	25.000000000	      -1.784	    -169.379	       4.874	      60.859	     -21.946	      -0.668	      -7.103	    -146.817
	25.500000000	      -1.784	    -169.988	       4.695	      59.967	     -21.979	      -1.060	      -7.033	    -147.169
	26.000000000	      -1.789	    -170.577	       4.520	      59.087	     -22.025	      -1.349	      -6.956	    -147.561
	26.500000000	      -1.785	    -171.073	       4.349	      58.202	     -22.067	      -1.836	      -6.886	    -147.875
	27.000000000	      -1.778	    -171.498	       4.180	      57.344	     -22.121	      -2.232	      -6.826	    -148.230
	27.500000000	      -1.783	    -171.922	       4.015	      56.576	     -22.247	      -2.152	      -6.788	    -148.362
	28.000000000	      -1.781	    -172.431	       3.860	      55.753	     -22.323	      -2.180	      -6.728	    -148.689
	28.500000000	      -1.759	    -172.890	       3.719	      54.815	     -22.282	      -1.857	      -6.638	    -148.958
	29.000000000	      -1.751	    -173.377	       3.553	      53.887	     -22.289	      -2.457	      -6.573	    -149.370
	29.500000000	      -1.751	    -173.850	       3.392	      53.068	     -22.359	      -2.769	      -6.511	    -149.682
	30.000000000	      -1.750	    -174.267	       3.237	      52.303	     -22.407	      -2.878	      -6.456	    -149.923
	30.500000000	      -1.748	    -174.689	       3.087	      51.465	     -22.443	      -3.202	      -6.396	    -150.231
	31.000000000	      -1.740	    -175.131	       2.936	      50.694	     -22.524	      -3.414	      -6.342	    -150.538
	31.500000000	      -1.724	    -175.512	       2.808	      49.889	     -22.617	      -3.130	      -6.287	    -150.796
	32.000000000	      -1.718	    -175.906	       2.665	      49.068	     -22.641	      -3.205	      -6.223	    -151.036
	32.500000000	      -1.722	    -176.306	       2.519	      48.163	     -22.620	      -3.309	      -6.145	    -151.294
	33.000000000	      -1.720	    -176.755	       2.375	      47.390	     -22.655	      -3.550	      -6.090	    -151.582
	33.500000000	      -1.709	    -177.168	       2.229	      46.618	     -22.714	      -4.035	      -6.032	    -151.930
	34.000000000	      -1.698	    -177.537	       2.084	      45.825	     -22.764	      -4.300	      -5.968	    -152.316
	34.500000000	      -1.703	    -177.945	       1.937	      45.031	     -22.809	      -4.438	      -5.897	    -152.565
	35.000000000	      -1.708	    -178.291	       1.799	      44.275	     -22.899	      -4.593	      -5.840	    -152.934
	35.500000000	      -1.696	    -178.628	       1.681	      43.530	     -22.962	      -3.993	      -5.796	    -153.126
	36.000000000	      -1.692	    -178.979	       1.553	      42.738	     -22.965	      -4.124	      -5.725	    -153.410
	36.500000000	      -1.680	    -179.272	       1.421	      41.956	     -22.978	      -4.304	      -5.654	    -153.673
	37.000000000	      -1.678	    -179.552	       1.287	      41.203	     -23.016	      -4.956	      -5.599	    -154.035
	37.500000000	      -1.678	    -179.890	       1.156	      40.456	     -23.090	      -4.827	      -5.554	    -154.314
	38.000000000	      -1.668	     179.758	       1.025	      39.743	     -23.184	      -5.340	      -5.502	    -154.586
	38.500000000	      -1.661	     179.405	       0.891	      39.021	     -23.232	      -5.455	      -5.434	    -155.021
	39.000000000	      -1.656	     179.162	       0.772	      38.348	     -23.272	      -4.934	      -5.382	    -155.325
	39.500000000	      -1.651	     178.961	       0.655	      37.701	     -23.358	      -4.882	      -5.323	    -155.643
	40.000000000	      -1.634	     178.565	       0.550	      36.891	     -23.370	      -4.765	      -5.255	    -155.884
	40.500000000	      -1.627	     178.125	       0.423	      36.115	     -23.431	      -5.404	      -5.191	    -156.200
	41.000000000	      -1.618	     177.781	       0.297	      35.323	     -23.427	      -5.255	      -5.150	    -156.542
	41.500000000	      -1.611	     177.577	       0.180	      34.656	     -23.527	      -5.466	      -5.108	    -156.793
	42.000000000	      -1.608	     177.279	       0.060	      33.959	     -23.600	      -5.611	      -5.051	    -156.982
	42.500000000	      -1.618	     176.906	      -0.060	      33.299	     -23.697	      -5.969	      -4.992	    -157.129
	43.000000000	      -1.611	     176.627	      -0.161	      32.658	     -23.801	      -5.331	      -4.928	    -157.414
	43.500000000	      -1.599	     176.401	      -0.276	      31.843	     -23.752	      -4.692	      -4.879	    -157.801
	44.000000000	      -1.605	     176.074	      -0.395	      31.093	     -23.676	      -5.266	      -4.819	    -158.194
	44.500000000	      -1.611	     175.685	      -0.525	      30.398	     -23.786	      -5.228	      -4.758	    -158.486
	45.000000000	      -1.619	     175.421	      -0.636	      29.741	     -23.838	      -5.390	      -4.692	    -158.870
	45.500000000	      -1.577	     175.024	      -0.914	      29.181	     -24.065	      -6.104	      -4.572	    -159.705
	46.000000000	      -1.557	     174.818	      -1.029	      28.578	     -24.100	      -6.276	      -4.523	    -160.021
	46.500000000	      -1.550	     174.497	      -1.126	      27.946	     -24.236	      -5.711	      -4.454	    -160.194
	47.000000000	      -1.539	     174.107	      -1.235	      27.303	     -24.390	      -5.609	      -4.377	    -160.397
	47.500000000	      -1.531	     173.860	      -1.349	      26.538	     -24.352	      -5.456	      -4.357	    -160.687
	48.000000000	      -1.520	     173.541	      -1.453	      25.873	     -24.270	      -4.913	      -4.308	    -160.935
	48.500000000	      -1.521	     173.217	      -1.565	      25.242	     -24.319	      -5.135	      -4.258	    -161.275
	49.000000000	      -1.529	     173.001	      -1.693	      24.530	     -24.388	      -6.203	      -4.183	    -161.497
	49.500000000	      -1.533	     172.790	      -1.790	      24.020	     -24.510	      -6.151	      -4.155	    -161.740
	50.000000000	      -1.523	     172.486	      -1.901	      23.395	     -24.596	      -6.083	      -4.095	    -162.147
	50.500000000	      -1.504	     172.242	      -2.002	      22.954	     -24.692	      -5.381	      -4.070	    -162.597
	51.000000000	      -1.497	     171.944	      -2.110	      22.225	     -24.637	      -4.853	      -4.051	    -162.975
	51.500000000	      -1.495	     171.796	      -2.205	      21.554	     -24.603	      -4.005	      -4.015	    -163.354
	52.000000000	      -1.476	     171.561	      -2.316	      20.912	     -24.524	      -4.803	      -3.972	    -163.557
	52.500000000	      -1.480	     171.223	      -2.422	      20.376	     -24.632	      -5.283	      -3.942	    -163.712
	53.000000000	      -1.474	     170.878	      -2.519	      19.784	     -24.720	      -5.443	      -3.895	    -163.803
	53.500000000	      -1.470	     170.716	      -2.613	      19.253	     -24.668	      -5.094	      -3.854	    -164.134
	54.000000000	      -1.453	     170.424	      -2.705	      18.712	     -24.823	      -4.911	      -3.790	    -164.382
	54.500000000	      -1.453	     170.021	      -2.793	      18.165	     -24.921	      -4.750	      -3.742	    -164.617
	55.000000000	      -1.458	     169.701	      -2.894	      17.448	     -24.669	      -4.765	      -3.693	    -164.803
	55.500000000	      -1.455	     169.433	      -2.978	      16.832	     -24.816	      -4.975	      -3.661	    -165.032
	56.000000000	      -1.440	     169.047	      -3.058	      16.144	     -24.860	      -4.833	      -3.625	    -165.572
	56.500000000	      -1.442	     168.911	      -3.158	      15.461	     -25.030	      -5.700	      -3.591	    -166.056
	57.000000000	      -1.459	     168.689	      -3.270	      14.861	     -24.829	      -4.990	      -3.568	    -166.222
	57.500000000	      -1.463	     168.448	      -3.364	      14.388	     -25.145	      -5.850	      -3.527	    -166.424
	58.000000000	      -1.422	     168.342	      -3.457	      13.708	     -25.154	      -6.849	      -3.471	    -166.823
	58.500000000	      -1.408	     168.202	      -3.539	      13.154	     -25.041	      -4.744	      -3.453	    -167.094
	59.000000000	      -1.409	     167.775	      -3.626	      12.370	     -25.371	      -4.902	      -3.408	    -167.310
	59.500000000	      -1.420	     167.603	      -3.711	      11.832	     -24.920	      -6.348	      -3.371	    -167.598
	60.000000000	      -1.395	     167.463	      -3.793	      11.280	     -25.296	      -5.121	      -3.385	    -167.895
	60.500000000	      -1.375	     167.204	      -3.914	      10.533	     -25.308	      -5.890	      -3.364	    -167.961
	61.000000000	      -1.357	     166.991	      -4.015	      10.045	     -25.517	      -4.898	      -3.312	    -168.220
	61.500000000	      -1.343	     166.670	      -4.089	       9.628	     -25.518	      -5.289	      -3.287	    -168.358
	62.000000000	      -1.335	     166.416	      -4.170	       8.834	     -25.538	      -4.076	      -3.261	    -168.446
	62.500000000	      -1.333	     166.034	      -4.260	       8.276	     -25.839	      -4.402	      -3.226	    -168.548
	63.000000000	      -1.331	     165.591	      -4.335	       7.776	     -25.364	      -4.545	      -3.187	    -168.636
	63.500000000	      -1.311	     165.386	      -4.401	       6.945	     -25.288	      -4.345	      -3.142	    -169.063
	64.000000000	      -1.315	     165.442	      -4.486	       6.159	     -25.168	      -4.041	      -3.074	    -169.154
	64.500000000	      -1.278	     165.238	      -4.568	       5.401	     -25.366	      -2.500	      -3.052	    -169.165
	65.000000000	      -1.280	     164.815	      -4.652	       4.570	     -25.528	      -5.863	      -2.981	    -169.242
	65.500000000	      -1.295	     164.414	      -4.788	       3.784	     -25.467	      -4.847	      -2.984	    -169.982
	66.000000000	      -1.289	     164.168	      -4.906	       3.070	     -25.488	      -4.776	      -2.962	    -170.558
	66.500000000	      -1.304	     163.875	      -5.000	       2.301	     -25.320	      -6.821	      -2.931	    -170.412
	67.000000000	      -1.358	     163.583	      -5.113	       1.766	     -25.547	      -4.735	      -2.901	    -170.479
	67.500000000	      -1.344	     163.060	      -5.280	       1.000	     -25.541	      -5.039	      -2.890	    -170.901
	68.000000000	      -1.371	     162.863	      -5.374	       0.372	     -25.541	      -5.390	      -2.905	    -171.160
	68.500000000	      -1.397	     162.653	      -5.474	      -0.138	     -25.554	      -5.699	      -2.872	    -171.295
	69.000000000	      -1.419	     162.449	      -5.593	      -0.703	     -25.587	      -6.016	      -2.804	    -171.452
	69.500000000	      -1.416	     162.201	      -5.716	      -1.100	     -25.674	      -6.183	      -2.785	    -171.662
	70.000000000	      -1.406	     162.024	      -5.804	      -1.559	     -25.748	      -5.785	      -2.766	    -171.762
	70.500000000	      -1.393	     161.803	      -5.904	      -2.112	     -25.684	      -5.620	      -2.721	    -171.863
	71.000000000	      -1.392	     161.532	      -5.975	      -2.594	     -25.704	      -5.805	      -2.697	    -172.062
	71.500000000	      -1.359	     161.237	      -6.086	      -3.160	     -25.646	      -6.254	      -2.616	    -172.167
	72.000000000	      -1.364	     160.988	      -6.195	      -3.515	     -25.672	      -7.039	      -2.625	    -172.480
	72.500000000	      -1.389	     160.749	      -6.289	      -4.211	     -25.701	      -7.554	      -2.603	    -172.779
	73.000000000	      -1.410	     160.531	      -6.395	      -4.795	     -25.827	      -8.396	      -2.564	    -172.950
	73.500000000	      -1.427	     160.452	      -6.509	      -5.276	     -26.049	      -8.607	      -2.496	    -173.271
	74.000000000	      -1.430	     160.259	      -6.615	      -5.749	     -26.161	      -8.123	      -2.493	    -173.785
	74.500000000	      -1.456	     160.031	      -6.704	      -6.211	     -26.247	      -7.828	      -2.514	    -174.029
	75.000000000	      -1.484	     159.906	      -6.807	      -6.777	     -26.331	      -7.760	      -2.504	    -174.150
	75.500000000	      -1.513	     159.869	      -6.931	      -7.305	     -26.577	      -7.508	      -2.497	    -174.279
	76.000000000	      -1.522	     159.915	      -7.054	      -7.702	     -26.870	      -6.176	      -2.504	    -174.328
	76.500000000	      -1.516	     159.999	      -7.185	      -7.891	     -27.073	      -2.590	      -2.489	    -174.215
	77.000000000	      -1.500	     160.077	      -7.283	      -7.979	     -26.796	       1.313	      -2.431	    -174.085
	77.500000000	      -1.426	     160.051	      -7.311	      -7.947	     -26.212	       3.328	      -2.351	    -174.156
	78.000000000	      -1.347	     159.740	      -7.333	      -8.192	     -25.694	       3.084	      -2.301	    -174.305
	78.500000000	      -1.302	     159.263	      -7.376	      -8.777	     -25.345	       1.645	      -2.258	    -174.603
	79.000000000	      -1.297	     158.665	      -7.432	      -9.333	     -25.148	       0.357	      -2.205	    -174.904
	79.500000000	      -1.325	     158.119	      -7.465	     -10.107	     -24.895	      -1.122	      -2.170	    -175.113
