!File name = EG0520U_1010_6x60_2SDBCB2EV_1915934D06_RC4034_3.5Vd_27mA.s2p
!Base file name = EG0520U_1010_6x60_2SDBCB2EV_1915934D06_RC4034
!Date = 8/23/2019
!Time = 12:58 PM
!Test duration(min) = 0.15
!Test = S-Parameters
!MPTS version = 8.91.5
!State File = C:\Data\PNA\20190821205423\S-Parameters_2019-08-23.sta
!Cal File = 
!ComputerName = CMPE-LAB-6
!Comments = 
!Attenuation = 0
!Z0 = 50
!Input Power(dBm) = -13.00
!Device ID = EG0520U_1010_6x60_2SDBCB2EV
!Row = 40
!Column = 34
!Technology = QPHT09
!Lot/Wafer = 1915934D06
!Gate Size = 360
!Mask = EG0520
!Cal Standards = GaAs BCB
!Cal Kit = EG2306
!Job Number = 20190821205423
!Device Type = FET
!set_Vg(v) = -1.500
!set_Vd(v) = 3.500
!set_Vd(mA) = 27.000
!file_name = EG0520U_1010_6x60_2SDBCB2EV_1915934D06_RC4034_3.5Vd_27mA.s2p
!Vd(V) = 3.500
!Vd(mA) = 27.166
!Vg(V) = -0.586
!Vg(mA) = -0.005
# GHz   S   DB   R   50
!%	Freq(GHz)	     s11(dB)	    s11(deg)	     s21(dB)	    s21(deg)	     s12(dB)	    s12(deg)	     s22(dB)	    s22(deg)
	0.500000000	      -0.068	     -13.681	      21.010	     171.536	     -38.426	      81.110	      -8.101	     -13.824
	1.000000000	      -0.152	     -27.093	      20.652	     163.339	     -32.623	      74.129	      -8.146	     -26.588
	1.500000000	      -0.188	     -39.840	      20.336	     156.392	     -29.431	      67.191	      -8.131	     -38.936
	2.000000000	      -0.331	     -51.528	      20.080	     149.142	     -27.376	      60.556	      -8.166	     -51.086
	2.500000000	      -0.427	     -62.508	      19.673	     142.867	     -25.962	      54.915	      -8.310	     -61.082
	3.000000000	      -0.813	     -69.961	      19.016	     137.655	     -25.118	      50.570	      -8.677	     -65.214
	3.500000000	      -0.933	     -78.655	      18.505	     132.605	     -24.323	      46.148	      -8.762	     -72.963
	4.000000000	      -1.037	     -86.367	      17.978	     128.104	     -23.717	      42.186	      -8.835	     -79.849
	4.500000000	      -1.156	     -93.240	      17.440	     123.860	     -23.258	      38.592	      -8.896	     -86.219
	5.000000000	      -1.232	     -99.411	      16.914	     120.191	     -22.894	      35.487	      -8.959	     -91.642
	5.500000000	      -1.311	    -105.002	      16.404	     116.735	     -22.608	      32.738	      -9.030	     -96.492
	6.000000000	      -1.379	    -110.033	      15.902	     113.596	     -22.370	      30.241	      -9.054	    -100.704
	6.500000000	      -1.432	    -114.497	      15.414	     110.778	     -22.181	      27.971	      -9.076	    -104.473
	7.000000000	      -1.482	    -118.570	      14.944	     108.096	     -22.028	      25.934	      -9.084	    -107.812
	7.500000000	      -1.518	    -122.235	      14.485	     105.653	     -21.905	      24.092	      -9.084	    -110.815
	8.000000000	      -1.535	    -125.342	      14.062	     103.493	     -21.778	      22.539	      -9.102	    -112.878
	8.500000000	      -1.569	    -128.457	      13.636	     101.346	     -21.690	      20.949	      -9.100	    -115.310
	9.000000000	      -1.602	    -131.241	      13.218	      99.342	     -21.618	      19.453	      -9.086	    -117.458
	9.500000000	      -1.626	    -133.860	      12.826	      97.387	     -21.557	      18.048	      -9.064	    -119.385
	10.000000000	      -1.644	    -136.272	      12.445	      95.569	     -21.520	      16.713	      -9.041	    -121.237
	10.500000000	      -1.667	    -138.531	      12.078	      93.787	     -21.489	      15.569	      -9.019	    -122.869
	11.000000000	      -1.681	    -140.594	      11.723	      92.141	     -21.466	      14.470	      -8.989	    -124.298
	11.500000000	      -1.702	    -142.552	      11.376	      90.522	     -21.450	      13.441	      -8.955	    -125.648
	12.000000000	      -1.716	    -144.363	      11.046	      89.003	     -21.442	      12.486	      -8.910	    -126.855
	12.500000000	      -1.725	    -146.053	      10.723	      87.528	     -21.435	      11.591	      -8.861	    -128.078
	13.000000000	      -1.734	    -147.632	      10.411	      86.081	     -21.429	      10.730	      -8.814	    -129.171
	13.500000000	      -1.743	    -149.152	      10.109	      84.702	     -21.434	       9.828	      -8.759	    -130.140
	14.000000000	      -1.754	    -150.608	       9.814	      83.350	     -21.453	       9.082	      -8.704	    -130.960
	14.500000000	      -1.759	    -151.910	       9.529	      82.046	     -21.465	       8.381	      -8.655	    -131.868
	15.000000000	      -1.763	    -153.080	       9.249	      80.792	     -21.481	       7.732	      -8.606	    -132.674
	15.500000000	      -1.768	    -154.260	       8.979	      79.535	     -21.490	       7.141	      -8.548	    -133.368
	16.000000000	      -1.775	    -155.427	       8.714	      78.314	     -21.505	       6.441	      -8.483	    -134.031
	16.500000000	      -1.779	    -156.536	       8.456	      77.115	     -21.528	       5.834	      -8.421	    -134.665
	17.000000000	      -1.778	    -157.579	       8.208	      75.950	     -21.562	       5.197	      -8.366	    -135.250
	17.500000000	      -1.787	    -158.529	       7.959	      74.805	     -21.585	       4.693	      -8.300	    -135.901
	18.000000000	      -1.795	    -159.461	       7.723	      73.690	     -21.623	       4.099	      -8.236	    -136.516
	18.500000000	      -1.796	    -160.369	       7.490	      72.597	     -21.642	       3.559	      -8.162	    -137.019
	19.000000000	      -1.794	    -161.236	       7.262	      71.505	     -21.681	       3.004	      -8.095	    -137.509
	19.500000000	      -1.791	    -162.065	       7.040	      70.454	     -21.737	       2.558	      -8.036	    -138.002
	20.000000000	      -1.798	    -162.854	       6.822	      69.421	     -21.802	       2.286	      -7.982	    -138.442
	20.500000000	      -1.801	    -163.598	       6.615	      68.391	     -21.832	       2.105	      -7.910	    -138.830
	21.000000000	      -1.800	    -164.305	       6.408	      67.367	     -21.852	       1.744	      -7.832	    -139.267
	21.500000000	      -1.791	    -165.068	       6.204	      66.347	     -21.875	       1.343	      -7.757	    -139.653
	22.000000000	      -1.783	    -165.703	       6.005	      65.350	     -21.899	       0.872	      -7.683	    -140.052
	22.500000000	      -1.781	    -166.387	       5.805	      64.329	     -21.928	       0.434	      -7.619	    -140.477
	23.000000000	      -1.782	    -167.014	       5.609	      63.362	     -21.973	      -0.034	      -7.549	    -140.956
	23.500000000	      -1.781	    -167.721	       5.416	      62.413	     -22.061	      -0.589	      -7.487	    -141.491
	24.000000000	      -1.788	    -168.347	       5.229	      61.513	     -22.164	      -0.591	      -7.434	    -141.781
	24.500000000	      -1.781	    -168.816	       5.053	      60.587	     -22.164	      -0.550	      -7.362	    -141.949
	25.000000000	      -1.768	    -169.329	       4.876	      59.614	     -22.157	      -0.783	      -7.283	    -142.213
	25.500000000	      -1.766	    -169.912	       4.697	      58.695	     -22.222	      -1.329	      -7.209	    -142.626
	26.000000000	      -1.770	    -170.545	       4.518	      57.794	     -22.255	      -1.619	      -7.122	    -143.057
	26.500000000	      -1.766	    -171.040	       4.347	      56.886	     -22.306	      -1.994	      -7.043	    -143.426
	27.000000000	      -1.759	    -171.466	       4.177	      56.013	     -22.372	      -2.389	      -6.979	    -143.802
	27.500000000	      -1.763	    -171.887	       4.011	      55.211	     -22.506	      -2.302	      -6.934	    -143.956
	28.000000000	      -1.762	    -172.392	       3.856	      54.373	     -22.582	      -2.320	      -6.863	    -144.311
	28.500000000	      -1.740	    -172.862	       3.712	      53.411	     -22.529	      -1.926	      -6.766	    -144.655
	29.000000000	      -1.729	    -173.371	       3.547	      52.459	     -22.549	      -2.403	      -6.690	    -145.093
	29.500000000	      -1.729	    -173.776	       3.384	      51.609	     -22.617	      -2.896	      -6.623	    -145.454
	30.000000000	      -1.728	    -174.232	       3.227	      50.819	     -22.681	      -3.211	      -6.561	    -145.726
	30.500000000	      -1.726	    -174.665	       3.075	      49.967	     -22.721	      -3.413	      -6.499	    -146.073
	31.000000000	      -1.718	    -175.104	       2.926	      49.164	     -22.784	      -3.416	      -6.437	    -146.403
	31.500000000	      -1.701	    -175.504	       2.793	      48.377	     -22.896	      -3.239	      -6.371	    -146.701
	32.000000000	      -1.699	    -175.882	       2.648	      47.495	     -22.905	      -3.133	      -6.297	    -146.989
	32.500000000	      -1.704	    -176.279	       2.504	      46.575	     -22.904	      -3.386	      -6.217	    -147.260
	33.000000000	      -1.698	    -176.737	       2.358	      45.782	     -22.917	      -3.550	      -6.154	    -147.616
	33.500000000	      -1.686	    -177.132	       2.210	      44.977	     -23.018	      -3.718	      -6.094	    -148.010
	34.000000000	      -1.679	    -177.522	       2.067	      44.135	     -23.069	      -4.349	      -6.025	    -148.401
	34.500000000	      -1.682	    -177.880	       1.915	      43.294	     -23.108	      -4.420	      -5.947	    -148.683
	35.000000000	      -1.685	    -178.266	       1.774	      42.608	     -23.195	      -4.646	      -5.890	    -149.127
	35.500000000	      -1.676	    -178.617	       1.658	      41.814	     -23.279	      -4.153	      -5.832	    -149.325
	36.000000000	      -1.669	    -178.960	       1.526	      41.044	     -23.310	      -4.246	      -5.759	    -149.663
	36.500000000	      -1.659	    -179.243	       1.395	      40.191	     -23.251	      -4.426	      -5.686	    -150.007
	37.000000000	      -1.656	    -179.527	       1.260	      39.429	     -23.341	      -4.834	      -5.627	    -150.362
	37.500000000	      -1.657	    -179.875	       1.127	      38.657	     -23.377	      -5.135	      -5.571	    -150.736
	38.000000000	      -1.649	     179.768	       0.994	      37.915	     -23.442	      -4.827	      -5.509	    -150.936
	38.500000000	      -1.635	     179.422	       0.861	      37.190	     -23.527	      -5.138	      -5.450	    -151.437
	39.000000000	      -1.632	     179.146	       0.739	      36.485	     -23.637	      -4.990	      -5.384	    -151.796
	39.500000000	      -1.623	     178.967	       0.621	      35.805	     -23.668	      -4.960	      -5.321	    -152.124
	40.000000000	      -1.610	     178.580	       0.511	      34.987	     -23.707	      -4.849	      -5.254	    -152.450
	40.500000000	      -1.602	     178.121	       0.383	      34.184	     -23.757	      -4.768	      -5.190	    -152.812
	41.000000000	      -1.588	     177.771	       0.257	      33.379	     -23.812	      -5.431	      -5.135	    -153.247
	41.500000000	      -1.586	     177.574	       0.136	      32.700	     -23.814	      -5.601	      -5.090	    -153.442
	42.000000000	      -1.584	     177.266	       0.016	      31.971	     -23.924	      -5.293	      -5.026	    -153.673
	42.500000000	      -1.596	     176.902	      -0.105	      31.276	     -24.045	      -5.565	      -4.966	    -153.793
	43.000000000	      -1.593	     176.652	      -0.208	      30.621	     -24.137	      -4.439	      -4.901	    -154.190
	43.500000000	      -1.567	     176.409	      -0.324	      29.787	     -24.035	      -4.880	      -4.852	    -154.584
	44.000000000	      -1.578	     176.071	      -0.442	      29.028	     -24.009	      -4.603	      -4.780	    -154.951
	44.500000000	      -1.585	     175.667	      -0.576	      28.310	     -24.142	      -4.671	      -4.722	    -155.326
	45.000000000	      -1.594	     175.414	      -0.690	      27.637	     -24.179	      -5.289	      -4.656	    -155.732
	45.500000000	      -1.551	     174.996	      -0.971	      27.051	     -24.374	      -5.297	      -4.536	    -156.784
	46.000000000	      -1.530	     174.792	      -1.090	      26.430	     -24.487	      -5.351	      -4.483	    -157.103
	46.500000000	      -1.523	     174.453	      -1.194	      25.768	     -24.628	      -5.702	      -4.404	    -157.243
	47.000000000	      -1.514	     174.094	      -1.295	      25.040	     -24.681	      -4.656	      -4.340	    -157.528
	47.500000000	      -1.511	     173.821	      -1.407	      24.348	     -24.615	      -3.844	      -4.307	    -157.771
	48.000000000	      -1.496	     173.484	      -1.519	      23.625	     -24.658	      -4.162	      -4.249	    -158.100
	48.500000000	      -1.493	     173.217	      -1.637	      22.981	     -24.732	      -4.262	      -4.203	    -158.453
	49.000000000	      -1.502	     172.984	      -1.750	      22.356	     -24.729	      -4.917	      -4.132	    -158.590
	49.500000000	      -1.507	     172.764	      -1.880	      21.727	     -24.843	      -5.424	      -4.092	    -159.119
	50.000000000	      -1.490	     172.499	      -1.986	      21.199	     -25.156	      -4.689	      -4.055	    -159.396
	50.500000000	      -1.473	     172.206	      -2.076	      20.548	     -24.938	      -4.674	      -4.009	    -160.010
	51.000000000	      -1.474	     171.932	      -2.199	      19.842	     -25.093	      -3.769	      -3.994	    -160.430
	51.500000000	      -1.473	     171.738	      -2.290	      19.267	     -25.019	      -4.045	      -3.946	    -160.670
	52.000000000	      -1.447	     171.498	      -2.397	      18.614	     -25.013	      -3.969	      -3.909	    -160.974
	52.500000000	      -1.453	     171.169	      -2.518	      17.948	     -25.025	      -3.848	      -3.865	    -161.121
	53.000000000	      -1.444	     170.852	      -2.610	      17.375	     -25.105	      -4.111	      -3.825	    -161.264
	53.500000000	      -1.444	     170.676	      -2.709	      16.852	     -25.150	      -4.573	      -3.774	    -161.614
	54.000000000	      -1.433	     170.427	      -2.799	      16.304	     -25.104	      -3.174	      -3.708	    -161.934
	54.500000000	      -1.420	     170.012	      -2.899	      15.674	     -25.259	      -3.431	      -3.664	    -162.123
	55.000000000	      -1.433	     169.652	      -2.989	      14.983	     -25.268	      -3.340	      -3.604	    -162.351
	55.500000000	      -1.431	     169.325	      -3.078	      14.355	     -25.171	      -4.032	      -3.576	    -162.640
	56.000000000	      -1.428	     169.095	      -3.165	      13.692	     -25.251	      -4.290	      -3.535	    -163.162
	56.500000000	      -1.412	     168.769	      -3.262	      13.081	     -25.255	      -4.284	      -3.507	    -163.612
	57.000000000	      -1.422	     168.620	      -3.380	      12.298	     -25.446	      -4.637	      -3.475	    -163.793
	57.500000000	      -1.433	     168.527	      -3.484	      11.757	     -25.534	      -4.640	      -3.428	    -164.173
	58.000000000	      -1.406	     168.324	      -3.571	      11.201	     -25.512	      -4.476	      -3.397	    -164.398
	58.500000000	      -1.389	     168.099	      -3.647	      10.574	     -25.628	      -2.549	      -3.362	    -164.794
	59.000000000	      -1.369	     167.697	      -3.740	       9.865	     -25.861	      -3.681	      -3.307	    -165.100
	59.500000000	      -1.384	     167.591	      -3.837	       9.189	     -25.496	      -4.773	      -3.280	    -165.255
	60.000000000	      -1.381	     167.344	      -3.927	       8.654	     -25.654	      -2.386	      -3.275	    -165.671
	60.500000000	      -1.338	     167.141	      -4.032	       7.973	     -25.862	      -4.181	      -3.261	    -165.820
	61.000000000	      -1.324	     166.814	      -4.132	       7.360	     -25.633	      -4.366	      -3.228	    -166.085
	61.500000000	      -1.317	     166.583	      -4.237	       6.800	     -26.026	      -5.332	      -3.185	    -166.183
	62.000000000	      -1.305	     166.330	      -4.284	       6.151	     -25.783	      -2.579	      -3.156	    -166.287
	62.500000000	      -1.300	     165.893	      -4.363	       5.660	     -25.678	      -1.727	      -3.129	    -166.566
	63.000000000	      -1.297	     165.430	      -4.460	       4.972	     -25.887	      -1.659	      -3.093	    -166.626
	63.500000000	      -1.290	     165.344	      -4.536	       4.187	     -25.796	      -3.644	      -3.033	    -166.956
	64.000000000	      -1.277	     165.458	      -4.623	       3.393	     -25.913	      -0.829	      -2.970	    -167.001
	64.500000000	      -1.263	     165.220	      -4.695	       2.552	     -25.953	      -3.057	      -2.921	    -167.009
	65.000000000	      -1.285	     164.798	      -4.793	       1.669	     -25.816	      -2.367	      -2.847	    -167.223
	65.500000000	      -1.271	     164.330	      -4.944	       1.037	     -25.887	      -2.805	      -2.820	    -168.002
	66.000000000	      -1.268	     164.112	      -5.063	       0.133	     -26.104	      -3.774	      -2.812	    -168.542
	66.500000000	      -1.288	     163.868	      -5.165	      -0.588	     -25.950	      -1.937	      -2.793	    -168.476
	67.000000000	      -1.341	     163.450	      -5.270	      -1.268	     -26.008	      -3.293	      -2.784	    -168.685
	67.500000000	      -1.320	     162.911	      -5.429	      -1.894	     -25.900	      -2.829	      -2.758	    -169.081
	68.000000000	      -1.350	     162.738	      -5.527	      -2.604	     -25.842	      -2.954	      -2.793	    -169.432
	68.500000000	      -1.375	     162.528	      -5.628	      -3.059	     -25.909	      -3.368	      -2.756	    -169.624
	69.000000000	      -1.401	     162.316	      -5.759	      -3.646	     -25.917	      -3.818	      -2.689	    -169.795
	69.500000000	      -1.397	     162.083	      -5.881	      -4.111	     -26.022	      -4.099	      -2.665	    -169.998
	70.000000000	      -1.385	     161.895	      -5.971	      -4.555	     -26.059	      -3.650	      -2.644	    -170.114
	70.500000000	      -1.372	     161.671	      -6.069	      -5.063	     -26.042	      -3.337	      -2.603	    -170.260
	71.000000000	      -1.371	     161.430	      -6.169	      -5.478	     -26.016	      -3.688	      -2.575	    -170.487
	71.500000000	      -1.340	     161.255	      -6.268	      -6.034	     -25.998	      -4.151	      -2.502	    -170.656
	72.000000000	      -1.345	     160.939	      -6.378	      -6.596	     -25.979	      -4.641	      -2.504	    -170.895
	72.500000000	      -1.367	     160.604	      -6.482	      -7.273	     -26.074	      -5.528	      -2.478	    -171.227
	73.000000000	      -1.388	     160.409	      -6.593	      -7.827	     -26.182	      -6.300	      -2.443	    -171.434
	73.500000000	      -1.406	     160.318	      -6.713	      -8.313	     -26.409	      -6.293	      -2.379	    -171.767
	74.000000000	      -1.411	     160.098	      -6.819	      -8.774	     -26.482	      -5.816	      -2.376	    -172.324
	74.500000000	      -1.438	     159.876	      -6.917	      -9.215	     -26.608	      -5.544	      -2.392	    -172.575
	75.000000000	      -1.467	     159.762	      -7.021	      -9.729	     -26.709	      -5.280	      -2.383	    -172.716
	75.500000000	      -1.494	     159.730	      -7.147	     -10.271	     -26.933	      -4.865	      -2.378	    -172.853
	76.000000000	      -1.502	     159.772	      -7.274	     -10.684	     -27.245	      -3.170	      -2.380	    -172.895
	76.500000000	      -1.497	     159.900	      -7.405	     -10.834	     -27.389	       0.480	      -2.369	    -172.852
	77.000000000	      -1.483	     159.955	      -7.500	     -10.892	     -27.083	       4.563	      -2.307	    -172.753
	77.500000000	      -1.403	     159.922	      -7.526	     -10.863	     -26.460	       6.512	      -2.227	    -172.876
	78.000000000	      -1.335	     159.675	      -7.551	     -11.136	     -25.914	       6.071	      -2.183	    -172.961
	78.500000000	      -1.274	     159.122	      -7.586	     -11.716	     -25.576	       4.517	      -2.141	    -173.384
	79.000000000	      -1.288	     158.481	      -7.637	     -12.330	     -25.341	       3.178	      -2.089	    -173.641
	79.500000000	      -1.307	     157.999	      -7.676	     -13.073	     -25.076	       1.492	      -2.038	    -173.915
