!File name = EG0520U_1010_6x60_2SDBCB2EV_1915934D06_RC2952_4Vd_54mA.s2p
!Base file name = EG0520U_1010_6x60_2SDBCB2EV_1915934D06_RC2952
!Date = 8/23/2019
!Time = 1:17 PM
!Test duration(min) = 0.15
!Test = S-Parameters
!MPTS version = 8.91.5
!State File = C:\Data\PNA\20190821205423\S-Parameters_2019-08-23.sta
!Cal File = 
!ComputerName = CMPE-LAB-6
!Comments = 
!Attenuation = 0
!Z0 = 50
!Input Power(dBm) = -13.00
!Device ID = EG0520U_1010_6x60_2SDBCB2EV
!Row = 29
!Column = 52
!Technology = QPHT09
!Lot/Wafer = 1915934D06
!Gate Size = 360
!Mask = EG0520
!Cal Standards = GaAs BCB
!Cal Kit = EG2306
!Job Number = 20190821205423
!Device Type = FET
!set_Vg(v) = -1.500
!set_Vd(v) = 4.000
!set_Vd(mA) = 54.000
!file_name = EG0520U_1010_6x60_2SDBCB2EV_1915934D06_RC2952_4Vd_54mA.s2p
!Vd(V) = 4.000
!Vd(mA) = 54.168
!Vg(V) = -0.444
!Vg(mA) = -0.002
# GHz   S   DB   R   50
!%	Freq(GHz)	     s11(dB)	    s11(deg)	     s21(dB)	    s21(deg)	     s12(dB)	    s12(deg)	     s22(dB)	    s22(deg)
	0.500000000	      -0.058	     -15.502	      22.685	     170.527	     -39.393	      80.788	      -8.519	     -15.276
	1.000000000	      -0.148	     -30.588	      22.192	     161.770	     -33.651	      72.843	      -8.597	     -29.025
	1.500000000	      -0.191	     -44.721	      21.793	     153.950	     -30.536	      65.280	      -8.606	     -42.239
	2.000000000	      -0.337	     -57.378	      21.524	     146.490	     -28.567	      58.350	      -8.681	     -55.105
	2.500000000	      -0.437	     -69.066	      21.039	     139.901	     -27.218	      52.440	      -8.852	     -65.432
	3.000000000	      -0.830	     -76.858	      20.329	     134.686	     -26.443	      48.042	      -9.284	     -69.590
	3.500000000	      -0.946	     -85.763	      19.732	     129.552	     -25.723	      43.602	      -9.396	     -77.445
	4.000000000	      -1.039	     -93.575	      19.139	     125.023	     -25.178	      39.715	      -9.488	     -84.356
	4.500000000	      -1.135	    -100.470	      18.557	     120.893	     -24.771	      36.278	      -9.565	     -90.619
	5.000000000	      -1.204	    -106.577	      17.979	     117.238	     -24.454	      33.283	      -9.640	     -95.923
	5.500000000	      -1.268	    -112.027	      17.429	     113.875	     -24.204	      30.639	      -9.707	    -100.589
	6.000000000	      -1.320	    -116.877	      16.886	     110.862	     -24.002	      28.299	      -9.732	    -104.638
	6.500000000	      -1.365	    -121.179	      16.368	     108.112	     -23.844	      26.180	      -9.753	    -108.238
	7.000000000	      -1.401	    -125.059	      15.872	     105.546	     -23.714	      24.300	      -9.761	    -111.406
	7.500000000	      -1.428	    -128.568	      15.390	     103.184	     -23.614	      22.633	      -9.760	    -114.205
	8.000000000	      -1.436	    -131.505	      14.948	     101.118	     -23.506	      21.232	      -9.781	    -115.990
	8.500000000	      -1.462	    -134.439	      14.503	      99.068	     -23.430	      19.772	      -9.768	    -118.252
	9.000000000	      -1.488	    -137.089	      14.072	      97.139	     -23.375	      18.403	      -9.748	    -120.292
	9.500000000	      -1.503	    -139.554	      13.667	      95.271	     -23.335	      17.080	      -9.719	    -122.057
	10.000000000	      -1.515	    -141.846	      13.274	      93.502	     -23.322	      15.869	      -9.697	    -123.759
	10.500000000	      -1.536	    -143.967	      12.892	      91.799	     -23.310	      14.913	      -9.671	    -125.271
	11.000000000	      -1.547	    -145.895	      12.528	      90.215	     -23.290	      14.003	      -9.632	    -126.557
	11.500000000	      -1.562	    -147.722	      12.173	      88.674	     -23.293	      13.063	      -9.590	    -127.734
	12.000000000	      -1.572	    -149.421	      11.833	      87.206	     -23.294	      12.254	      -9.533	    -128.842
	12.500000000	      -1.576	    -151.015	      11.504	      85.779	     -23.295	      11.451	      -9.475	    -129.923
	13.000000000	      -1.583	    -152.503	      11.184	      84.376	     -23.305	      10.715	      -9.419	    -130.917
	13.500000000	      -1.592	    -153.933	      10.874	      83.041	     -23.329	       9.936	      -9.358	    -131.731
	14.000000000	      -1.602	    -155.282	      10.572	      81.744	     -23.361	       9.302	      -9.296	    -132.491
	14.500000000	      -1.606	    -156.499	      10.280	      80.475	     -23.389	       8.795	      -9.240	    -133.314
	15.000000000	      -1.608	    -157.597	       9.994	      79.254	     -23.413	       8.359	      -9.185	    -134.015
	15.500000000	      -1.612	    -158.680	       9.719	      78.049	     -23.430	       7.907	      -9.117	    -134.586
	16.000000000	      -1.615	    -159.773	       9.451	      76.867	     -23.429	       7.339	      -9.038	    -135.161
	16.500000000	      -1.614	    -160.831	       9.190	      75.702	     -23.464	       6.773	      -8.965	    -135.719
	17.000000000	      -1.613	    -161.821	       8.937	      74.566	     -23.509	       6.318	      -8.896	    -136.264
	17.500000000	      -1.618	    -162.715	       8.686	      73.446	     -23.536	       5.923	      -8.821	    -136.817
	18.000000000	      -1.625	    -163.603	       8.446	      72.353	     -23.589	       5.428	      -8.746	    -137.390
	18.500000000	      -1.625	    -164.467	       8.210	      71.284	     -23.616	       4.957	      -8.664	    -137.838
	19.000000000	      -1.623	    -165.309	       7.976	      70.214	     -23.674	       4.578	      -8.590	    -138.264
	19.500000000	      -1.622	    -166.099	       7.750	      69.184	     -23.749	       4.329	      -8.525	    -138.691
	20.000000000	      -1.627	    -166.827	       7.530	      68.168	     -23.808	       4.268	      -8.456	    -139.073
	20.500000000	      -1.628	    -167.521	       7.319	      67.158	     -23.819	       4.232	      -8.370	    -139.423
	21.000000000	      -1.627	    -168.258	       7.106	      66.148	     -23.836	       3.796	      -8.280	    -139.855
	21.500000000	      -1.619	    -168.952	       6.898	      65.147	     -23.865	       3.427	      -8.197	    -140.207
	22.000000000	      -1.615	    -169.530	       6.694	      64.182	     -23.927	       3.071	      -8.121	    -140.576
	22.500000000	      -1.609	    -170.152	       6.494	      63.180	     -23.970	       2.721	      -8.045	    -140.987
	23.000000000	      -1.609	    -170.772	       6.294	      62.211	     -24.021	       2.346	      -7.964	    -141.476
	23.500000000	      -1.611	    -171.445	       6.098	      61.291	     -24.136	       2.092	      -7.889	    -141.963
	24.000000000	      -1.613	    -172.043	       5.910	      60.394	     -24.246	       2.267	      -7.823	    -142.254
	24.500000000	      -1.605	    -172.482	       5.730	      59.463	     -24.260	       2.404	      -7.747	    -142.430
	25.000000000	      -1.588	    -172.924	       5.549	      58.506	     -24.286	       2.407	      -7.666	    -142.671
	25.500000000	      -1.583	    -173.509	       5.368	      57.595	     -24.324	       2.118	      -7.577	    -143.036
	26.000000000	      -1.586	    -174.174	       5.184	      56.683	     -24.362	       1.856	      -7.480	    -143.480
	26.500000000	      -1.583	    -174.671	       5.008	      55.790	     -24.413	       1.738	      -7.396	    -143.859
	27.000000000	      -1.578	    -175.069	       4.834	      54.914	     -24.503	       1.293	      -7.326	    -144.127
	27.500000000	      -1.584	    -175.476	       4.661	      54.130	     -24.661	       1.514	      -7.272	    -144.327
	28.000000000	      -1.588	    -175.969	       4.503	      53.297	     -24.761	       1.780	      -7.194	    -144.729
	28.500000000	      -1.572	    -176.372	       4.352	      52.383	     -24.725	       2.212	      -7.092	    -145.051
	29.000000000	      -1.560	    -176.810	       4.184	      51.466	     -24.725	       2.362	      -7.018	    -145.437
	29.500000000	      -1.549	    -177.228	       4.025	      50.610	     -24.748	       2.044	      -6.933	    -145.757
	30.000000000	      -1.547	    -177.616	       3.867	      49.814	     -24.836	       1.714	      -6.866	    -146.028
	30.500000000	      -1.547	    -178.078	       3.713	      48.957	     -24.887	       1.774	      -6.791	    -146.360
	31.000000000	      -1.537	    -178.502	       3.557	      48.141	     -24.982	       1.782	      -6.728	    -146.754
	31.500000000	      -1.523	    -178.918	       3.415	      47.349	     -25.078	       2.246	      -6.659	    -147.025
	32.000000000	      -1.522	    -179.204	       3.269	      46.504	     -25.092	       2.602	      -6.583	    -147.277
	32.500000000	      -1.532	    -179.623	       3.121	      45.613	     -25.065	       2.774	      -6.491	    -147.523
	33.000000000	      -1.531	     179.927	       2.973	      44.816	     -25.064	       2.703	      -6.417	    -147.890
	33.500000000	      -1.517	     179.550	       2.820	      44.040	     -25.144	       2.314	      -6.347	    -148.307
	34.000000000	      -1.505	     179.281	       2.677	      43.255	     -25.238	       2.368	      -6.270	    -148.770
	34.500000000	      -1.504	     178.895	       2.524	      42.394	     -25.262	       2.335	      -6.183	    -149.036
	35.000000000	      -1.501	     178.558	       2.379	      41.658	     -25.419	       2.325	      -6.115	    -149.499
	35.500000000	      -1.494	     178.201	       2.259	      40.913	     -25.464	       3.002	      -6.064	    -149.712
	36.000000000	      -1.482	     177.875	       2.130	      40.025	     -25.389	       3.139	      -5.978	    -150.029
	36.500000000	      -1.464	     177.587	       1.989	      39.207	     -25.418	       3.027	      -5.903	    -150.396
	37.000000000	      -1.460	     177.336	       1.848	      38.435	     -25.393	       2.692	      -5.841	    -150.713
	37.500000000	      -1.467	     176.894	       1.704	      37.634	     -25.564	       2.880	      -5.784	    -151.071
	38.000000000	      -1.472	     176.544	       1.564	      36.950	     -25.611	       2.167	      -5.721	    -151.369
	38.500000000	      -1.468	     176.288	       1.421	      36.279	     -25.815	       2.473	      -5.652	    -151.774
	39.000000000	      -1.456	     176.098	       1.305	      35.627	     -25.891	       3.458	      -5.584	    -152.126
	39.500000000	      -1.450	     175.896	       1.185	      34.927	     -25.940	       3.691	      -5.509	    -152.457
	40.000000000	      -1.442	     175.484	       1.073	      34.096	     -25.872	       4.076	      -5.431	    -152.791
	40.500000000	      -1.434	     175.090	       0.943	      33.347	     -25.914	       4.669	      -5.354	    -153.088
	41.000000000	      -1.412	     174.806	       0.823	      32.563	     -25.962	       3.904	      -5.287	    -153.587
	41.500000000	      -1.403	     174.652	       0.700	      31.835	     -26.024	       4.259	      -5.252	    -153.819
	42.000000000	      -1.404	     174.330	       0.572	      31.084	     -26.050	       4.126	      -5.177	    -154.047
	42.500000000	      -1.420	     173.978	       0.446	      30.393	     -26.202	       3.746	      -5.118	    -154.116
	43.000000000	      -1.420	     173.744	       0.334	      29.754	     -26.370	       5.231	      -5.049	    -154.467
	43.500000000	      -1.397	     173.521	       0.215	      28.914	     -26.179	       5.400	      -4.984	    -154.926
	44.000000000	      -1.407	     173.232	       0.089	      28.148	     -26.031	       5.726	      -4.908	    -155.359
	44.500000000	      -1.416	     172.828	      -0.043	      27.429	     -26.175	       5.395	      -4.844	    -155.770
	45.000000000	      -1.430	     172.504	      -0.165	      26.773	     -26.201	       5.658	      -4.786	    -156.179
	45.500000000	      -1.377	     172.255	      -0.447	      26.221	     -26.506	       5.068	      -4.654	    -157.187
	46.000000000	      -1.356	     172.030	      -0.578	      25.633	     -26.707	       5.834	      -4.599	    -157.608
	46.500000000	      -1.349	     171.717	      -0.682	      25.049	     -26.794	       6.592	      -4.528	    -157.727
	47.000000000	      -1.346	     171.409	      -0.778	      24.301	     -26.736	       7.522	      -4.468	    -158.108
	47.500000000	      -1.337	     171.078	      -0.910	      23.585	     -26.723	       8.578	      -4.429	    -158.254
	48.000000000	      -1.321	     170.851	      -1.034	      22.966	     -26.663	       7.581	      -4.365	    -158.534
	48.500000000	      -1.322	     170.532	      -1.140	      22.346	     -26.726	       7.767	      -4.335	    -158.869
	49.000000000	      -1.328	     170.402	      -1.246	      21.753	     -26.649	       8.513	      -4.255	    -159.044
	49.500000000	      -1.346	     170.123	      -1.355	      21.234	     -27.097	       7.768	      -4.180	    -159.311
	50.000000000	      -1.318	     169.948	      -1.460	      20.650	     -27.032	       8.487	      -4.144	    -159.607
	50.500000000	      -1.315	     169.654	      -1.541	      19.851	     -26.972	      10.656	      -4.108	    -160.112
	51.000000000	      -1.305	     169.395	      -1.663	      19.166	     -26.996	      10.007	      -4.068	    -160.649
	51.500000000	      -1.297	     169.284	      -1.770	      18.501	     -26.805	      10.349	      -4.008	    -160.928
	52.000000000	      -1.279	     169.066	      -1.883	      17.769	     -26.874	       9.336	      -3.958	    -161.142
	52.500000000	      -1.281	     168.665	      -1.990	      17.076	     -26.898	       9.916	      -3.905	    -161.366
	53.000000000	      -1.276	     168.373	      -2.108	      16.398	     -26.902	       9.964	      -3.834	    -161.525
	53.500000000	      -1.272	     168.231	      -2.222	      15.861	     -26.927	      10.355	      -3.786	    -161.905
	54.000000000	      -1.269	     168.014	      -2.325	      15.337	     -26.997	      10.237	      -3.713	    -162.270
	54.500000000	      -1.262	     167.598	      -2.423	      14.719	     -27.021	       9.552	      -3.661	    -162.501
	55.000000000	      -1.269	     167.234	      -2.523	      13.990	     -26.913	      10.238	      -3.621	    -162.774
	55.500000000	      -1.268	     166.923	      -2.610	      13.391	     -26.820	      10.975	      -3.583	    -163.161
	56.000000000	      -1.263	     166.694	      -2.698	      12.818	     -26.794	       9.319	      -3.540	    -163.744
	56.500000000	      -1.269	     166.464	      -2.817	      12.061	     -27.091	       9.955	      -3.525	    -164.364
	57.000000000	      -1.276	     166.408	      -2.945	      11.559	     -27.188	      11.266	      -3.494	    -164.368
	57.500000000	      -1.263	     166.181	      -3.061	      10.995	     -27.091	       9.749	      -3.460	    -164.759
	58.000000000	      -1.246	     166.109	      -3.148	      10.286	     -27.290	      12.206	      -3.409	    -165.102
	58.500000000	      -1.211	     165.942	      -3.245	       9.789	     -27.125	      10.988	      -3.367	    -165.368
	59.000000000	      -1.209	     165.617	      -3.345	       9.093	     -27.291	      13.105	      -3.301	    -165.592
	59.500000000	      -1.223	     165.462	      -3.442	       8.496	     -27.221	      11.456	      -3.271	    -165.854
	60.000000000	      -1.222	     165.289	      -3.539	       7.967	     -27.263	      12.339	      -3.283	    -166.238
	60.500000000	      -1.185	     165.051	      -3.638	       7.363	     -27.308	      12.513	      -3.265	    -166.404
	61.000000000	      -1.146	     164.881	      -3.759	       6.978	     -27.678	      14.279	      -3.222	    -166.674
	61.500000000	      -1.149	     164.656	      -3.834	       6.546	     -27.396	      13.290	      -3.206	    -166.859
	62.000000000	      -1.113	     164.291	      -3.881	       5.850	     -27.669	      13.643	      -3.179	    -166.841
	62.500000000	      -1.151	     164.029	      -3.972	       5.149	     -27.336	      15.695	      -3.142	    -167.034
	63.000000000	      -1.104	     163.682	      -4.031	       4.550	     -27.376	      13.749	      -3.092	    -167.121
	63.500000000	      -1.110	     163.569	      -4.132	       3.746	     -27.238	      16.965	      -3.027	    -167.402
	64.000000000	      -1.109	     163.622	      -4.193	       3.029	     -27.075	      15.275	      -2.955	    -167.400
	64.500000000	      -1.079	     163.365	      -4.280	       2.178	     -27.132	      15.897	      -2.913	    -167.225
	65.000000000	      -1.115	     163.079	      -4.398	       1.382	     -26.986	      14.414	      -2.837	    -167.763
	65.500000000	      -1.100	     162.589	      -4.495	       0.666	     -26.827	      15.341	      -2.848	    -168.658
	66.000000000	      -1.076	     162.324	      -4.649	      -0.353	     -26.982	      13.570	      -2.803	    -168.977
	66.500000000	      -1.119	     162.275	      -4.738	      -1.176	     -26.897	      14.484	      -2.777	    -168.816
	67.000000000	      -1.179	     161.695	      -4.870	      -1.759	     -26.866	      13.783	      -2.745	    -168.904
	67.500000000	      -1.152	     161.036	      -5.017	      -2.568	     -26.868	      14.876	      -2.746	    -169.517
	68.000000000	      -1.202	     160.852	      -5.112	      -3.245	     -26.839	      14.738	      -2.776	    -169.871
	68.500000000	      -1.246	     160.618	      -5.227	      -3.764	     -26.870	      14.235	      -2.743	    -170.124
	69.000000000	      -1.279	     160.460	      -5.366	      -4.227	     -26.857	      13.702	      -2.665	    -170.327
	69.500000000	      -1.278	     160.323	      -5.491	      -4.743	     -26.936	      13.596	      -2.643	    -170.468
	70.000000000	      -1.254	     160.169	      -5.593	      -5.220	     -27.042	      14.206	      -2.610	    -170.495
	70.500000000	      -1.235	     160.028	      -5.698	      -5.677	     -26.919	      14.264	      -2.578	    -170.674
	71.000000000	      -1.220	     159.902	      -5.779	      -6.074	     -26.949	      13.969	      -2.529	    -170.924
	71.500000000	      -1.148	     159.835	      -5.900	      -6.508	     -26.907	      13.578	      -2.480	    -171.122
	72.000000000	      -1.154	     159.529	      -6.028	      -7.122	     -26.919	      12.844	      -2.469	    -171.444
	72.500000000	      -1.195	     159.062	      -6.133	      -7.828	     -26.993	      11.939	      -2.437	    -171.739
	73.000000000	      -1.232	     158.871	      -6.241	      -8.384	     -27.143	      11.429	      -2.401	    -171.956
	73.500000000	      -1.256	     158.788	      -6.361	      -8.912	     -27.343	      11.980	      -2.334	    -172.287
	74.000000000	      -1.264	     158.515	      -6.473	      -9.296	     -27.431	      12.753	      -2.330	    -172.853
	74.500000000	      -1.306	     158.245	      -6.566	      -9.698	     -27.491	      13.605	      -2.353	    -173.105
	75.000000000	      -1.348	     158.202	      -6.669	     -10.233	     -27.558	      14.216	      -2.336	    -173.215
	75.500000000	      -1.392	     158.277	      -6.800	     -10.731	     -27.750	      14.923	      -2.336	    -173.340
	76.000000000	      -1.402	     158.420	      -6.924	     -11.070	     -27.925	      17.567	      -2.339	    -173.408
	76.500000000	      -1.383	     158.628	      -7.050	     -11.161	     -27.816	      21.743	      -2.312	    -173.355
	77.000000000	      -1.349	     158.681	      -7.122	     -11.191	     -27.276	      24.844	      -2.255	    -173.340
	77.500000000	      -1.266	     158.649	      -7.153	     -11.193	     -26.512	      25.322	      -2.176	    -173.495
	78.000000000	      -1.184	     158.403	      -7.156	     -11.497	     -25.907	      23.840	      -2.140	    -173.642
	78.500000000	      -1.147	     157.849	      -7.181	     -12.341	     -25.531	      21.041	      -2.103	    -173.916
	79.000000000	      -1.168	     157.165	      -7.252	     -13.206	     -25.387	      18.414	      -2.042	    -174.248
	79.500000000	      -1.203	     156.785	      -7.328	     -14.063	     -25.269	      15.757	      -1.990	    -174.497
