!File name = EG0520U_1010_6x60_2SDBCB2EV_1915934D06_RC2943_4Vd_18mA.s2p
!Base file name = EG0520U_1010_6x60_2SDBCB2EV_1915934D06_RC2943
!Date = 8/23/2019
!Time = 1:05 PM
!Test duration(min) = 0.15
!Test = S-Parameters
!MPTS version = 8.91.5
!State File = C:\Data\PNA\20190821205423\S-Parameters_2019-08-23.sta
!Cal File = 
!ComputerName = CMPE-LAB-6
!Comments = 
!Attenuation = 0
!Z0 = 50
!Input Power(dBm) = -13.00
!Device ID = EG0520U_1010_6x60_2SDBCB2EV
!Row = 29
!Column = 43
!Technology = QPHT09
!Lot/Wafer = 1915934D06
!Gate Size = 360
!Mask = EG0520
!Cal Standards = GaAs BCB
!Cal Kit = EG2306
!Job Number = 20190821205423
!Device Type = FET
!set_Vg(v) = -1.500
!set_Vd(v) = 4.000
!set_Vd(mA) = 18.000
!file_name = EG0520U_1010_6x60_2SDBCB2EV_1915934D06_RC2943_4Vd_18mA.s2p
!Vd(V) = 4.000
!Vd(mA) = 17.839
!Vg(V) = -0.646
!Vg(mA) = -0.010
# GHz   S   DB   R   50
!%	Freq(GHz)	     s11(dB)	    s11(deg)	     s21(dB)	    s21(deg)	     s12(dB)	    s12(deg)	     s22(dB)	    s22(deg)
	0.500000000	      -0.095	     -12.556	      19.799	     172.018	     -37.805	      80.463	      -6.505	     -11.312
	1.000000000	      -0.177	     -24.878	      19.505	     164.207	     -31.974	      74.490	      -6.598	     -21.831
	1.500000000	      -0.212	     -36.682	      19.224	     157.726	     -28.734	      68.062	      -6.677	     -32.167
	2.000000000	      -0.350	     -47.647	      18.988	     150.630	     -26.626	      61.740	      -6.820	     -42.504
	2.500000000	      -0.445	     -58.083	      18.625	     144.563	     -25.159	      56.319	      -7.068	     -51.198
	3.000000000	      -0.821	     -65.198	      17.993	     139.261	     -24.286	      51.964	      -7.440	     -54.835
	3.500000000	      -0.940	     -73.730	      17.552	     134.275	     -23.443	      47.566	      -7.630	     -61.797
	4.000000000	      -1.053	     -81.315	      17.069	     129.719	     -22.788	      43.618	      -7.809	     -68.115
	4.500000000	      -1.185	     -88.100	      16.563	     125.371	     -22.290	      39.921	      -7.978	     -74.101
	5.000000000	      -1.269	     -94.323	      16.077	     121.618	     -21.895	      36.705	      -8.143	     -79.297
	5.500000000	      -1.358	     -99.940	      15.593	     118.054	     -21.586	      33.866	      -8.311	     -84.003
	6.000000000	      -1.437	    -105.106	      15.122	     114.778	     -21.324	      31.252	      -8.420	     -88.200
	6.500000000	      -1.497	    -109.684	      14.658	     111.831	     -21.113	      28.841	      -8.520	     -92.023
	7.000000000	      -1.558	    -113.870	      14.206	     109.016	     -20.937	      26.688	      -8.598	     -95.457
	7.500000000	      -1.602	    -117.675	      13.764	     106.434	     -20.800	      24.704	      -8.664	     -98.640
	8.000000000	      -1.628	    -120.896	      13.353	     104.152	     -20.669	      23.043	      -8.719	    -100.819
	8.500000000	      -1.669	    -124.143	      12.941	     101.874	     -20.565	      21.329	      -8.766	    -103.421
	9.000000000	      -1.708	    -127.039	      12.533	      99.739	     -20.481	      19.718	      -8.793	    -105.754
	9.500000000	      -1.740	    -129.789	      12.152	      97.652	     -20.412	      18.204	      -8.808	    -107.883
	10.000000000	      -1.761	    -132.315	      11.779	      95.713	     -20.361	      16.733	      -8.817	    -109.916
	10.500000000	      -1.789	    -134.694	      11.420	      93.810	     -20.326	      15.440	      -8.820	    -111.753
	11.000000000	      -1.807	    -136.876	      11.071	      92.041	     -20.294	      14.230	      -8.817	    -113.411
	11.500000000	      -1.832	    -138.922	      10.728	      90.314	     -20.270	      13.071	      -8.804	    -114.943
	12.000000000	      -1.851	    -140.850	      10.403	      88.676	     -20.262	      11.984	      -8.777	    -116.367
	12.500000000	      -1.862	    -142.635	      10.086	      87.112	     -20.248	      10.974	      -8.746	    -117.801
	13.000000000	      -1.878	    -144.304	       9.775	      85.541	     -20.252	      10.005	      -8.715	    -119.088
	13.500000000	      -1.888	    -145.894	       9.478	      84.068	     -20.243	       9.039	      -8.668	    -120.228
	14.000000000	      -1.899	    -147.423	       9.186	      82.618	     -20.258	       8.161	      -8.620	    -121.251
	14.500000000	      -1.904	    -148.828	       8.905	      81.203	     -20.269	       7.332	      -8.577	    -122.345
	15.000000000	      -1.911	    -150.078	       8.625	      79.848	     -20.287	       6.542	      -8.534	    -123.335
	15.500000000	      -1.921	    -151.324	       8.355	      78.503	     -20.304	       5.856	      -8.480	    -124.191
	16.000000000	      -1.926	    -152.534	       8.093	      77.197	     -20.311	       5.121	      -8.414	    -125.026
	16.500000000	      -1.932	    -153.714	       7.837	      75.903	     -20.330	       4.352	      -8.355	    -125.792
	17.000000000	      -1.934	    -154.818	       7.589	      74.654	     -20.361	       3.663	      -8.296	    -126.564
	17.500000000	      -1.942	    -155.814	       7.341	      73.421	     -20.385	       3.064	      -8.229	    -127.372
	18.000000000	      -1.953	    -156.795	       7.105	      72.227	     -20.414	       2.436	      -8.164	    -128.138
	18.500000000	      -1.954	    -157.759	       6.874	      71.046	     -20.430	       1.787	      -8.087	    -128.815
	19.000000000	      -1.954	    -158.680	       6.644	      69.871	     -20.472	       1.084	      -8.017	    -129.474
	19.500000000	      -1.953	    -159.546	       6.421	      68.741	     -20.535	       0.522	      -7.958	    -130.096
	20.000000000	      -1.959	    -160.356	       6.205	      67.642	     -20.591	       0.185	      -7.896	    -130.646
	20.500000000	      -1.959	    -161.140	       5.999	      66.532	     -20.612	      -0.181	      -7.814	    -131.194
	21.000000000	      -1.961	    -161.906	       5.790	      65.428	     -20.626	      -0.658	      -7.731	    -131.806
	21.500000000	      -1.952	    -162.710	       5.585	      64.331	     -20.663	      -1.204	      -7.655	    -132.342
	22.000000000	      -1.950	    -163.351	       5.384	      63.280	     -20.691	      -1.720	      -7.575	    -132.875
	22.500000000	      -1.948	    -164.028	       5.185	      62.203	     -20.726	      -2.299	      -7.506	    -133.436
	23.000000000	      -1.949	    -164.721	       4.987	      61.155	     -20.782	      -2.871	      -7.432	    -134.076
	23.500000000	      -1.950	    -165.353	       4.795	      60.179	     -20.876	      -3.355	      -7.365	    -134.674
	24.000000000	      -1.948	    -165.980	       4.615	      59.203	     -20.958	      -3.432	      -7.296	    -135.104
	24.500000000	      -1.934	    -166.488	       4.439	      58.190	     -20.970	      -3.577	      -7.217	    -135.442
	25.000000000	      -1.917	    -167.058	       4.261	      57.149	     -20.961	      -3.976	      -7.136	    -135.877
	25.500000000	      -1.909	    -167.662	       4.084	      56.162	     -21.009	      -4.371	      -7.051	    -136.386
	26.000000000	      -1.913	    -168.284	       3.903	      55.179	     -21.050	      -4.983	      -6.964	    -136.959
	26.500000000	      -1.910	    -168.833	       3.730	      54.215	     -21.126	      -5.364	      -6.882	    -137.434
	27.000000000	      -1.900	    -169.242	       3.560	      53.279	     -21.178	      -5.806	      -6.808	    -137.901
	27.500000000	      -1.892	    -169.635	       3.401	      52.411	     -21.285	      -6.010	      -6.748	    -138.156
	28.000000000	      -1.880	    -170.213	       3.249	      51.465	     -21.332	      -6.097	      -6.665	    -138.711
	28.500000000	      -1.871	    -170.779	       3.093	      50.435	     -21.334	      -6.156	      -6.572	    -139.226
	29.000000000	      -1.859	    -171.232	       2.929	      49.456	     -21.376	      -6.648	      -6.497	    -139.759
	29.500000000	      -1.851	    -171.692	       2.768	      48.528	     -21.419	      -7.063	      -6.422	    -140.174
	30.000000000	      -1.843	    -172.104	       2.613	      47.661	     -21.493	      -7.489	      -6.361	    -140.605
	30.500000000	      -1.837	    -172.593	       2.462	      46.723	     -21.541	      -7.869	      -6.288	    -141.052
	31.000000000	      -1.820	    -173.087	       2.311	      45.788	     -21.595	      -8.218	      -6.228	    -141.546
	31.500000000	      -1.806	    -173.531	       2.170	      44.935	     -21.725	      -8.286	      -6.162	    -141.876
	32.000000000	      -1.803	    -173.953	       2.021	      44.029	     -21.733	      -8.112	      -6.086	    -142.325
	32.500000000	      -1.813	    -174.353	       1.874	      43.087	     -21.769	      -8.569	      -6.001	    -142.641
	33.000000000	      -1.809	    -174.823	       1.729	      42.239	     -21.820	      -8.687	      -5.929	    -143.066
	33.500000000	      -1.792	    -175.219	       1.581	      41.371	     -21.897	      -8.876	      -5.860	    -143.558
	34.000000000	      -1.773	    -175.592	       1.439	      40.496	     -21.947	      -9.348	      -5.786	    -144.064
	34.500000000	      -1.770	    -176.039	       1.288	      39.542	     -22.006	      -9.440	      -5.712	    -144.470
	35.000000000	      -1.766	    -176.447	       1.143	      38.718	     -22.132	      -9.772	      -5.641	    -144.991
	35.500000000	      -1.763	    -176.861	       1.015	      37.931	     -22.161	      -9.614	      -5.583	    -145.319
	36.000000000	      -1.755	    -177.221	       0.883	      37.017	     -22.153	      -9.680	      -5.506	    -145.730
	36.500000000	      -1.745	    -177.529	       0.743	      36.141	     -22.223	     -10.199	      -5.433	    -146.180
	37.000000000	      -1.742	    -177.831	       0.603	      35.326	     -22.264	     -10.217	      -5.370	    -146.637
	37.500000000	      -1.742	    -178.228	       0.464	      34.505	     -22.311	     -10.703	      -5.319	    -146.997
	38.000000000	      -1.736	    -178.589	       0.327	      33.726	     -22.428	     -10.838	      -5.251	    -147.379
	38.500000000	      -1.720	    -179.012	       0.187	      32.923	     -22.469	     -11.338	      -5.186	    -147.911
	39.000000000	      -1.717	    -179.320	       0.055	      32.166	     -22.562	     -11.242	      -5.126	    -148.321
	39.500000000	      -1.725	    -179.592	      -0.076	      31.412	     -22.665	     -11.535	      -5.058	    -148.765
	40.000000000	      -1.727	    -179.974	      -0.194	      30.668	     -22.731	     -11.177	      -4.985	    -149.138
	40.500000000	      -1.728	     179.664	      -0.318	      29.894	     -22.812	     -11.379	      -4.906	    -149.545
	41.000000000	      -1.708	     179.368	      -0.433	      29.098	     -22.863	     -11.012	      -4.836	    -150.050
	41.500000000	      -1.698	     179.181	      -0.561	      28.335	     -22.907	     -11.310	      -4.800	    -150.415
	42.000000000	      -1.701	     178.896	      -0.683	      27.566	     -22.911	     -11.660	      -4.738	    -150.719
	42.500000000	      -1.715	     178.519	      -0.810	      26.839	     -23.024	     -12.133	      -4.673	    -150.947
	43.000000000	      -1.714	     178.253	      -0.921	      26.165	     -23.148	     -11.854	      -4.607	    -151.371
	43.500000000	      -1.693	     178.105	      -1.032	      25.341	     -23.141	     -11.807	      -4.556	    -151.877
	44.000000000	      -1.700	     177.870	      -1.150	      24.561	     -23.138	     -11.904	      -4.489	    -152.324
	44.500000000	      -1.698	     177.423	      -1.273	      23.767	     -23.211	     -11.729	      -4.423	    -152.782
	45.000000000	      -1.712	     177.104	      -1.393	      23.034	     -23.255	     -12.034	      -4.366	    -153.218
	45.500000000	      -1.650	     176.675	      -1.676	      22.348	     -23.469	     -12.347	      -4.243	    -154.290
	46.000000000	      -1.626	     176.433	      -1.809	      21.623	     -23.575	     -12.735	      -4.188	    -154.718
	46.500000000	      -1.615	     176.051	      -1.916	      20.959	     -23.725	     -12.785	      -4.124	    -154.954
	47.000000000	      -1.621	     175.739	      -2.022	      20.233	     -23.866	     -12.229	      -4.047	    -155.343
	47.500000000	      -1.607	     175.456	      -2.146	      19.465	     -23.856	     -12.169	      -4.019	    -155.628
	48.000000000	      -1.592	     175.186	      -2.255	      18.775	     -23.785	     -11.487	      -3.964	    -156.050
	48.500000000	      -1.588	     174.824	      -2.373	      18.085	     -23.921	     -12.375	      -3.901	    -156.356
	49.000000000	      -1.593	     174.649	      -2.490	      17.380	     -23.891	     -12.314	      -3.846	    -156.818
	49.500000000	      -1.610	     174.421	      -2.605	      16.722	     -24.081	     -12.102	      -3.813	    -157.159
	50.000000000	      -1.598	     174.130	      -2.733	      16.182	     -24.190	     -12.222	      -3.767	    -157.540
	50.500000000	      -1.577	     173.901	      -2.820	      15.579	     -24.365	     -12.217	      -3.730	    -158.199
	51.000000000	      -1.562	     173.577	      -2.936	      14.815	     -24.349	     -12.202	      -3.706	    -158.483
	51.500000000	      -1.561	     173.409	      -3.043	      14.267	     -24.273	     -11.593	      -3.650	    -158.839
	52.000000000	      -1.534	     173.196	      -3.141	      13.552	     -24.225	     -11.680	      -3.613	    -159.283
	52.500000000	      -1.529	     172.816	      -3.256	      12.857	     -24.372	     -11.947	      -3.567	    -159.389
	53.000000000	      -1.527	     172.452	      -3.364	      12.149	     -24.418	     -11.913	      -3.515	    -159.621
	53.500000000	      -1.520	     172.336	      -3.461	      11.603	     -24.487	     -12.296	      -3.463	    -160.056
	54.000000000	      -1.514	     172.026	      -3.566	      11.003	     -24.547	     -12.024	      -3.393	    -160.386
	54.500000000	      -1.516	     171.707	      -3.661	      10.441	     -24.521	     -12.690	      -3.343	    -160.665
	55.000000000	      -1.515	     171.289	      -3.760	       9.760	     -24.619	     -11.573	      -3.297	    -160.954
	55.500000000	      -1.517	     171.038	      -3.847	       9.106	     -24.651	     -11.746	      -3.254	    -161.367
	56.000000000	      -1.498	     170.720	      -3.952	       8.396	     -24.547	     -11.578	      -3.214	    -161.982
	56.500000000	      -1.504	     170.592	      -4.052	       7.695	     -24.613	     -11.909	      -3.166	    -162.417
	57.000000000	      -1.503	     170.452	      -4.156	       7.062	     -24.694	     -13.205	      -3.186	    -162.542
	57.500000000	      -1.496	     170.217	      -4.263	       6.395	     -24.805	     -12.513	      -3.135	    -163.037
	58.000000000	      -1.462	     170.172	      -4.353	       5.952	     -25.044	     -11.924	      -3.094	    -163.410
	58.500000000	      -1.454	     169.855	      -4.430	       5.101	     -24.968	     -11.187	      -3.063	    -163.669
	59.000000000	      -1.443	     169.515	      -4.511	       4.293	     -25.001	     -11.896	      -2.992	    -164.016
	59.500000000	      -1.443	     169.282	      -4.616	       3.703	     -24.857	     -12.895	      -2.964	    -164.341
	60.000000000	      -1.429	     169.136	      -4.717	       3.088	     -25.123	     -12.624	      -2.962	    -164.729
	60.500000000	      -1.406	     168.886	      -4.821	       2.342	     -25.215	     -13.810	      -2.960	    -164.755
	61.000000000	      -1.366	     168.509	      -4.916	       1.846	     -25.267	     -11.239	      -2.929	    -165.055
	61.500000000	      -1.368	     168.281	      -5.016	       1.340	     -25.456	     -12.592	      -2.874	    -165.305
	62.000000000	      -1.353	     167.880	      -5.102	       0.743	     -25.409	     -11.248	      -2.843	    -165.511
	62.500000000	      -1.370	     167.692	      -5.170	      -0.099	     -25.359	     -10.926	      -2.855	    -165.587
	63.000000000	      -1.351	     167.285	      -5.262	      -0.801	     -25.462	     -10.988	      -2.784	    -165.832
	63.500000000	      -1.350	     167.061	      -5.328	      -1.488	     -25.468	      -9.902	      -2.740	    -166.129
	64.000000000	      -1.333	     167.218	      -5.440	      -2.250	     -25.436	      -9.956	      -2.672	    -166.400
	64.500000000	      -1.308	     167.081	      -5.526	      -3.001	     -25.565	     -11.034	      -2.636	    -166.372
	65.000000000	      -1.328	     166.672	      -5.655	      -3.804	     -25.643	     -13.668	      -2.576	    -166.781
	65.500000000	      -1.313	     166.140	      -5.753	      -4.613	     -25.512	     -11.017	      -2.549	    -167.504
	66.000000000	      -1.323	     165.832	      -5.871	      -5.467	     -25.381	     -11.733	      -2.519	    -167.935
	66.500000000	      -1.319	     165.683	      -5.998	      -6.287	     -25.629	      -9.967	      -2.511	    -167.988
	67.000000000	      -1.350	     165.189	      -6.093	      -6.906	     -25.568	     -11.516	      -2.479	    -168.152
	67.500000000	      -1.365	     164.704	      -6.264	      -7.682	     -25.602	     -11.251	      -2.475	    -168.623
	68.000000000	      -1.400	     164.553	      -6.375	      -8.398	     -25.600	     -11.529	      -2.500	    -168.954
	68.500000000	      -1.429	     164.356	      -6.475	      -8.833	     -25.622	     -11.593	      -2.461	    -169.142
	69.000000000	      -1.453	     164.172	      -6.613	      -9.476	     -25.656	     -12.258	      -2.397	    -169.417
	69.500000000	      -1.449	     163.953	      -6.741	      -9.865	     -25.789	     -12.303	      -2.386	    -169.613
	70.000000000	      -1.426	     163.808	      -6.845	     -10.369	     -25.878	     -11.696	      -2.359	    -169.756
	70.500000000	      -1.406	     163.615	      -6.948	     -10.762	     -25.827	     -11.513	      -2.326	    -169.953
	71.000000000	      -1.391	     163.389	      -7.035	     -11.205	     -25.841	     -11.518	      -2.295	    -170.122
	71.500000000	      -1.360	     163.137	      -7.151	     -11.673	     -25.804	     -11.489	      -2.236	    -170.390
	72.000000000	      -1.348	     162.910	      -7.257	     -12.213	     -25.804	     -12.214	      -2.238	    -170.630
	72.500000000	      -1.365	     162.537	      -7.348	     -12.895	     -25.863	     -12.765	      -2.219	    -170.967
	73.000000000	      -1.383	     162.366	      -7.456	     -13.412	     -25.934	     -13.304	      -2.180	    -171.186
	73.500000000	      -1.400	     162.247	      -7.570	     -13.975	     -26.106	     -13.488	      -2.109	    -171.492
	74.000000000	      -1.400	     161.997	      -7.674	     -14.446	     -26.185	     -13.202	      -2.104	    -172.033
	74.500000000	      -1.427	     161.761	      -7.765	     -14.911	     -26.213	     -12.903	      -2.125	    -172.260
	75.000000000	      -1.451	     161.683	      -7.865	     -15.474	     -26.267	     -12.992	      -2.100	    -172.399
	75.500000000	      -1.477	     161.650	      -7.986	     -16.063	     -26.420	     -13.511	      -2.097	    -172.668
	76.000000000	      -1.475	     161.657	      -8.108	     -16.661	     -26.695	     -13.434	      -2.100	    -172.837
	76.500000000	      -1.461	     161.703	      -8.260	     -17.000	     -27.089	     -11.657	      -2.097	    -172.893
	77.000000000	      -1.451	     161.676	      -8.396	     -17.090	     -27.256	      -7.891	      -2.065	    -172.817
	77.500000000	      -1.389	     161.619	      -8.468	     -16.818	     -26.949	      -3.691	      -1.994	    -172.886
	78.000000000	      -1.302	     161.505	      -8.493	     -16.759	     -26.418	      -1.874	      -1.944	    -172.970
	78.500000000	      -1.248	     160.989	      -8.503	     -17.191	     -25.958	      -2.089	      -1.911	    -173.321
	79.000000000	      -1.244	     160.439	      -8.541	     -17.756	     -25.618	      -2.906	      -1.856	    -173.695
	79.500000000	      -1.255	     159.927	      -8.564	     -18.443	     -25.316	      -4.030	      -1.822	    -173.992
