!File name = EG0520U_1010_6x60_2SDBCB2EV_1915934D06_RC7325_3Vd_54mA.s2p
!Base file name = EG0520U_1010_6x60_2SDBCB2EV_1915934D06_RC7325
!Date = 8/23/2019
!Time = 1:09 PM
!Test duration(min) = 0.15
!Test = S-Parameters
!MPTS version = 8.91.5
!State File = C:\Data\PNA\20190821205423\S-Parameters_2019-08-23.sta
!Cal File = 
!ComputerName = CMPE-LAB-6
!Comments = 
!Attenuation = 0
!Z0 = 50
!Input Power(dBm) = -13.00
!Device ID = EG0520U_1010_6x60_2SDBCB2EV
!Row = 73
!Column = 25
!Technology = QPHT09
!Lot/Wafer = 1915934D06
!Gate Size = 360
!Mask = EG0520
!Cal Standards = GaAs BCB
!Cal Kit = EG2306
!Job Number = 20190821205423
!Device Type = FET
!set_Vg(v) = -1.500
!set_Vd(v) = 3.000
!set_Vd(mA) = 54.000
!file_name = EG0520U_1010_6x60_2SDBCB2EV_1915934D06_RC7325_3Vd_54mA.s2p
!Vd(V) = 3.000
!Vd(mA) = 54.096
!Vg(V) = -0.456
!Vg(mA) = -0.001
# GHz   S   DB   R   50
!%	Freq(GHz)	     s11(dB)	    s11(deg)	     s21(dB)	    s21(deg)	     s12(dB)	    s12(deg)	     s22(dB)	    s22(deg)
	0.500000000	      -0.034	     -14.920	      22.481	     170.930	     -39.457	      81.433	     -10.078	     -17.542
	1.000000000	      -0.116	     -29.487	      22.022	     162.386	     -33.689	      73.604	      -9.999	     -33.337
	1.500000000	      -0.159	     -43.175	      21.654	     154.954	     -30.546	      66.170	      -9.768	     -48.133
	2.000000000	      -0.302	     -55.568	      21.385	     147.612	     -28.552	      59.355	      -9.560	     -62.202
	2.500000000	      -0.397	     -67.010	      20.936	     141.191	     -27.181	      53.521	      -9.490	     -73.317
	3.000000000	      -0.789	     -74.711	      20.244	     136.116	     -26.380	      49.208	      -9.817	     -77.976
	3.500000000	      -0.906	     -83.519	      19.672	     131.061	     -25.633	      44.816	      -9.721	     -86.178
	4.000000000	      -1.001	     -91.269	      19.098	     126.638	     -25.069	      40.933	      -9.627	     -93.240
	4.500000000	      -1.100	     -98.140	      18.531	     122.547	     -24.645	      37.486	      -9.540	     -99.574
	5.000000000	      -1.172	    -104.213	      17.968	     118.978	     -24.311	      34.505	      -9.481	    -104.854
	5.500000000	      -1.238	    -109.682	      17.429	     115.661	     -24.051	      31.868	      -9.436	    -109.459
	6.000000000	      -1.293	    -114.530	      16.898	     112.697	     -23.837	      29.503	      -9.369	    -113.393
	6.500000000	      -1.340	    -118.843	      16.389	     110.015	     -23.667	      27.422	      -9.312	    -116.833
	7.000000000	      -1.380	    -122.735	      15.900	     107.503	     -23.533	      25.520	      -9.255	    -119.831
	7.500000000	      -1.408	    -126.231	      15.427	     105.207	     -23.419	      23.856	      -9.201	    -122.513
	8.000000000	      -1.417	    -129.190	      14.992	     103.190	     -23.301	      22.433	      -9.188	    -124.248
	8.500000000	      -1.445	    -132.135	      14.553	     101.197	     -23.223	      20.977	      -9.145	    -126.374
	9.000000000	      -1.473	    -134.786	      14.127	      99.330	     -23.163	      19.615	      -9.097	    -128.227
	9.500000000	      -1.490	    -137.246	      13.728	      97.525	     -23.109	      18.329	      -9.048	    -129.868
	10.000000000	      -1.504	    -139.523	      13.340	      95.832	     -23.080	      17.146	      -9.002	    -131.467
	10.500000000	      -1.523	    -141.650	      12.966	      94.193	     -23.070	      16.134	      -8.959	    -132.832
	11.000000000	      -1.534	    -143.587	      12.606	      92.662	     -23.042	      15.224	      -8.915	    -134.052
	11.500000000	      -1.551	    -145.421	      12.255	      91.182	     -23.042	      14.283	      -8.870	    -135.122
	12.000000000	      -1.564	    -147.112	      11.919	      89.782	     -23.039	      13.490	      -8.817	    -136.073
	12.500000000	      -1.570	    -148.687	      11.593	      88.421	     -23.028	      12.716	      -8.760	    -137.078
	13.000000000	      -1.579	    -150.167	      11.277	      87.093	     -23.027	      11.992	      -8.709	    -137.963
	13.500000000	      -1.588	    -151.574	      10.971	      85.820	     -23.045	      11.268	      -8.652	    -138.663
	14.000000000	      -1.597	    -152.919	      10.674	      84.600	     -23.058	      10.655	      -8.597	    -139.320
	14.500000000	      -1.602	    -154.125	      10.386	      83.397	     -23.078	      10.072	      -8.547	    -140.055
	15.000000000	      -1.605	    -155.213	      10.105	      82.249	     -23.094	       9.619	      -8.500	    -140.680
	15.500000000	      -1.610	    -156.297	       9.833	      81.105	     -23.109	       9.106	      -8.446	    -141.197
	16.000000000	      -1.613	    -157.383	       9.569	      79.988	     -23.115	       8.538	      -8.382	    -141.680
	16.500000000	      -1.616	    -158.421	       9.310	      78.894	     -23.144	       8.008	      -8.325	    -142.156
	17.000000000	      -1.617	    -159.390	       9.062	      77.832	     -23.176	       7.596	      -8.273	    -142.617
	17.500000000	      -1.624	    -160.272	       8.813	      76.783	     -23.198	       7.189	      -8.214	    -143.070
	18.000000000	      -1.633	    -161.132	       8.576	      75.765	     -23.238	       6.727	      -8.155	    -143.534
	18.500000000	      -1.634	    -161.977	       8.343	      74.773	     -23.258	       6.290	      -8.089	    -143.881
	19.000000000	      -1.632	    -162.787	       8.115	      73.783	     -23.302	       5.858	      -8.030	    -144.228
	19.500000000	      -1.630	    -163.552	       7.894	      72.822	     -23.367	       5.554	      -7.979	    -144.579
	20.000000000	      -1.635	    -164.287	       7.677	      71.874	     -23.425	       5.431	      -7.934	    -144.888
	20.500000000	      -1.639	    -164.960	       7.470	      70.932	     -23.438	       5.329	      -7.869	    -145.156
	21.000000000	      -1.635	    -165.661	       7.264	      69.998	     -23.454	       5.143	      -7.801	    -145.447
	21.500000000	      -1.630	    -166.352	       7.060	      69.070	     -23.479	       4.834	      -7.736	    -145.690
	22.000000000	      -1.621	    -166.975	       6.862	      68.160	     -23.498	       4.462	      -7.671	    -145.899
	22.500000000	      -1.620	    -167.583	       6.663	      67.220	     -23.536	       4.062	      -7.615	    -146.273
	23.000000000	      -1.624	    -168.172	       6.467	      66.335	     -23.578	       3.695	      -7.552	    -146.664
	23.500000000	      -1.624	    -168.853	       6.274	      65.465	     -23.675	       3.263	      -7.496	    -147.080
	24.000000000	      -1.634	    -169.433	       6.088	      64.652	     -23.790	       3.418	      -7.456	    -147.256
	24.500000000	      -1.631	    -169.844	       5.913	      63.818	     -23.805	       3.629	      -7.399	    -147.312
	25.000000000	      -1.615	    -170.287	       5.739	      62.931	     -23.766	       3.451	      -7.332	    -147.429
	25.500000000	      -1.615	    -170.877	       5.560	      62.090	     -23.843	       3.298	      -7.258	    -147.675
	26.000000000	      -1.618	    -171.426	       5.385	      61.276	     -23.857	       3.035	      -7.177	    -148.029
	26.500000000	      -1.614	    -171.904	       5.217	      60.439	     -23.886	       2.677	      -7.109	    -148.281
	27.000000000	      -1.605	    -172.283	       5.049	      59.638	     -23.984	       2.261	      -7.053	    -148.528
	27.500000000	      -1.610	    -172.645	       4.887	      58.917	     -24.124	       2.710	      -7.016	    -148.640
	28.000000000	      -1.607	    -173.169	       4.734	      58.129	     -24.194	       2.933	      -6.956	    -148.864
	28.500000000	      -1.587	    -173.618	       4.588	      57.238	     -24.110	       3.498	      -6.866	    -149.035
	29.000000000	      -1.582	    -174.074	       4.425	      56.377	     -24.110	       2.987	      -6.795	    -149.372
	29.500000000	      -1.578	    -174.478	       4.266	      55.578	     -24.171	       2.560	      -6.734	    -149.635
	30.000000000	      -1.579	    -174.885	       4.110	      54.854	     -24.243	       2.524	      -6.683	    -149.811
	30.500000000	      -1.580	    -175.326	       3.961	      54.076	     -24.271	       2.277	      -6.628	    -150.076
	31.000000000	      -1.574	    -175.762	       3.811	      53.327	     -24.374	       2.305	      -6.577	    -150.299
	31.500000000	      -1.560	    -176.134	       3.680	      52.606	     -24.467	       2.840	      -6.521	    -150.537
	32.000000000	      -1.558	    -176.491	       3.537	      51.790	     -24.443	       3.389	      -6.455	    -150.695
	32.500000000	      -1.570	    -176.857	       3.394	      50.967	     -24.442	       3.016	      -6.381	    -150.873
	33.000000000	      -1.567	    -177.312	       3.250	      50.227	     -24.440	       2.655	      -6.328	    -151.126
	33.500000000	      -1.558	    -177.677	       3.106	      49.461	     -24.539	       2.815	      -6.270	    -151.424
	34.000000000	      -1.547	    -178.010	       2.964	      48.772	     -24.592	       2.758	      -6.209	    -151.770
	34.500000000	      -1.547	    -178.406	       2.819	      48.003	     -24.609	       2.444	      -6.135	    -151.965
	35.000000000	      -1.552	    -178.734	       2.681	      47.314	     -24.702	       2.474	      -6.079	    -152.315
	35.500000000	      -1.551	    -179.079	       2.561	      46.618	     -24.727	       3.034	      -6.036	    -152.453
	36.000000000	      -1.545	    -179.393	       2.435	      45.875	     -24.732	       3.006	      -5.971	    -152.628
	36.500000000	      -1.530	    -179.617	       2.310	      45.095	     -24.722	       2.714	      -5.899	    -152.886
	37.000000000	      -1.519	    -179.887	       2.182	      44.366	     -24.767	       2.863	      -5.844	    -153.130
	37.500000000	      -1.522	     179.757	       2.053	      43.643	     -24.871	       2.440	      -5.807	    -153.382
	38.000000000	      -1.515	     179.402	       1.922	      42.949	     -24.876	       2.233	      -5.739	    -153.594
	38.500000000	      -1.506	     179.036	       1.787	      42.271	     -24.973	       2.201	      -5.682	    -153.986
	39.000000000	      -1.497	     178.817	       1.671	      41.626	     -25.026	       2.968	      -5.621	    -154.289
	39.500000000	      -1.490	     178.572	       1.553	      40.953	     -25.133	       2.580	      -5.565	    -154.519
	40.000000000	      -1.479	     178.149	       1.445	      40.187	     -25.094	       2.952	      -5.499	    -154.793
	40.500000000	      -1.478	     177.700	       1.314	      39.448	     -25.124	       2.776	      -5.430	    -155.039
	41.000000000	      -1.467	     177.377	       1.194	      38.715	     -25.145	       2.772	      -5.389	    -155.428
	41.500000000	      -1.460	     177.183	       1.075	      38.073	     -25.258	       3.225	      -5.355	    -155.592
	42.000000000	      -1.467	     176.876	       0.955	      37.389	     -25.262	       3.147	      -5.286	    -155.689
	42.500000000	      -1.485	     176.511	       0.838	      36.780	     -25.397	       2.604	      -5.232	    -155.793
	43.000000000	      -1.477	     176.268	       0.740	      36.174	     -25.427	       3.608	      -5.171	    -156.033
	43.500000000	      -1.470	     176.040	       0.627	      35.391	     -25.447	       3.635	      -5.130	    -156.399
	44.000000000	      -1.472	     175.781	       0.509	      34.679	     -25.295	       3.606	      -5.064	    -156.774
	44.500000000	      -1.476	     175.350	       0.389	      34.006	     -25.444	       4.010	      -4.996	    -156.970
	45.000000000	      -1.491	     175.058	       0.271	      33.360	     -25.366	       3.854	      -4.949	    -157.354
	45.500000000	      -1.449	     174.659	       0.001	      32.849	     -25.645	       2.940	      -4.816	    -158.298
	46.000000000	      -1.428	     174.455	      -0.124	      32.254	     -25.765	       3.379	      -4.769	    -158.686
	46.500000000	      -1.414	     174.094	      -0.222	      31.641	     -25.899	       4.155	      -4.689	    -158.721
	47.000000000	      -1.413	     173.771	      -0.319	      30.949	     -25.972	       3.533	      -4.639	    -158.812
	47.500000000	      -1.413	     173.461	      -0.432	      30.238	     -25.930	       4.553	      -4.611	    -159.166
	48.000000000	      -1.395	     173.137	      -0.549	      29.620	     -25.871	       4.937	      -4.561	    -159.408
	48.500000000	      -1.397	     172.784	      -0.656	      28.985	     -25.905	       4.953	      -4.490	    -159.689
	49.000000000	      -1.402	     172.655	      -0.767	      28.443	     -25.934	       4.670	      -4.446	    -159.803
	49.500000000	      -1.415	     172.356	      -0.862	      27.794	     -26.079	       3.166	      -4.389	    -160.142
	50.000000000	      -1.404	     172.054	      -0.983	      27.217	     -26.016	       3.979	      -4.321	    -160.579
	50.500000000	      -1.387	     171.799	      -1.068	      26.597	     -26.243	       6.414	      -4.331	    -160.794
	51.000000000	      -1.372	     171.520	      -1.186	      25.993	     -26.162	       6.185	      -4.293	    -161.324
	51.500000000	      -1.371	     171.385	      -1.276	      25.418	     -26.118	       6.577	      -4.250	    -161.630
	52.000000000	      -1.354	     171.070	      -1.387	      24.717	     -26.060	       6.949	      -4.192	    -161.837
	52.500000000	      -1.355	     170.754	      -1.500	      24.122	     -26.130	       5.523	      -4.168	    -161.958
	53.000000000	      -1.354	     170.367	      -1.607	      23.600	     -26.138	       5.849	      -4.132	    -162.095
	53.500000000	      -1.346	     170.204	      -1.699	      23.029	     -26.135	       5.392	      -4.077	    -162.319
	54.000000000	      -1.337	     169.913	      -1.781	      22.527	     -26.204	       6.058	      -4.014	    -162.598
	54.500000000	      -1.344	     169.557	      -1.872	      21.955	     -26.392	       6.112	      -3.963	    -162.803
	55.000000000	      -1.350	     169.128	      -1.961	      21.301	     -26.205	       6.543	      -3.921	    -162.970
	55.500000000	      -1.344	     168.857	      -2.050	      20.675	     -26.132	       5.828	      -3.890	    -163.223
	56.000000000	      -1.334	     168.492	      -2.135	      20.081	     -26.168	       4.234	      -3.851	    -163.817
	56.500000000	      -1.331	     168.320	      -2.233	      19.438	     -26.228	       2.947	      -3.817	    -164.191
	57.000000000	      -1.333	     168.014	      -2.332	      18.840	     -26.374	       5.454	      -3.795	    -164.395
	57.500000000	      -1.334	     167.957	      -2.456	      18.242	     -26.467	       4.912	      -3.757	    -164.642
	58.000000000	      -1.320	     167.655	      -2.523	      17.600	     -26.434	       5.510	      -3.711	    -164.916
	58.500000000	      -1.297	     167.492	      -2.606	      17.086	     -26.379	       7.143	      -3.663	    -165.137
	59.000000000	      -1.287	     167.195	      -2.692	      16.365	     -26.353	       7.307	      -3.632	    -165.481
	59.500000000	      -1.298	     166.883	      -2.795	      15.660	     -26.149	       6.134	      -3.566	    -165.653
	60.000000000	      -1.302	     166.764	      -2.889	      14.999	     -26.501	       6.168	      -3.582	    -165.947
	60.500000000	      -1.269	     166.540	      -2.985	      14.432	     -26.634	       5.763	      -3.594	    -166.111
	61.000000000	      -1.238	     166.213	      -3.090	      13.875	     -26.590	       5.664	      -3.533	    -166.324
	61.500000000	      -1.238	     165.888	      -3.171	      13.322	     -26.438	       7.538	      -3.502	    -166.480
	62.000000000	      -1.219	     165.652	      -3.250	      12.777	     -26.803	       7.075	      -3.478	    -166.611
	62.500000000	      -1.224	     165.316	      -3.337	      12.297	     -26.924	       7.826	      -3.489	    -166.636
	63.000000000	      -1.213	     164.856	      -3.409	      11.522	     -26.557	       6.837	      -3.418	    -166.643
	63.500000000	      -1.203	     164.717	      -3.492	      10.753	     -26.896	       7.907	      -3.350	    -167.135
	64.000000000	      -1.207	     164.754	      -3.569	      10.055	     -26.364	       7.384	      -3.291	    -167.026
	64.500000000	      -1.185	     164.545	      -3.647	       9.315	     -26.479	       7.061	      -3.255	    -166.885
	65.000000000	      -1.202	     163.978	      -3.748	       8.521	     -26.612	       6.411	      -3.181	    -167.272
	65.500000000	      -1.189	     163.585	      -3.877	       7.710	     -26.366	       5.838	      -3.155	    -168.159
	66.000000000	      -1.180	     163.380	      -3.992	       6.938	     -26.736	       7.690	      -3.109	    -168.426
	66.500000000	      -1.213	     163.029	      -4.091	       6.067	     -26.483	       7.546	      -3.102	    -168.511
	67.000000000	      -1.250	     162.690	      -4.217	       5.659	     -26.812	       7.324	      -3.080	    -168.378
	67.500000000	      -1.238	     162.023	      -4.351	       4.763	     -26.466	       6.626	      -3.074	    -168.954
	68.000000000	      -1.278	     161.807	      -4.446	       4.073	     -26.414	       6.153	      -3.098	    -169.236
	68.500000000	      -1.314	     161.537	      -4.554	       3.623	     -26.449	       5.778	      -3.050	    -169.358
	69.000000000	      -1.342	     161.315	      -4.675	       3.082	     -26.505	       4.947	      -2.976	    -169.666
	69.500000000	      -1.342	     161.104	      -4.806	       2.584	     -26.607	       4.825	      -2.966	    -169.875
	70.000000000	      -1.328	     160.896	      -4.903	       2.095	     -26.644	       5.073	      -2.938	    -169.942
	70.500000000	      -1.312	     160.694	      -5.006	       1.584	     -26.577	       5.374	      -2.902	    -170.079
	71.000000000	      -1.304	     160.533	      -5.107	       1.120	     -26.551	       4.647	      -2.871	    -170.306
	71.500000000	      -1.271	     160.390	      -5.235	       0.678	     -26.539	       4.247	      -2.800	    -170.532
	72.000000000	      -1.258	     160.063	      -5.337	       0.084	     -26.557	       3.147	      -2.805	    -170.780
	72.500000000	      -1.285	     159.594	      -5.452	      -0.607	     -26.669	       2.176	      -2.771	    -171.047
	73.000000000	      -1.318	     159.390	      -5.554	      -1.107	     -26.828	       1.265	      -2.734	    -171.262
	73.500000000	      -1.344	     159.255	      -5.674	      -1.639	     -27.094	       1.249	      -2.669	    -171.544
	74.000000000	      -1.358	     158.975	      -5.785	      -2.057	     -27.257	       1.973	      -2.669	    -172.114
	74.500000000	      -1.388	     158.751	      -5.877	      -2.428	     -27.348	       2.777	      -2.687	    -172.314
	75.000000000	      -1.421	     158.678	      -5.980	      -2.976	     -27.448	       3.094	      -2.672	    -172.388
	75.500000000	      -1.446	     158.638	      -6.107	      -3.468	     -27.698	       3.703	      -2.670	    -172.554
	76.000000000	      -1.467	     158.765	      -6.227	      -3.793	     -27.982	       5.877	      -2.674	    -172.619
	76.500000000	      -1.458	     158.891	      -6.346	      -3.921	     -28.078	      10.298	      -2.666	    -172.494
	77.000000000	      -1.428	     158.887	      -6.415	      -4.055	     -27.577	      14.510	      -2.601	    -172.340
	77.500000000	      -1.356	     158.795	      -6.453	      -4.093	     -26.844	      15.991	      -2.516	    -172.448
	78.000000000	      -1.258	     158.553	      -6.461	      -4.396	     -26.192	      15.005	      -2.466	    -172.505
	78.500000000	      -1.222	     157.990	      -6.492	      -5.206	     -25.771	      12.874	      -2.420	    -172.847
	79.000000000	      -1.263	     157.335	      -6.563	      -6.109	     -25.524	      10.143	      -2.361	    -173.142
	79.500000000	      -1.284	     156.773	      -6.636	      -6.947	     -25.347	       7.849	      -2.304	    -173.407
