!File name = EG0520U_1010_6x60_2SDBCB2EV_1915934D06_RC2952_4Vd_27mA.s2p
!Base file name = EG0520U_1010_6x60_2SDBCB2EV_1915934D06_RC2952
!Date = 8/23/2019
!Time = 1:17 PM
!Test duration(min) = 0.15
!Test = S-Parameters
!MPTS version = 8.91.5
!State File = C:\Data\PNA\20190821205423\S-Parameters_2019-08-23.sta
!Cal File = 
!ComputerName = CMPE-LAB-6
!Comments = 
!Attenuation = 0
!Z0 = 50
!Input Power(dBm) = -13.00
!Device ID = EG0520U_1010_6x60_2SDBCB2EV
!Row = 29
!Column = 52
!Technology = QPHT09
!Lot/Wafer = 1915934D06
!Gate Size = 360
!Mask = EG0520
!Cal Standards = GaAs BCB
!Cal Kit = EG2306
!Job Number = 20190821205423
!Device Type = FET
!set_Vg(v) = -1.500
!set_Vd(v) = 4.000
!set_Vd(mA) = 27.000
!file_name = EG0520U_1010_6x60_2SDBCB2EV_1915934D06_RC2952_4Vd_27mA.s2p
!Vd(V) = 4.000
!Vd(mA) = 27.053
!Vg(V) = -0.579
!Vg(mA) = -0.006
# GHz   S   DB   R   50
!%	Freq(GHz)	     s11(dB)	    s11(deg)	     s21(dB)	    s21(deg)	     s12(dB)	    s12(deg)	     s22(dB)	    s22(deg)
	0.500000000	      -0.085	     -13.923	      21.116	     171.385	     -38.461	      80.495	      -7.437	     -12.969
	1.000000000	      -0.173	     -27.554	      20.746	     163.110	     -32.666	      73.718	      -7.529	     -24.918
	1.500000000	      -0.211	     -40.504	      20.417	     155.989	     -29.478	      66.720	      -7.590	     -36.564
	2.000000000	      -0.352	     -52.298	      20.156	     148.700	     -27.434	      60.081	      -7.720	     -48.060
	2.500000000	      -0.450	     -63.417	      19.736	     142.335	     -26.023	      54.400	      -7.946	     -57.549
	3.000000000	      -0.835	     -70.898	      19.065	     137.065	     -25.195	      50.030	      -8.352	     -61.422
	3.500000000	      -0.952	     -79.670	      18.548	     131.970	     -24.409	      45.600	      -8.518	     -68.858
	4.000000000	      -1.056	     -87.427	      18.011	     127.414	     -23.808	      41.665	      -8.668	     -75.523
	4.500000000	      -1.171	     -94.317	      17.467	     123.154	     -23.357	      38.058	      -8.806	     -81.707
	5.000000000	      -1.247	    -100.528	      16.935	     119.433	     -23.000	      34.928	      -8.937	     -87.015
	5.500000000	      -1.323	    -106.113	      16.418	     115.953	     -22.719	      32.193	      -9.064	     -91.756
	6.000000000	      -1.389	    -111.156	      15.910	     112.794	     -22.484	      29.689	      -9.137	     -95.949
	6.500000000	      -1.440	    -115.632	      15.418	     109.933	     -22.305	      27.412	      -9.203	     -99.711
	7.000000000	      -1.489	    -119.694	      14.943	     107.236	     -22.153	      25.376	      -9.251	    -103.040
	7.500000000	      -1.524	    -123.382	      14.481	     104.749	     -22.032	      23.525	      -9.285	    -106.108
	8.000000000	      -1.540	    -126.482	      14.054	     102.570	     -21.913	      22.010	      -9.324	    -108.122
	8.500000000	      -1.573	    -129.596	      13.625	     100.401	     -21.828	      20.404	      -9.345	    -110.597
	9.000000000	      -1.605	    -132.389	      13.204	      98.358	     -21.756	      18.900	      -9.349	    -112.792
	9.500000000	      -1.628	    -135.015	      12.811	      96.372	     -21.700	      17.465	      -9.344	    -114.794
	10.000000000	      -1.645	    -137.444	      12.426	      94.512	     -21.670	      16.125	      -9.341	    -116.682
	10.500000000	      -1.670	    -139.703	      12.054	      92.702	     -21.652	      15.004	      -9.333	    -118.373
	11.000000000	      -1.684	    -141.761	      11.697	      91.033	     -21.623	      13.945	      -9.307	    -119.858
	11.500000000	      -1.702	    -143.709	      11.348	      89.396	     -21.608	      12.884	      -9.280	    -121.221
	12.000000000	      -1.715	    -145.526	      11.017	      87.845	     -21.602	      11.931	      -9.239	    -122.462
	12.500000000	      -1.721	    -147.238	      10.693	      86.333	     -21.597	      11.018	      -9.189	    -123.764
	13.000000000	      -1.731	    -148.826	      10.379	      84.852	     -21.598	      10.135	      -9.143	    -124.923
	13.500000000	      -1.740	    -150.360	      10.074	      83.437	     -21.613	       9.252	      -9.090	    -125.897
	14.000000000	      -1.753	    -151.806	       9.776	      82.065	     -21.637	       8.529	      -9.038	    -126.858
	14.500000000	      -1.756	    -153.117	       9.488	      80.726	     -21.657	       7.825	      -8.985	    -127.777
	15.000000000	      -1.759	    -154.297	       9.207	      79.438	     -21.679	       7.231	      -8.936	    -128.618
	15.500000000	      -1.766	    -155.466	       8.934	      78.161	     -21.687	       6.661	      -8.873	    -129.334
	16.000000000	      -1.769	    -156.629	       8.669	      76.910	     -21.690	       6.004	      -8.799	    -130.042
	16.500000000	      -1.770	    -157.761	       8.410	      75.679	     -21.713	       5.306	      -8.731	    -130.727
	17.000000000	      -1.769	    -158.821	       8.161	      74.483	     -21.753	       4.717	      -8.668	    -131.341
	17.500000000	      -1.776	    -159.778	       7.911	      73.304	     -21.772	       4.170	      -8.594	    -132.069
	18.000000000	      -1.783	    -160.722	       7.674	      72.150	     -21.821	       3.585	      -8.523	    -132.748
	18.500000000	      -1.784	    -161.652	       7.439	      71.023	     -21.843	       3.050	      -8.443	    -133.302
	19.000000000	      -1.782	    -162.546	       7.208	      69.895	     -21.894	       2.509	      -8.371	    -133.849
	19.500000000	      -1.780	    -163.389	       6.984	      68.809	     -21.958	       2.081	      -8.306	    -134.372
	20.000000000	      -1.785	    -164.167	       6.766	      67.744	     -22.008	       1.900	      -8.241	    -134.848
	20.500000000	      -1.786	    -164.917	       6.557	      66.675	     -22.024	       1.695	      -8.155	    -135.306
	21.000000000	      -1.785	    -165.692	       6.346	      65.613	     -22.035	       1.195	      -8.068	    -135.831
	21.500000000	      -1.777	    -166.434	       6.140	      64.562	     -22.075	       0.746	      -7.985	    -136.277
	22.000000000	      -1.774	    -167.051	       5.937	      63.547	     -22.126	       0.254	      -7.910	    -136.729
	22.500000000	      -1.767	    -167.719	       5.738	      62.494	     -22.162	      -0.217	      -7.838	    -137.218
	23.000000000	      -1.765	    -168.414	       5.540	      61.482	     -22.210	      -0.678	      -7.758	    -137.786
	23.500000000	      -1.768	    -169.088	       5.343	      60.514	     -22.316	      -1.139	      -7.683	    -138.347
	24.000000000	      -1.770	    -169.721	       5.157	      59.568	     -22.402	      -1.174	      -7.617	    -138.729
	24.500000000	      -1.761	    -170.239	       4.977	      58.600	     -22.431	      -1.216	      -7.542	    -138.991
	25.000000000	      -1.744	    -170.679	       4.799	      57.598	     -22.451	      -1.467	      -7.459	    -139.306
	25.500000000	      -1.739	    -171.287	       4.618	      56.633	     -22.489	      -1.669	      -7.373	    -139.745
	26.000000000	      -1.741	    -171.989	       4.436	      55.691	     -22.522	      -2.067	      -7.275	    -140.272
	26.500000000	      -1.740	    -172.518	       4.259	      54.752	     -22.578	      -2.453	      -7.191	    -140.700
	27.000000000	      -1.731	    -172.931	       4.086	      53.834	     -22.647	      -2.962	      -7.120	    -141.102
	27.500000000	      -1.739	    -173.360	       3.916	      53.004	     -22.790	      -2.982	      -7.069	    -141.309
	28.000000000	      -1.742	    -173.873	       3.756	      52.146	     -22.872	      -2.760	      -6.989	    -141.743
	28.500000000	      -1.725	    -174.320	       3.606	      51.194	     -22.881	      -2.436	      -6.889	    -142.179
	29.000000000	      -1.712	    -174.772	       3.440	      50.243	     -22.899	      -2.948	      -6.814	    -142.590
	29.500000000	      -1.701	    -175.162	       3.282	      49.343	     -22.920	      -3.191	      -6.732	    -142.980
	30.000000000	      -1.699	    -175.639	       3.124	      48.512	     -23.001	      -3.405	      -6.663	    -143.309
	30.500000000	      -1.698	    -176.112	       2.971	      47.617	     -23.031	      -3.690	      -6.593	    -143.726
	31.000000000	      -1.687	    -176.585	       2.814	      46.773	     -23.109	      -3.860	      -6.528	    -144.128
	31.500000000	      -1.672	    -176.988	       2.674	      45.914	     -23.272	      -3.424	      -6.460	    -144.498
	32.000000000	      -1.672	    -177.315	       2.528	      45.065	     -23.246	      -3.409	      -6.383	    -144.788
	32.500000000	      -1.680	    -177.794	       2.379	      44.164	     -23.246	      -3.457	      -6.293	    -145.085
	33.000000000	      -1.679	    -178.225	       2.231	      43.322	     -23.267	      -3.584	      -6.223	    -145.495
	33.500000000	      -1.664	    -178.600	       2.081	      42.499	     -23.336	      -3.805	      -6.151	    -145.947
	34.000000000	      -1.653	    -178.913	       1.936	      41.693	     -23.362	      -4.118	      -6.079	    -146.458
	34.500000000	      -1.650	    -179.285	       1.786	      40.813	     -23.468	      -4.724	      -5.995	    -146.808
	35.000000000	      -1.648	    -179.649	       1.641	      40.032	     -23.589	      -4.555	      -5.924	    -147.315
	35.500000000	      -1.640	     179.987	       1.521	      39.252	     -23.647	      -4.284	      -5.873	    -147.558
	36.000000000	      -1.624	     179.622	       1.393	      38.341	     -23.645	      -4.075	      -5.789	    -147.941
	36.500000000	      -1.608	     179.328	       1.252	      37.497	     -23.659	      -4.225	      -5.715	    -148.325
	37.000000000	      -1.602	     179.037	       1.112	      36.708	     -23.683	      -4.367	      -5.649	    -148.714
	37.500000000	      -1.611	     178.630	       0.971	      35.925	     -23.752	      -4.997	      -5.594	    -149.101
	38.000000000	      -1.612	     178.263	       0.828	      35.155	     -23.834	      -5.061	      -5.537	    -149.375
	38.500000000	      -1.602	     177.977	       0.690	      34.455	     -23.999	      -5.455	      -5.470	    -149.899
	39.000000000	      -1.593	     177.774	       0.570	      33.779	     -24.060	      -4.772	      -5.397	    -150.234
	39.500000000	      -1.591	     177.567	       0.451	      33.050	     -24.160	      -4.696	      -5.320	    -150.649
	40.000000000	      -1.579	     177.113	       0.339	      32.230	     -24.128	      -4.365	      -5.237	    -151.001
	40.500000000	      -1.575	     176.736	       0.209	      31.419	     -24.177	      -4.365	      -5.176	    -151.396
	41.000000000	      -1.551	     176.438	       0.090	      30.614	     -24.187	      -4.879	      -5.113	    -151.854
	41.500000000	      -1.541	     176.252	      -0.036	      29.875	     -24.303	      -4.700	      -5.067	    -152.175
	42.000000000	      -1.541	     175.942	      -0.154	      29.082	     -24.300	      -4.843	      -4.999	    -152.409
	42.500000000	      -1.557	     175.569	      -0.286	      28.359	     -24.451	      -4.809	      -4.935	    -152.576
	43.000000000	      -1.547	     175.302	      -0.395	      27.717	     -24.589	      -4.394	      -4.870	    -152.882
	43.500000000	      -1.531	     175.127	      -0.511	      26.877	     -24.528	      -4.643	      -4.815	    -153.399
	44.000000000	      -1.532	     174.780	      -0.640	      26.098	     -24.545	      -3.799	      -4.740	    -153.892
	44.500000000	      -1.550	     174.377	      -0.772	      25.333	     -24.534	      -3.934	      -4.675	    -154.311
	45.000000000	      -1.559	     174.046	      -0.896	      24.640	     -24.638	      -4.299	      -4.616	    -154.667
	45.500000000	      -1.512	     173.748	      -1.180	      24.056	     -24.792	      -4.930	      -4.485	    -155.814
	46.000000000	      -1.491	     173.555	      -1.308	      23.423	     -24.967	      -4.883	      -4.445	    -156.217
	46.500000000	      -1.472	     173.229	      -1.411	      22.797	     -25.196	      -4.222	      -4.362	    -156.345
	47.000000000	      -1.474	     172.873	      -1.519	      22.109	     -25.142	      -3.487	      -4.303	    -156.704
	47.500000000	      -1.467	     172.579	      -1.632	      21.366	     -25.203	      -3.333	      -4.265	    -156.983
	48.000000000	      -1.444	     172.356	      -1.758	      20.700	     -25.123	      -2.953	      -4.214	    -157.276
	48.500000000	      -1.448	     172.024	      -1.877	      20.089	     -25.202	      -3.309	      -4.163	    -157.614
	49.000000000	      -1.459	     171.844	      -1.977	      19.411	     -25.135	      -3.801	      -4.104	    -157.939
	49.500000000	      -1.471	     171.599	      -2.101	      18.822	     -25.282	      -3.411	      -4.032	    -158.167
	50.000000000	      -1.451	     171.330	      -2.189	      18.319	     -25.483	      -2.579	      -3.987	    -158.564
	50.500000000	      -1.438	     171.113	      -2.278	      17.483	     -25.623	      -1.614	      -3.935	    -158.971
	51.000000000	      -1.433	     170.806	      -2.391	      16.850	     -25.479	      -1.680	      -3.915	    -159.474
	51.500000000	      -1.428	     170.608	      -2.495	      16.171	     -25.235	      -1.353	      -3.853	    -159.769
	52.000000000	      -1.408	     170.414	      -2.598	      15.320	     -25.395	      -1.937	      -3.797	    -160.082
	52.500000000	      -1.400	     170.058	      -2.720	      14.648	     -25.518	      -2.039	      -3.741	    -160.288
	53.000000000	      -1.397	     169.716	      -2.836	      13.966	     -25.430	      -2.414	      -3.682	    -160.495
	53.500000000	      -1.387	     169.597	      -2.949	      13.407	     -25.640	      -2.786	      -3.620	    -160.896
	54.000000000	      -1.380	     169.347	      -3.050	      12.924	     -25.517	      -2.087	      -3.569	    -161.313
	54.500000000	      -1.384	     168.972	      -3.139	      12.258	     -25.593	      -1.408	      -3.524	    -161.607
	55.000000000	      -1.389	     168.614	      -3.246	      11.540	     -25.617	      -1.242	      -3.481	    -161.827
	55.500000000	      -1.388	     168.314	      -3.335	      10.876	     -25.538	      -1.878	      -3.430	    -162.243
	56.000000000	      -1.360	     168.015	      -3.436	      10.284	     -25.713	      -2.174	      -3.392	    -162.859
	56.500000000	      -1.380	     167.844	      -3.550	       9.730	     -25.766	      -3.079	      -3.372	    -163.443
	57.000000000	      -1.378	     167.661	      -3.640	       8.931	     -25.836	      -2.079	      -3.359	    -163.435
	57.500000000	      -1.384	     167.504	      -3.773	       8.344	     -26.022	      -3.174	      -3.321	    -163.838
	58.000000000	      -1.347	     167.429	      -3.874	       7.766	     -26.099	      -3.310	      -3.266	    -164.181
	58.500000000	      -1.333	     167.175	      -3.973	       7.325	     -26.126	      -1.927	      -3.225	    -164.481
	59.000000000	      -1.341	     166.914	      -4.069	       6.526	     -26.025	      -2.227	      -3.178	    -164.759
	59.500000000	      -1.325	     166.746	      -4.160	       5.821	     -26.321	      -1.798	      -3.109	    -165.051
	60.000000000	      -1.329	     166.734	      -4.254	       5.440	     -26.082	      -1.889	      -3.151	    -165.493
	60.500000000	      -1.289	     166.388	      -4.348	       4.858	     -26.316	      -0.761	      -3.128	    -165.644
	61.000000000	      -1.256	     166.150	      -4.462	       4.355	     -26.210	       0.018	      -3.100	    -166.000
	61.500000000	      -1.245	     165.904	      -4.562	       3.963	     -26.454	      -1.447	      -3.057	    -166.159
	62.000000000	      -1.234	     165.499	      -4.612	       3.121	     -26.473	       1.521	      -3.037	    -166.171
	62.500000000	      -1.255	     165.330	      -4.694	       2.556	     -26.376	       0.278	      -3.024	    -166.240
	63.000000000	      -1.222	     164.935	      -4.764	       1.933	     -26.265	       0.816	      -2.962	    -166.578
	63.500000000	      -1.216	     164.703	      -4.848	       1.154	     -26.494	       2.864	      -2.882	    -166.934
	64.000000000	      -1.202	     164.901	      -4.910	       0.152	     -26.159	       1.128	      -2.830	    -166.698
	64.500000000	      -1.195	     164.729	      -4.997	      -0.405	     -26.253	       2.668	      -2.775	    -166.775
	65.000000000	      -1.210	     164.363	      -5.084	      -1.427	     -26.056	       1.359	      -2.727	    -167.020
	65.500000000	      -1.211	     163.759	      -5.193	      -2.034	     -26.225	       2.822	      -2.676	    -168.104
	66.000000000	      -1.206	     163.628	      -5.349	      -3.009	     -26.273	       2.018	      -2.667	    -168.403
	66.500000000	      -1.231	     163.441	      -5.452	      -3.875	     -26.295	       1.764	      -2.629	    -168.398
	67.000000000	      -1.283	     162.951	      -5.555	      -4.547	     -25.821	       3.752	      -2.640	    -168.409
	67.500000000	      -1.265	     162.315	      -5.734	      -5.405	     -26.152	       1.389	      -2.623	    -169.011
	68.000000000	      -1.315	     162.136	      -5.843	      -6.016	     -26.170	       1.230	      -2.660	    -169.369
	68.500000000	      -1.358	     161.902	      -5.946	      -6.540	     -26.158	       0.569	      -2.619	    -169.572
	69.000000000	      -1.389	     161.749	      -6.084	      -7.100	     -26.163	       0.214	      -2.545	    -169.857
	69.500000000	      -1.382	     161.598	      -6.203	      -7.570	     -26.293	      -0.094	      -2.527	    -170.052
	70.000000000	      -1.359	     161.462	      -6.305	      -8.056	     -26.386	       0.401	      -2.505	    -170.153
	70.500000000	      -1.341	     161.298	      -6.410	      -8.476	     -26.299	       0.834	      -2.462	    -170.293
	71.000000000	      -1.324	     161.164	      -6.488	      -8.897	     -26.336	       0.432	      -2.408	    -170.501
	71.500000000	      -1.266	     161.042	      -6.603	      -9.468	     -26.317	       0.022	      -2.348	    -170.812
	72.000000000	      -1.265	     160.781	      -6.736	     -10.001	     -26.320	      -0.578	      -2.364	    -171.064
	72.500000000	      -1.295	     160.285	      -6.830	     -10.632	     -26.367	      -1.315	      -2.340	    -171.386
	73.000000000	      -1.327	     160.109	      -6.945	     -11.194	     -26.498	      -1.767	      -2.298	    -171.603
	73.500000000	      -1.354	     160.043	      -7.066	     -11.712	     -26.683	      -1.935	      -2.236	    -171.934
	74.000000000	      -1.360	     159.756	      -7.177	     -12.117	     -26.794	      -1.237	      -2.232	    -172.509
	74.500000000	      -1.397	     159.499	      -7.274	     -12.478	     -26.894	      -0.403	      -2.253	    -172.789
	75.000000000	      -1.439	     159.426	      -7.377	     -13.027	     -27.006	      -0.204	      -2.244	    -172.896
	75.500000000	      -1.480	     159.478	      -7.506	     -13.521	     -27.202	       0.338	      -2.243	    -173.012
	76.000000000	      -1.492	     159.611	      -7.632	     -13.881	     -27.481	       2.411	      -2.236	    -173.143
	76.500000000	      -1.472	     159.860	      -7.755	     -13.925	     -27.569	       6.660	      -2.224	    -173.079
	77.000000000	      -1.438	     159.837	      -7.825	     -13.939	     -27.163	      10.498	      -2.168	    -173.084
	77.500000000	      -1.370	     159.728	      -7.851	     -13.920	     -26.458	      12.220	      -2.084	    -173.224
	78.000000000	      -1.279	     159.467	      -7.846	     -14.227	     -25.826	      11.564	      -2.036	    -173.354
	78.500000000	      -1.244	     158.955	      -7.865	     -15.039	     -25.389	       9.456	      -2.012	    -173.688
	79.000000000	      -1.274	     158.347	      -7.931	     -15.918	     -25.174	       7.123	      -1.955	    -174.050
	79.500000000	      -1.291	     157.866	      -7.988	     -16.750	     -25.003	       4.779	      -1.910	    -174.349
