!File name = EG0520U_1010_6x60_2SDBCB2EV_1915934D06_RC7325_4Vd_54mA.s2p
!Base file name = EG0520U_1010_6x60_2SDBCB2EV_1915934D06_RC7325
!Date = 8/23/2019
!Time = 1:11 PM
!Test duration(min) = 0.15
!Test = S-Parameters
!MPTS version = 8.91.5
!State File = C:\Data\PNA\20190821205423\S-Parameters_2019-08-23.sta
!Cal File = 
!ComputerName = CMPE-LAB-6
!Comments = 
!Attenuation = 0
!Z0 = 50
!Input Power(dBm) = -13.00
!Device ID = EG0520U_1010_6x60_2SDBCB2EV
!Row = 73
!Column = 25
!Technology = QPHT09
!Lot/Wafer = 1915934D06
!Gate Size = 360
!Mask = EG0520
!Cal Standards = GaAs BCB
!Cal Kit = EG2306
!Job Number = 20190821205423
!Device Type = FET
!set_Vg(v) = -1.500
!set_Vd(v) = 4.000
!set_Vd(mA) = 54.000
!file_name = EG0520U_1010_6x60_2SDBCB2EV_1915934D06_RC7325_4Vd_54mA.s2p
!Vd(V) = 4.000
!Vd(mA) = 54.133
!Vg(V) = -0.481
!Vg(mA) = -0.003
# GHz   S   DB   R   50
!%	Freq(GHz)	     s11(dB)	    s11(deg)	     s21(dB)	    s21(deg)	     s12(dB)	    s12(deg)	     s22(dB)	    s22(deg)
	0.500000000	      -0.058	     -15.071	      22.515	     170.759	     -39.553	      81.044	      -8.713	     -15.188
	1.000000000	      -0.143	     -29.758	      22.040	     162.228	     -33.785	      73.346	      -8.773	     -28.817
	1.500000000	      -0.185	     -43.556	      21.659	     154.603	     -30.650	      65.908	      -8.758	     -41.926
	2.000000000	      -0.324	     -55.966	      21.399	     147.290	     -28.655	      59.105	      -8.799	     -54.675
	2.500000000	      -0.421	     -67.455	      20.932	     140.806	     -27.291	      53.265	      -8.936	     -64.970
	3.000000000	      -0.808	     -75.146	      20.237	     135.636	     -26.499	      48.888	      -9.339	     -69.077
	3.500000000	      -0.923	     -83.955	      19.654	     130.561	     -25.756	      44.494	      -9.423	     -76.899
	4.000000000	      -1.016	     -91.701	      19.077	     126.074	     -25.196	      40.607	      -9.490	     -83.771
	4.500000000	      -1.113	     -98.557	      18.507	     121.973	     -24.776	      37.167	      -9.547	     -90.009
	5.000000000	      -1.184	    -104.629	      17.939	     118.348	     -24.447	      34.162	      -9.602	     -95.261
	5.500000000	      -1.249	    -110.067	      17.399	     115.005	     -24.188	      31.532	      -9.655	     -99.900
	6.000000000	      -1.303	    -114.902	      16.863	     112.014	     -23.982	      29.162	      -9.668	    -103.914
	6.500000000	      -1.348	    -119.192	      16.352	     109.286	     -23.814	      27.061	      -9.677	    -107.448
	7.000000000	      -1.387	    -123.067	      15.862	     106.747	     -23.679	      25.179	      -9.676	    -110.541
	7.500000000	      -1.414	    -126.551	      15.386	     104.411	     -23.567	      23.506	      -9.664	    -113.331
	8.000000000	      -1.422	    -129.487	      14.950	     102.367	     -23.452	      22.086	      -9.676	    -115.093
	8.500000000	      -1.449	    -132.422	      14.510	     100.335	     -23.377	      20.612	      -9.662	    -117.310
	9.000000000	      -1.476	    -135.053	      14.081	      98.436	     -23.314	      19.259	      -9.636	    -119.248
	9.500000000	      -1.493	    -137.502	      13.681	      96.595	     -23.267	      17.973	      -9.605	    -120.985
	10.000000000	      -1.505	    -139.769	      13.292	      94.861	     -23.241	      16.771	      -9.573	    -122.661
	10.500000000	      -1.524	    -141.879	      12.916	      93.186	     -23.227	      15.752	      -9.540	    -124.101
	11.000000000	      -1.534	    -143.801	      12.555	      91.624	     -23.204	      14.775	      -9.505	    -125.335
	11.500000000	      -1.551	    -145.629	      12.202	      90.100	     -23.203	      13.894	      -9.461	    -126.515
	12.000000000	      -1.564	    -147.314	      11.866	      88.657	     -23.202	      13.092	      -9.406	    -127.530
	12.500000000	      -1.569	    -148.876	      11.538	      87.257	     -23.197	      12.282	      -9.347	    -128.613
	13.000000000	      -1.577	    -150.343	      11.221	      85.880	     -23.203	      11.570	      -9.294	    -129.536
	13.500000000	      -1.587	    -151.750	      10.914	      84.578	     -23.215	      10.805	      -9.233	    -130.294
	14.000000000	      -1.597	    -153.076	      10.616	      83.323	     -23.236	      10.202	      -9.168	    -131.006
	14.500000000	      -1.598	    -154.279	      10.327	      82.079	     -23.255	       9.610	      -9.112	    -131.790
	15.000000000	      -1.603	    -155.360	      10.044	      80.886	     -23.278	       9.119	      -9.057	    -132.458
	15.500000000	      -1.607	    -156.436	       9.772	      79.705	     -23.292	       8.646	      -8.992	    -133.012
	16.000000000	      -1.610	    -157.512	       9.506	      78.553	     -23.302	       8.077	      -8.917	    -133.548
	16.500000000	      -1.613	    -158.545	       9.246	      77.419	     -23.335	       7.534	      -8.849	    -134.068
	17.000000000	      -1.613	    -159.510	       8.996	      76.315	     -23.375	       7.051	      -8.787	    -134.526
	17.500000000	      -1.620	    -160.382	       8.746	      75.231	     -23.393	       6.669	      -8.714	    -135.070
	18.000000000	      -1.629	    -161.236	       8.508	      74.175	     -23.440	       6.194	      -8.643	    -135.581
	18.500000000	      -1.629	    -162.077	       8.274	      73.140	     -23.455	       5.747	      -8.563	    -135.980
	19.000000000	      -1.627	    -162.887	       8.044	      72.112	     -23.515	       5.289	      -8.490	    -136.369
	19.500000000	      -1.624	    -163.649	       7.822	      71.114	     -23.581	       4.991	      -8.427	    -136.756
	20.000000000	      -1.630	    -164.372	       7.604	      70.128	     -23.644	       4.848	      -8.366	    -137.101
	20.500000000	      -1.632	    -165.048	       7.395	      69.144	     -23.671	       4.801	      -8.287	    -137.406
	21.000000000	      -1.631	    -165.708	       7.187	      68.176	     -23.684	       4.595	      -8.203	    -137.755
	21.500000000	      -1.622	    -166.427	       6.982	      67.205	     -23.716	       4.276	      -8.123	    -138.053
	22.000000000	      -1.613	    -167.050	       6.783	      66.253	     -23.745	       3.864	      -8.044	    -138.371
	22.500000000	      -1.613	    -167.643	       6.582	      65.289	     -23.767	       3.536	      -7.976	    -138.721
	23.000000000	      -1.615	    -168.230	       6.385	      64.354	     -23.816	       3.124	      -7.900	    -139.183
	23.500000000	      -1.616	    -168.910	       6.190	      63.449	     -23.930	       2.673	      -7.831	    -139.647
	24.000000000	      -1.625	    -169.489	       6.002	      62.604	     -24.054	       2.745	      -7.777	    -139.859
	24.500000000	      -1.619	    -169.896	       5.825	      61.722	     -24.084	       2.978	      -7.703	    -139.922
	25.000000000	      -1.605	    -170.334	       5.649	      60.804	     -24.034	       2.946	      -7.618	    -140.133
	25.500000000	      -1.608	    -170.933	       5.468	      59.930	     -24.099	       2.763	      -7.532	    -140.455
	26.000000000	      -1.607	    -171.468	       5.293	      59.077	     -24.155	       2.262	      -7.438	    -140.862
	26.500000000	      -1.599	    -171.922	       5.123	      58.201	     -24.187	       2.077	      -7.356	    -141.185
	27.000000000	      -1.593	    -172.327	       4.954	      57.359	     -24.276	       1.817	      -7.290	    -141.483
	27.500000000	      -1.599	    -172.687	       4.789	      56.612	     -24.445	       2.083	      -7.240	    -141.546
	28.000000000	      -1.594	    -173.209	       4.635	      55.784	     -24.493	       2.450	      -7.162	    -141.887
	28.500000000	      -1.574	    -173.664	       4.488	      54.860	     -24.459	       2.858	      -7.064	    -142.179
	29.000000000	      -1.569	    -174.116	       4.322	      53.953	     -24.451	       2.542	      -6.980	    -142.556
	29.500000000	      -1.564	    -174.541	       4.161	      53.117	     -24.496	       2.262	      -6.910	    -142.878
	30.000000000	      -1.565	    -174.921	       4.006	      52.363	     -24.566	       1.865	      -6.850	    -143.134
	30.500000000	      -1.567	    -175.370	       3.854	      51.532	     -24.598	       1.803	      -6.785	    -143.429
	31.000000000	      -1.555	    -175.804	       3.703	      50.761	     -24.691	       1.823	      -6.719	    -143.691
	31.500000000	      -1.545	    -176.152	       3.567	      50.001	     -24.856	       2.583	      -6.655	    -143.953
	32.000000000	      -1.543	    -176.470	       3.425	      49.162	     -24.781	       2.648	      -6.577	    -144.175
	32.500000000	      -1.551	    -176.942	       3.277	      48.285	     -24.778	       2.606	      -6.495	    -144.432
	33.000000000	      -1.550	    -177.342	       3.134	      47.524	     -24.818	       2.344	      -6.429	    -144.732
	33.500000000	      -1.538	    -177.718	       2.985	      46.754	     -24.898	       2.260	      -6.362	    -145.112
	34.000000000	      -1.531	    -178.050	       2.844	      45.990	     -24.962	       2.353	      -6.287	    -145.510
	34.500000000	      -1.531	    -178.433	       2.698	      45.167	     -25.007	       2.202	      -6.206	    -145.788
	35.000000000	      -1.537	    -178.768	       2.554	      44.449	     -25.087	       1.967	      -6.141	    -146.138
	35.500000000	      -1.533	    -179.124	       2.433	      43.735	     -25.145	       2.743	      -6.092	    -146.342
	36.000000000	      -1.528	    -179.421	       2.304	      42.959	     -25.137	       2.648	      -6.015	    -146.636
	36.500000000	      -1.512	    -179.658	       2.177	      42.137	     -25.149	       2.892	      -5.936	    -146.947
	37.000000000	      -1.505	    -179.902	       2.045	      41.430	     -25.175	       2.068	      -5.873	    -147.265
	37.500000000	      -1.507	     179.716	       1.913	      40.625	     -25.232	       2.496	      -5.819	    -147.508
	38.000000000	      -1.496	     179.367	       1.778	      39.893	     -25.355	       2.600	      -5.750	    -147.806
	38.500000000	      -1.487	     179.009	       1.645	      39.163	     -25.457	       2.364	      -5.683	    -148.286
	39.000000000	      -1.474	     178.789	       1.525	      38.486	     -25.454	       2.069	      -5.628	    -148.606
	39.500000000	      -1.473	     178.567	       1.408	      37.779	     -25.534	       2.834	      -5.555	    -148.936
	40.000000000	      -1.461	     178.109	       1.296	      36.980	     -25.566	       2.957	      -5.489	    -149.256
	40.500000000	      -1.456	     177.681	       1.159	      36.205	     -25.545	       3.217	      -5.420	    -149.598
	41.000000000	      -1.445	     177.319	       1.038	      35.432	     -25.612	       3.106	      -5.360	    -149.999
	41.500000000	      -1.444	     177.134	       0.917	      34.763	     -25.655	       3.365	      -5.325	    -150.250
	42.000000000	      -1.447	     176.814	       0.799	      34.070	     -25.725	       3.123	      -5.256	    -150.365
	42.500000000	      -1.468	     176.483	       0.676	      33.412	     -25.906	       3.394	      -5.186	    -150.499
	43.000000000	      -1.458	     176.234	       0.572	      32.758	     -25.947	       3.994	      -5.121	    -150.805
	43.500000000	      -1.445	     176.024	       0.453	      31.985	     -25.876	       4.264	      -5.068	    -151.263
	44.000000000	      -1.448	     175.757	       0.338	      31.220	     -25.935	       4.403	      -4.997	    -151.730
	44.500000000	      -1.459	     175.332	       0.218	      30.491	     -25.939	       4.495	      -4.928	    -152.005
	45.000000000	      -1.467	     175.009	       0.098	      29.820	     -25.896	       4.204	      -4.869	    -152.358
	45.500000000	      -1.418	     174.598	      -0.180	      29.202	     -26.223	       3.208	      -4.743	    -153.449
	46.000000000	      -1.405	     174.370	      -0.302	      28.601	     -26.235	       3.564	      -4.696	    -153.882
	46.500000000	      -1.392	     174.051	      -0.401	      27.940	     -26.356	       4.251	      -4.621	    -153.992
	47.000000000	      -1.390	     173.689	      -0.509	      27.227	     -26.395	       4.652	      -4.548	    -154.281
	47.500000000	      -1.385	     173.383	      -0.619	      26.538	     -26.434	       6.178	      -4.506	    -154.529
	48.000000000	      -1.374	     173.075	      -0.742	      25.860	     -26.381	       6.113	      -4.468	    -154.760
	48.500000000	      -1.369	     172.732	      -0.855	      25.201	     -26.474	       5.602	      -4.400	    -155.156
	49.000000000	      -1.382	     172.535	      -0.961	      24.568	     -26.542	       5.799	      -4.344	    -155.402
	49.500000000	      -1.396	     172.328	      -1.079	      23.955	     -26.684	       6.214	      -4.269	    -155.739
	50.000000000	      -1.382	     171.960	      -1.174	      23.269	     -26.727	       5.344	      -4.225	    -156.176
	50.500000000	      -1.371	     171.760	      -1.276	      22.774	     -26.730	       5.826	      -4.199	    -156.627
	51.000000000	      -1.356	     171.400	      -1.406	      22.158	     -26.673	       7.640	      -4.187	    -157.075
	51.500000000	      -1.352	     171.334	      -1.496	      21.408	     -26.649	       8.324	      -4.115	    -157.413
	52.000000000	      -1.333	     171.030	      -1.608	      20.699	     -26.673	       7.755	      -4.073	    -157.651
	52.500000000	      -1.333	     170.671	      -1.718	      20.119	     -26.578	       7.162	      -4.042	    -157.867
	53.000000000	      -1.332	     170.286	      -1.824	      19.502	     -26.635	       6.923	      -3.997	    -157.934
	53.500000000	      -1.321	     170.100	      -1.924	      18.945	     -26.844	       7.491	      -3.929	    -158.224
	54.000000000	      -1.315	     169.863	      -2.021	      18.375	     -26.821	       7.094	      -3.886	    -158.542
	54.500000000	      -1.318	     169.456	      -2.116	      17.777	     -26.820	       7.748	      -3.836	    -158.784
	55.000000000	      -1.327	     169.050	      -2.206	      17.112	     -26.690	       8.163	      -3.787	    -158.984
	55.500000000	      -1.318	     168.753	      -2.284	      16.481	     -26.709	       8.523	      -3.742	    -159.302
	56.000000000	      -1.308	     168.325	      -2.377	      15.753	     -26.755	       8.394	      -3.694	    -159.893
	56.500000000	      -1.302	     168.277	      -2.479	      15.206	     -26.816	       6.620	      -3.675	    -160.332
	57.000000000	      -1.313	     168.058	      -2.625	      14.431	     -27.026	       6.613	      -3.651	    -160.596
	57.500000000	      -1.330	     167.772	      -2.697	      13.895	     -26.824	       7.253	      -3.592	    -160.906
	58.000000000	      -1.300	     167.691	      -2.795	      13.321	     -26.988	       7.338	      -3.554	    -161.253
	58.500000000	      -1.263	     167.365	      -2.877	      12.669	     -26.854	       9.468	      -3.496	    -161.516
	59.000000000	      -1.276	     166.983	      -2.969	      11.849	     -27.119	       7.856	      -3.445	    -161.688
	59.500000000	      -1.281	     166.766	      -3.062	      11.183	     -26.694	       9.236	      -3.401	    -162.116
	60.000000000	      -1.263	     166.622	      -3.152	      10.712	     -26.914	       9.081	      -3.428	    -162.509
	60.500000000	      -1.249	     166.347	      -3.265	       9.953	     -27.006	       7.617	      -3.403	    -162.533
	61.000000000	      -1.208	     166.046	      -3.362	       9.346	     -27.232	       8.831	      -3.356	    -162.785
	61.500000000	      -1.208	     165.784	      -3.466	       8.865	     -27.139	       6.988	      -3.306	    -163.023
	62.000000000	      -1.202	     165.534	      -3.535	       8.138	     -27.360	       9.585	      -3.318	    -163.155
	62.500000000	      -1.212	     165.189	      -3.616	       7.486	     -27.061	      11.041	      -3.291	    -163.306
	63.000000000	      -1.191	     164.651	      -3.697	       6.879	     -27.160	      11.212	      -3.209	    -163.371
	63.500000000	      -1.184	     164.560	      -3.788	       6.047	     -27.130	      11.697	      -3.141	    -163.670
	64.000000000	      -1.183	     164.598	      -3.860	       5.267	     -27.142	      10.168	      -3.065	    -163.741
	64.500000000	      -1.150	     164.454	      -3.940	       4.464	     -26.848	      10.848	      -3.011	    -163.746
	65.000000000	      -1.181	     164.156	      -4.041	       3.618	     -27.191	       9.521	      -2.964	    -164.017
	65.500000000	      -1.167	     163.445	      -4.177	       2.837	     -27.091	       7.899	      -2.924	    -165.051
	66.000000000	      -1.156	     163.235	      -4.311	       1.955	     -26.993	      10.001	      -2.896	    -165.493
	66.500000000	      -1.180	     162.933	      -4.412	       0.993	     -26.898	       8.503	      -2.866	    -165.309
	67.000000000	      -1.232	     162.523	      -4.555	       0.729	     -26.719	       9.577	      -2.857	    -165.562
	67.500000000	      -1.217	     161.873	      -4.673	      -0.276	     -26.874	       9.828	      -2.850	    -166.108
	68.000000000	      -1.259	     161.622	      -4.781	      -0.992	     -26.798	       9.659	      -2.881	    -166.450
	68.500000000	      -1.295	     161.373	      -4.906	      -1.526	     -26.832	       8.714	      -2.822	    -166.660
	69.000000000	      -1.325	     161.139	      -5.035	      -2.126	     -26.818	       8.056	      -2.766	    -166.988
	69.500000000	      -1.325	     160.916	      -5.158	      -2.620	     -26.955	       7.738	      -2.751	    -167.178
	70.000000000	      -1.307	     160.700	      -5.268	      -3.211	     -26.981	       8.400	      -2.727	    -167.290
	70.500000000	      -1.296	     160.515	      -5.382	      -3.680	     -26.932	       8.435	      -2.685	    -167.512
	71.000000000	      -1.293	     160.328	      -5.473	      -4.102	     -26.930	       7.882	      -2.658	    -167.794
	71.500000000	      -1.239	     160.193	      -5.593	      -4.681	     -26.858	       6.992	      -2.583	    -167.981
	72.000000000	      -1.235	     159.854	      -5.734	      -5.219	     -26.909	       6.043	      -2.594	    -168.259
	72.500000000	      -1.266	     159.431	      -5.847	      -5.942	     -27.024	       4.890	      -2.560	    -168.609
	73.000000000	      -1.302	     159.171	      -5.964	      -6.524	     -27.242	       4.046	      -2.521	    -168.830
	73.500000000	      -1.326	     159.086	      -6.102	      -7.030	     -27.535	       4.329	      -2.445	    -169.134
	74.000000000	      -1.332	     158.816	      -6.216	      -7.369	     -27.682	       5.279	      -2.454	    -169.763
	74.500000000	      -1.370	     158.563	      -6.318	      -7.780	     -27.806	       6.170	      -2.469	    -169.980
	75.000000000	      -1.406	     158.482	      -6.427	      -8.258	     -27.897	       6.670	      -2.454	    -170.077
	75.500000000	      -1.441	     158.462	      -6.557	      -8.723	     -28.133	       7.665	      -2.453	    -170.278
	76.000000000	      -1.449	     158.542	      -6.674	      -9.093	     -28.404	      10.230	      -2.454	    -170.385
	76.500000000	      -1.439	     158.692	      -6.799	      -9.206	     -28.437	      14.929	      -2.443	    -170.303
	77.000000000	      -1.415	     158.701	      -6.870	      -9.288	     -27.833	      19.022	      -2.384	    -170.212
	77.500000000	      -1.334	     158.654	      -6.904	      -9.323	     -27.034	      20.081	      -2.298	    -170.364
	78.000000000	      -1.254	     158.362	      -6.909	      -9.651	     -26.407	      19.024	      -2.259	    -170.512
	78.500000000	      -1.211	     157.757	      -6.929	     -10.487	     -25.950	      16.613	      -2.202	    -170.882
	79.000000000	      -1.247	     157.113	      -6.998	     -11.458	     -25.698	      13.632	      -2.150	    -171.213
	79.500000000	      -1.270	     156.582	      -7.071	     -12.328	     -25.537	      11.234	      -2.100	    -171.454
