!File name = EG0520U_1010_6x60_2SDBCB2EV_1915934D06_RC2952_3.5Vd_45mA.s2p
!Base file name = EG0520U_1010_6x60_2SDBCB2EV_1915934D06_RC2952
!Date = 8/23/2019
!Time = 1:16 PM
!Test duration(min) = 0.15
!Test = S-Parameters
!MPTS version = 8.91.5
!State File = C:\Data\PNA\20190821205423\S-Parameters_2019-08-23.sta
!Cal File = 
!ComputerName = CMPE-LAB-6
!Comments = 
!Attenuation = 0
!Z0 = 50
!Input Power(dBm) = -13.00
!Device ID = EG0520U_1010_6x60_2SDBCB2EV
!Row = 29
!Column = 52
!Technology = QPHT09
!Lot/Wafer = 1915934D06
!Gate Size = 360
!Mask = EG0520
!Cal Standards = GaAs BCB
!Cal Kit = EG2306
!Job Number = 20190821205423
!Device Type = FET
!set_Vg(v) = -1.500
!set_Vd(v) = 3.500
!set_Vd(mA) = 45.000
!file_name = EG0520U_1010_6x60_2SDBCB2EV_1915934D06_RC2952_3.5Vd_45mA.s2p
!Vd(V) = 3.500
!Vd(mA) = 45.121
!Vg(V) = -0.473
!Vg(mA) = -0.002
# GHz   S   DB   R   50
!%	Freq(GHz)	     s11(dB)	    s11(deg)	     s21(dB)	    s21(deg)	     s12(dB)	    s12(deg)	     s22(dB)	    s22(deg)
	0.500000000	      -0.048	     -15.101	      22.325	     170.798	     -39.140	      81.058	      -8.858	     -15.601
	1.000000000	      -0.137	     -29.833	      21.868	     162.125	     -33.384	      73.163	      -8.893	     -29.826
	1.500000000	      -0.179	     -43.678	      21.492	     154.535	     -30.253	      65.736	      -8.840	     -43.411
	2.000000000	      -0.327	     -56.157	      21.221	     147.102	     -28.266	      58.835	      -8.841	     -56.588
	2.500000000	      -0.425	     -67.715	      20.756	     140.576	     -26.907	      52.959	      -8.948	     -67.177
	3.000000000	      -0.821	     -75.457	      20.057	     135.390	     -26.115	      48.576	      -9.350	     -71.520
	3.500000000	      -0.938	     -84.342	      19.479	     130.269	     -25.377	      44.143	      -9.403	     -79.534
	4.000000000	      -1.032	     -92.154	      18.900	     125.758	     -24.820	      40.274	      -9.442	     -86.552
	4.500000000	      -1.134	     -99.061	      18.327	     121.605	     -24.403	      36.759	      -9.473	     -92.930
	5.000000000	      -1.206	    -105.186	      17.759	     117.962	     -24.076	      33.745	      -9.510	     -98.311
	5.500000000	      -1.273	    -110.690	      17.217	     114.580	     -23.819	      31.106	      -9.547	    -103.038
	6.000000000	      -1.328	    -115.587	      16.682	     111.550	     -23.607	      28.710	      -9.545	    -107.127
	6.500000000	      -1.375	    -119.936	      16.171	     108.795	     -23.447	      26.564	      -9.545	    -110.756
	7.000000000	      -1.414	    -123.862	      15.680	     106.221	     -23.314	      24.641	      -9.534	    -113.917
	7.500000000	      -1.443	    -127.415	      15.202	     103.846	     -23.207	      22.915	      -9.518	    -116.785
	8.000000000	      -1.453	    -130.397	      14.765	     101.771	     -23.094	      21.515	      -9.530	    -118.610
	8.500000000	      -1.480	    -133.381	      14.324	      99.712	     -23.021	      20.011	      -9.510	    -120.899
	9.000000000	      -1.507	    -136.059	      13.895	      97.778	     -22.961	      18.631	      -9.482	    -122.900
	9.500000000	      -1.524	    -138.563	      13.493	      95.904	     -22.910	      17.316	      -9.448	    -124.718
	10.000000000	      -1.539	    -140.888	      13.101	      94.133	     -22.894	      16.078	      -9.419	    -126.465
	10.500000000	      -1.561	    -143.047	      12.723	      92.427	     -22.885	      15.085	      -9.394	    -127.946
	11.000000000	      -1.572	    -144.998	      12.360	      90.849	     -22.861	      14.115	      -9.354	    -129.246
	11.500000000	      -1.587	    -146.860	      12.007	      89.298	     -22.851	      13.164	      -9.312	    -130.446
	12.000000000	      -1.598	    -148.583	      11.669	      87.834	     -22.856	      12.351	      -9.257	    -131.552
	12.500000000	      -1.603	    -150.208	      11.342	      86.406	     -22.857	      11.523	      -9.200	    -132.630
	13.000000000	      -1.610	    -151.721	      11.024	      85.008	     -22.859	      10.738	      -9.145	    -133.629
	13.500000000	      -1.619	    -153.172	      10.716	      83.674	     -22.877	       9.955	      -9.089	    -134.446
	14.000000000	      -1.630	    -154.545	      10.415	      82.380	     -22.912	       9.341	      -9.031	    -135.211
	14.500000000	      -1.634	    -155.785	      10.124	      81.115	     -22.939	       8.759	      -8.978	    -136.038
	15.000000000	      -1.637	    -156.904	       9.840	      79.896	     -22.962	       8.295	      -8.927	    -136.744
	15.500000000	      -1.642	    -158.012	       9.565	      78.691	     -22.972	       7.847	      -8.864	    -137.319
	16.000000000	      -1.644	    -159.118	       9.299	      77.514	     -22.974	       7.236	      -8.792	    -137.887
	16.500000000	      -1.644	    -160.193	       9.038	      76.355	     -23.005	       6.635	      -8.724	    -138.450
	17.000000000	      -1.644	    -161.199	       8.787	      75.225	     -23.042	       6.159	      -8.663	    -138.948
	17.500000000	      -1.650	    -162.111	       8.536	      74.114	     -23.067	       5.721	      -8.590	    -139.550
	18.000000000	      -1.657	    -163.007	       8.297	      73.027	     -23.121	       5.179	      -8.522	    -140.113
	18.500000000	      -1.657	    -163.889	       8.061	      71.958	     -23.144	       4.748	      -8.445	    -140.551
	19.000000000	      -1.655	    -164.750	       7.829	      70.895	     -23.202	       4.340	      -8.378	    -140.980
	19.500000000	      -1.654	    -165.545	       7.604	      69.874	     -23.272	       4.086	      -8.318	    -141.404
	20.000000000	      -1.659	    -166.290	       7.385	      68.867	     -23.321	       3.921	      -8.256	    -141.785
	20.500000000	      -1.661	    -167.001	       7.175	      67.857	     -23.331	       3.893	      -8.176	    -142.125
	21.000000000	      -1.659	    -167.737	       6.963	      66.856	     -23.347	       3.440	      -8.094	    -142.549
	21.500000000	      -1.652	    -168.449	       6.756	      65.865	     -23.388	       3.093	      -8.017	    -142.878
	22.000000000	      -1.648	    -169.039	       6.554	      64.908	     -23.439	       2.673	      -7.946	    -143.236
	22.500000000	      -1.642	    -169.672	       6.353	      63.912	     -23.467	       2.298	      -7.878	    -143.636
	23.000000000	      -1.640	    -170.336	       6.155	      62.948	     -23.522	       1.954	      -7.802	    -144.120
	23.500000000	      -1.643	    -170.980	       5.959	      62.041	     -23.643	       1.581	      -7.733	    -144.589
	24.000000000	      -1.647	    -171.584	       5.772	      61.150	     -23.733	       1.762	      -7.672	    -144.873
	24.500000000	      -1.637	    -172.076	       5.592	      60.222	     -23.747	       1.862	      -7.605	    -145.043
	25.000000000	      -1.623	    -172.499	       5.413	      59.280	     -23.745	       1.680	      -7.530	    -145.282
	25.500000000	      -1.616	    -173.084	       5.232	      58.372	     -23.797	       1.601	      -7.447	    -145.606
	26.000000000	      -1.620	    -173.739	       5.050	      57.481	     -23.859	       1.105	      -7.351	    -146.022
	26.500000000	      -1.617	    -174.251	       4.873	      56.583	     -23.900	       0.991	      -7.272	    -146.376
	27.000000000	      -1.613	    -174.657	       4.701	      55.720	     -23.954	       0.705	      -7.206	    -146.700
	27.500000000	      -1.620	    -175.058	       4.530	      54.945	     -24.136	       0.688	      -7.161	    -146.838
	28.000000000	      -1.624	    -175.566	       4.372	      54.128	     -24.218	       1.117	      -7.088	    -147.194
	28.500000000	      -1.607	    -175.975	       4.222	      53.214	     -24.192	       1.491	      -6.993	    -147.527
	29.000000000	      -1.594	    -176.406	       4.055	      52.316	     -24.190	       1.210	      -6.919	    -147.880
	29.500000000	      -1.583	    -176.845	       3.898	      51.468	     -24.216	       0.985	      -6.842	    -148.164
	30.000000000	      -1.579	    -177.248	       3.740	      50.672	     -24.296	       0.675	      -6.780	    -148.438
	30.500000000	      -1.581	    -177.699	       3.587	      49.823	     -24.347	       0.703	      -6.717	    -148.745
	31.000000000	      -1.570	    -178.146	       3.433	      49.031	     -24.397	       0.540	      -6.648	    -149.089
	31.500000000	      -1.558	    -178.531	       3.290	      48.249	     -24.519	       1.367	      -6.589	    -149.402
	32.000000000	      -1.557	    -178.860	       3.145	      47.402	     -24.570	       1.528	      -6.512	    -149.590
	32.500000000	      -1.565	    -179.312	       2.997	      46.531	     -24.513	       1.493	      -6.423	    -149.820
	33.000000000	      -1.564	    -179.722	       2.852	      45.736	     -24.510	       1.355	      -6.356	    -150.181
	33.500000000	      -1.552	     179.908	       2.700	      44.974	     -24.582	       1.170	      -6.296	    -150.578
	34.000000000	      -1.541	     179.608	       2.557	      44.197	     -24.656	       0.854	      -6.222	    -150.997
	34.500000000	      -1.541	     179.237	       2.408	      43.359	     -24.707	       0.523	      -6.137	    -151.234
	35.000000000	      -1.534	     178.905	       2.265	      42.625	     -24.885	       0.733	      -6.074	    -151.693
	35.500000000	      -1.531	     178.544	       2.143	      41.892	     -24.895	       1.508	      -6.025	    -151.896
	36.000000000	      -1.513	     178.203	       2.015	      41.008	     -24.853	       1.610	      -5.942	    -152.193
	36.500000000	      -1.504	     177.911	       1.875	      40.192	     -24.860	       1.380	      -5.868	    -152.538
	37.000000000	      -1.498	     177.621	       1.735	      39.433	     -24.928	       0.856	      -5.812	    -152.866
	37.500000000	      -1.502	     177.190	       1.595	      38.666	     -24.998	       0.811	      -5.763	    -153.165
	38.000000000	      -1.507	     176.890	       1.453	      37.992	     -25.087	       0.702	      -5.701	    -153.413
	38.500000000	      -1.503	     176.567	       1.316	      37.315	     -25.264	       0.464	      -5.632	    -153.818
	39.000000000	      -1.493	     176.401	       1.198	      36.691	     -25.233	       1.649	      -5.566	    -154.112
	39.500000000	      -1.485	     176.220	       1.081	      35.979	     -25.372	       1.755	      -5.495	    -154.467
	40.000000000	      -1.476	     175.782	       0.969	      35.180	     -25.281	       1.984	      -5.420	    -154.773
	40.500000000	      -1.470	     175.404	       0.841	      34.431	     -25.345	       1.982	      -5.346	    -155.072
	41.000000000	      -1.451	     175.123	       0.716	      33.648	     -25.368	       1.782	      -5.290	    -155.537
	41.500000000	      -1.436	     174.956	       0.595	      32.951	     -25.417	       1.969	      -5.249	    -155.772
	42.000000000	      -1.440	     174.647	       0.476	      32.179	     -25.462	       1.846	      -5.182	    -155.993
	42.500000000	      -1.455	     174.267	       0.346	      31.520	     -25.581	       1.661	      -5.123	    -156.044
	43.000000000	      -1.451	     174.039	       0.243	      30.886	     -25.757	       2.928	      -5.053	    -156.364
	43.500000000	      -1.433	     173.790	       0.123	      30.055	     -25.636	       3.398	      -4.998	    -156.850
	44.000000000	      -1.438	     173.515	      -0.008	      29.353	     -25.606	       3.431	      -4.921	    -157.235
	44.500000000	      -1.454	     173.120	      -0.136	      28.590	     -25.625	       2.787	      -4.856	    -157.591
	45.000000000	      -1.462	     172.832	      -0.258	      27.964	     -25.684	       2.847	      -4.799	    -157.934
	45.500000000	      -1.415	     172.542	      -0.542	      27.442	     -25.954	       2.878	      -4.667	    -158.900
	46.000000000	      -1.394	     172.330	      -0.667	      26.857	     -26.047	       2.492	      -4.616	    -159.322
	46.500000000	      -1.381	     171.995	      -0.767	      26.203	     -26.267	       4.247	      -4.549	    -159.473
	47.000000000	      -1.381	     171.690	      -0.869	      25.530	     -26.289	       4.876	      -4.489	    -159.752
	47.500000000	      -1.372	     171.383	      -0.995	      24.839	     -26.242	       4.998	      -4.455	    -159.924
	48.000000000	      -1.354	     171.131	      -1.112	      24.202	     -26.176	       4.648	      -4.398	    -160.220
	48.500000000	      -1.355	     170.831	      -1.227	      23.668	     -26.214	       5.336	      -4.334	    -160.454
	49.000000000	      -1.367	     170.640	      -1.335	      23.044	     -26.170	       5.151	      -4.281	    -160.684
	49.500000000	      -1.369	     170.438	      -1.438	      22.545	     -26.314	       4.574	      -4.228	    -160.811
	50.000000000	      -1.356	     170.181	      -1.527	      21.853	     -26.463	       5.466	      -4.149	    -161.267
	50.500000000	      -1.347	     169.947	      -1.628	      21.204	     -26.626	       6.898	      -4.123	    -161.708
	51.000000000	      -1.331	     169.646	      -1.731	      20.600	     -26.428	       7.510	      -4.118	    -162.147
	51.500000000	      -1.335	     169.548	      -1.841	      19.852	     -26.279	       6.412	      -4.048	    -162.437
	52.000000000	      -1.316	     169.299	      -1.945	      19.127	     -26.242	       6.803	      -3.987	    -162.736
	52.500000000	      -1.312	     168.969	      -2.059	      18.477	     -26.314	       6.326	      -3.941	    -162.869
	53.000000000	      -1.307	     168.642	      -2.170	      17.793	     -26.370	       6.794	      -3.886	    -163.039
	53.500000000	      -1.304	     168.515	      -2.291	      17.281	     -26.445	       6.886	      -3.826	    -163.373
	54.000000000	      -1.302	     168.289	      -2.389	      16.730	     -26.573	       6.547	      -3.760	    -163.614
	54.500000000	      -1.298	     167.907	      -2.482	      16.097	     -26.419	       7.386	      -3.708	    -163.955
	55.000000000	      -1.305	     167.511	      -2.580	      15.503	     -26.418	       7.093	      -3.672	    -164.198
	55.500000000	      -1.296	     167.258	      -2.676	      14.853	     -26.501	       7.265	      -3.626	    -164.569
	56.000000000	      -1.285	     166.966	      -2.778	      14.189	     -26.492	       6.674	      -3.587	    -165.073
	56.500000000	      -1.298	     166.748	      -2.874	      13.663	     -26.727	       6.987	      -3.550	    -165.754
	57.000000000	      -1.300	     166.592	      -2.982	      12.944	     -26.644	       4.923	      -3.545	    -165.772
	57.500000000	      -1.307	     166.480	      -3.117	      12.337	     -26.712	       4.683	      -3.508	    -165.995
	58.000000000	      -1.274	     166.496	      -3.188	      11.909	     -26.725	       7.019	      -3.448	    -166.278
	58.500000000	      -1.245	     166.191	      -3.300	      11.263	     -26.780	       7.237	      -3.407	    -166.693
	59.000000000	      -1.244	     165.813	      -3.375	      10.688	     -27.038	       8.040	      -3.348	    -166.793
	59.500000000	      -1.258	     165.726	      -3.482	       9.950	     -26.891	       7.106	      -3.326	    -167.069
	60.000000000	      -1.250	     165.669	      -3.581	       9.363	     -26.986	       8.000	      -3.332	    -167.431
	60.500000000	      -1.226	     165.399	      -3.674	       8.898	     -26.898	       8.418	      -3.330	    -167.659
	61.000000000	      -1.185	     165.162	      -3.781	       8.501	     -26.969	      10.109	      -3.283	    -167.833
	61.500000000	      -1.167	     164.937	      -3.872	       8.083	     -27.082	       7.379	      -3.238	    -168.031
	62.000000000	      -1.167	     164.623	      -3.925	       7.290	     -27.163	       9.749	      -3.234	    -168.246
	62.500000000	      -1.176	     164.313	      -4.021	       6.734	     -27.136	      12.123	      -3.213	    -168.289
	63.000000000	      -1.151	     163.833	      -4.085	       6.227	     -26.777	      11.863	      -3.174	    -168.269
	63.500000000	      -1.138	     163.772	      -4.162	       5.456	     -26.843	      11.787	      -3.108	    -168.674
	64.000000000	      -1.135	     163.916	      -4.238	       4.558	     -26.989	       9.269	      -3.017	    -168.578
	64.500000000	      -1.108	     163.789	      -4.285	       3.786	     -26.761	      11.065	      -3.001	    -168.410
	65.000000000	      -1.122	     163.361	      -4.408	       2.970	     -26.748	      11.918	      -2.931	    -168.959
	65.500000000	      -1.136	     162.922	      -4.519	       2.243	     -26.920	      10.420	      -2.913	    -169.605
	66.000000000	      -1.119	     162.570	      -4.645	       1.502	     -26.401	      11.628	      -2.873	    -170.157
	66.500000000	      -1.141	     162.432	      -4.739	       0.499	     -26.953	       9.748	      -2.850	    -169.921
	67.000000000	      -1.221	     161.955	      -4.888	       0.066	     -26.306	      11.839	      -2.832	    -170.189
	67.500000000	      -1.180	     161.365	      -5.023	      -0.914	     -26.561	      10.464	      -2.824	    -170.541
	68.000000000	      -1.234	     161.173	      -5.140	      -1.463	     -26.601	      10.330	      -2.850	    -170.909
	68.500000000	      -1.277	     160.929	      -5.233	      -2.006	     -26.544	       9.845	      -2.813	    -171.115
	69.000000000	      -1.308	     160.771	      -5.361	      -2.526	     -26.602	       9.334	      -2.743	    -171.330
	69.500000000	      -1.305	     160.626	      -5.488	      -3.005	     -26.741	       9.293	      -2.724	    -171.468
	70.000000000	      -1.283	     160.467	      -5.586	      -3.436	     -26.773	       9.839	      -2.695	    -171.535
	70.500000000	      -1.263	     160.337	      -5.686	      -3.869	     -26.693	       9.964	      -2.651	    -171.719
	71.000000000	      -1.250	     160.178	      -5.771	      -4.184	     -26.671	       9.556	      -2.606	    -171.854
	71.500000000	      -1.188	     160.150	      -5.881	      -4.677	     -26.681	       9.195	      -2.542	    -172.064
	72.000000000	      -1.193	     159.777	      -5.999	      -5.312	     -26.723	       8.718	      -2.541	    -172.348
	72.500000000	      -1.228	     159.385	      -6.104	      -6.005	     -26.716	       7.889	      -2.520	    -172.644
	73.000000000	      -1.257	     159.199	      -6.209	      -6.548	     -26.873	       7.342	      -2.480	    -172.853
	73.500000000	      -1.284	     159.102	      -6.322	      -7.073	     -27.080	       7.516	      -2.419	    -173.144
	74.000000000	      -1.295	     158.826	      -6.432	      -7.514	     -27.171	       8.195	      -2.406	    -173.702
	74.500000000	      -1.334	     158.564	      -6.521	      -7.877	     -27.221	       8.831	      -2.427	    -173.977
	75.000000000	      -1.377	     158.509	      -6.627	      -8.398	     -27.312	       9.169	      -2.420	    -174.081
	75.500000000	      -1.414	     158.574	      -6.749	      -8.924	     -27.515	      10.021	      -2.418	    -174.180
	76.000000000	      -1.428	     158.728	      -6.877	      -9.260	     -27.724	      12.390	      -2.411	    -174.275
	76.500000000	      -1.411	     159.005	      -7.002	      -9.355	     -27.687	      16.556	      -2.398	    -174.155
	77.000000000	      -1.377	     158.976	      -7.076	      -9.403	     -27.207	      19.879	      -2.335	    -174.125
	77.500000000	      -1.292	     158.935	      -7.105	      -9.396	     -26.467	      20.787	      -2.253	    -174.262
	78.000000000	      -1.211	     158.539	      -7.097	      -9.754	     -25.852	      19.652	      -2.218	    -174.362
	78.500000000	      -1.166	     158.170	      -7.134	     -10.508	     -25.482	      16.992	      -2.176	    -174.679
	79.000000000	      -1.201	     157.524	      -7.203	     -11.358	     -25.306	      14.294	      -2.118	    -174.973
	79.500000000	      -1.217	     157.051	      -7.264	     -12.167	     -25.175	      11.995	      -2.070	    -175.284
