!File name = EG0520U_1010_6x60_2SDBCB2EV_1915934D06_RC2943_3.5Vd_45mA.s2p
!Base file name = EG0520U_1010_6x60_2SDBCB2EV_1915934D06_RC2943
!Date = 8/23/2019
!Time = 1:04 PM
!Test duration(min) = 0.15
!Test = S-Parameters
!MPTS version = 8.91.5
!State File = C:\Data\PNA\20190821205423\S-Parameters_2019-08-23.sta
!Cal File = 
!ComputerName = CMPE-LAB-6
!Comments = 
!Attenuation = 0
!Z0 = 50
!Input Power(dBm) = -13.00
!Device ID = EG0520U_1010_6x60_2SDBCB2EV
!Row = 29
!Column = 43
!Technology = QPHT09
!Lot/Wafer = 1915934D06
!Gate Size = 360
!Mask = EG0520
!Cal Standards = GaAs BCB
!Cal Kit = EG2306
!Job Number = 20190821205423
!Device Type = FET
!set_Vg(v) = -1.500
!set_Vd(v) = 3.500
!set_Vd(mA) = 45.000
!file_name = EG0520U_1010_6x60_2SDBCB2EV_1915934D06_RC2943_3.5Vd_45mA.s2p
!Vd(V) = 3.500
!Vd(mA) = 45.205
!Vg(V) = -0.481
!Vg(mA) = -0.002
# GHz   S   DB   R   50
!%	Freq(GHz)	     s11(dB)	    s11(deg)	     s21(dB)	    s21(deg)	     s12(dB)	    s12(deg)	     s22(dB)	    s22(deg)
	0.500000000	      -0.050	     -14.933	      22.257	     170.863	     -39.233	      81.131	      -8.974	     -15.649
	1.000000000	      -0.137	     -29.507	      21.806	     162.270	     -33.459	      73.354	      -8.997	     -29.882
	1.500000000	      -0.179	     -43.219	      21.437	     154.738	     -30.318	      65.941	      -8.930	     -43.474
	2.000000000	      -0.325	     -55.599	      21.169	     147.351	     -28.321	      59.095	      -8.911	     -56.652
	2.500000000	      -0.424	     -67.070	      20.709	     140.856	     -26.955	      53.239	      -9.001	     -67.253
	3.000000000	      -0.816	     -74.770	      20.018	     135.678	     -26.159	      48.877	      -9.389	     -71.604
	3.500000000	      -0.934	     -83.606	      19.445	     130.572	     -25.414	      44.442	      -9.427	     -79.624
	4.000000000	      -1.030	     -91.385	      18.872	     126.068	     -24.853	      40.551	      -9.454	     -86.635
	4.500000000	      -1.132	     -98.272	      18.303	     121.921	     -24.425	      37.056	      -9.471	     -93.015
	5.000000000	      -1.204	    -104.386	      17.739	     118.276	     -24.095	      34.034	      -9.494	     -98.388
	5.500000000	      -1.273	    -109.875	      17.201	     114.899	     -23.834	      31.355	      -9.522	    -103.122
	6.000000000	      -1.330	    -114.762	      16.669	     111.864	     -23.625	      28.970	      -9.514	    -107.207
	6.500000000	      -1.376	    -119.107	      16.161	     109.107	     -23.457	      26.800	      -9.506	    -110.829
	7.000000000	      -1.417	    -123.028	      15.670	     106.528	     -23.321	      24.918	      -9.491	    -113.976
	7.500000000	      -1.447	    -126.569	      15.195	     104.160	     -23.217	      23.156	      -9.470	    -116.835
	8.000000000	      -1.456	    -129.542	      14.759	     102.084	     -23.100	      21.751	      -9.476	    -118.653
	8.500000000	      -1.485	    -132.521	      14.320	     100.021	     -23.023	      20.265	      -9.453	    -120.929
	9.000000000	      -1.512	    -135.197	      13.893	      98.088	     -22.960	      18.848	      -9.420	    -122.927
	9.500000000	      -1.529	    -137.691	      13.492	      96.216	     -22.913	      17.554	      -9.383	    -124.720
	10.000000000	      -1.542	    -139.999	      13.103	      94.455	     -22.886	      16.280	      -9.349	    -126.391
	10.500000000	      -1.561	    -142.156	      12.728	      92.746	     -22.865	      15.215	      -9.309	    -127.936
	11.000000000	      -1.573	    -144.131	      12.367	      91.144	     -22.853	      14.233	      -9.268	    -129.293
	11.500000000	      -1.592	    -145.991	      12.013	      89.596	     -22.853	      13.284	      -9.226	    -130.478
	12.000000000	      -1.605	    -147.717	      11.675	      88.123	     -22.853	      12.417	      -9.176	    -131.566
	12.500000000	      -1.613	    -149.315	      11.346	      86.695	     -22.848	      11.663	      -9.120	    -132.673
	13.000000000	      -1.623	    -150.809	      11.027	      85.309	     -22.861	      10.864	      -9.068	    -133.645
	13.500000000	      -1.630	    -152.234	      10.721	      83.986	     -22.868	      10.122	      -9.005	    -134.445
	14.000000000	      -1.637	    -153.603	      10.423	      82.686	     -22.889	       9.415	      -8.943	    -135.215
	14.500000000	      -1.641	    -154.848	      10.133	      81.412	     -22.915	       8.809	      -8.887	    -136.046
	15.000000000	      -1.646	    -155.966	       9.849	      80.196	     -22.941	       8.258	      -8.836	    -136.775
	15.500000000	      -1.653	    -157.079	       9.574	      78.989	     -22.965	       7.801	      -8.776	    -137.368
	16.000000000	      -1.658	    -158.174	       9.306	      77.815	     -22.979	       7.248	      -8.704	    -137.938
	16.500000000	      -1.660	    -159.236	       9.046	      76.655	     -23.006	       6.706	      -8.638	    -138.500
	17.000000000	      -1.662	    -160.226	       8.793	      75.532	     -23.050	       6.232	      -8.577	    -139.041
	17.500000000	      -1.668	    -161.113	       8.543	      74.430	     -23.073	       5.805	      -8.509	    -139.578
	18.000000000	      -1.678	    -161.993	       8.303	      73.352	     -23.118	       5.351	      -8.440	    -140.119
	18.500000000	      -1.678	    -162.861	       8.068	      72.291	     -23.136	       4.849	      -8.360	    -140.556
	19.000000000	      -1.677	    -163.696	       7.835	      71.235	     -23.187	       4.333	      -8.291	    -141.012
	19.500000000	      -1.676	    -164.472	       7.611	      70.219	     -23.262	       4.045	      -8.233	    -141.449
	20.000000000	      -1.683	    -165.198	       7.391	      69.230	     -23.323	       3.962	      -8.175	    -141.801
	20.500000000	      -1.684	    -165.899	       7.182	      68.229	     -23.339	       3.820	      -8.095	    -142.148
	21.000000000	      -1.685	    -166.580	       6.971	      67.239	     -23.356	       3.536	      -8.013	    -142.546
	21.500000000	      -1.677	    -167.317	       6.764	      66.246	     -23.404	       3.174	      -7.940	    -142.889
	22.000000000	      -1.675	    -167.891	       6.562	      65.295	     -23.427	       2.822	      -7.861	    -143.240
	22.500000000	      -1.673	    -168.503	       6.361	      64.324	     -23.469	       2.367	      -7.794	    -143.635
	23.000000000	      -1.676	    -169.097	       6.162	      63.380	     -23.532	       2.028	      -7.723	    -144.099
	23.500000000	      -1.677	    -169.713	       5.969	      62.501	     -23.658	       1.834	      -7.659	    -144.535
	24.000000000	      -1.676	    -170.274	       5.787	      61.627	     -23.731	       2.094	      -7.595	    -144.791
	24.500000000	      -1.665	    -170.725	       5.609	      60.699	     -23.726	       2.160	      -7.523	    -144.955
	25.000000000	      -1.651	    -171.186	       5.431	      59.762	     -23.687	       1.935	      -7.444	    -145.224
	25.500000000	      -1.642	    -171.778	       5.251	      58.855	     -23.760	       1.683	      -7.365	    -145.557
	26.000000000	      -1.644	    -172.371	       5.071	      57.972	     -23.821	       1.260	      -7.277	    -145.972
	26.500000000	      -1.643	    -172.853	       4.897	      57.097	     -23.866	       0.981	      -7.196	    -146.297
	27.000000000	      -1.635	    -173.239	       4.727	      56.245	     -23.955	       0.680	      -7.131	    -146.560
	27.500000000	      -1.631	    -173.586	       4.569	      55.459	     -24.076	       1.069	      -7.070	    -146.804
	28.000000000	      -1.619	    -174.109	       4.415	      54.598	     -24.105	       1.340	      -6.994	    -147.119
	28.500000000	      -1.607	    -174.632	       4.257	      53.646	     -24.105	       1.211	      -6.904	    -147.447
	29.000000000	      -1.599	    -175.044	       4.094	      52.760	     -24.095	       1.137	      -6.828	    -147.814
	29.500000000	      -1.595	    -175.418	       3.934	      51.913	     -24.168	       0.733	      -6.756	    -148.167
	30.000000000	      -1.586	    -175.858	       3.779	      51.123	     -24.254	       0.683	      -6.690	    -148.457
	30.500000000	      -1.581	    -176.297	       3.626	      50.259	     -24.276	       0.389	      -6.627	    -148.805
	31.000000000	      -1.567	    -176.749	       3.474	      49.443	     -24.369	       0.108	      -6.571	    -149.131
	31.500000000	      -1.555	    -177.167	       3.332	      48.658	     -24.444	       0.663	      -6.505	    -149.433
	32.000000000	      -1.553	    -177.503	       3.185	      47.793	     -24.475	       1.029	      -6.430	    -149.666
	32.500000000	      -1.563	    -177.919	       3.038	      46.930	     -24.492	       0.872	      -6.350	    -149.860
	33.000000000	      -1.560	    -178.356	       2.891	      46.144	     -24.570	       0.791	      -6.282	    -150.175
	33.500000000	      -1.547	    -178.734	       2.743	      45.367	     -24.642	       0.755	      -6.221	    -150.578
	34.000000000	      -1.530	    -179.051	       2.601	      44.561	     -24.675	       0.678	      -6.143	    -150.938
	34.500000000	      -1.528	    -179.487	       2.452	      43.717	     -24.680	       0.391	      -6.065	    -151.201
	35.000000000	      -1.527	    -179.857	       2.308	      42.963	     -24.800	       0.496	      -6.005	    -151.616
	35.500000000	      -1.524	     179.759	       2.180	      42.193	     -24.865	       1.176	      -5.947	    -151.871
	36.000000000	      -1.518	     179.408	       2.045	      41.403	     -24.841	       1.060	      -5.868	    -152.158
	36.500000000	      -1.508	     179.137	       1.908	      40.559	     -24.869	       0.854	      -5.799	    -152.502
	37.000000000	      -1.505	     178.859	       1.769	      39.796	     -24.895	       0.943	      -5.736	    -152.809
	37.500000000	      -1.513	     178.463	       1.629	      39.054	     -25.006	       0.494	      -5.684	    -153.134
	38.000000000	      -1.503	     178.119	       1.493	      38.339	     -25.085	       0.361	      -5.625	    -153.408
	38.500000000	      -1.488	     177.791	       1.357	      37.590	     -25.102	       0.717	      -5.556	    -153.836
	39.000000000	      -1.487	     177.487	       1.226	      36.908	     -25.242	       0.557	      -5.494	    -154.179
	39.500000000	      -1.497	     177.211	       1.093	      36.245	     -25.291	       0.923	      -5.427	    -154.485
	40.000000000	      -1.505	     176.875	       0.976	      35.540	     -25.381	       1.483	      -5.355	    -154.737
	40.500000000	      -1.503	     176.535	       0.855	      34.817	     -25.331	       1.744	      -5.274	    -155.086
	41.000000000	      -1.485	     176.285	       0.732	      34.057	     -25.418	       1.640	      -5.223	    -155.467
	41.500000000	      -1.478	     176.112	       0.612	      33.367	     -25.397	       1.832	      -5.179	    -155.763
	42.000000000	      -1.481	     175.807	       0.489	      32.668	     -25.506	       1.603	      -5.110	    -156.001
	42.500000000	      -1.494	     175.449	       0.364	      32.001	     -25.620	       1.303	      -5.047	    -156.153
	43.000000000	      -1.494	     175.233	       0.257	      31.383	     -25.647	       1.963	      -4.980	    -156.466
	43.500000000	      -1.479	     175.064	       0.143	      30.591	     -25.625	       2.393	      -4.931	    -156.873
	44.000000000	      -1.481	     174.735	       0.028	      29.874	     -25.593	       3.095	      -4.860	    -157.286
	44.500000000	      -1.482	     174.436	      -0.099	      29.121	     -25.721	       2.415	      -4.793	    -157.583
	45.000000000	      -1.493	     174.153	      -0.220	      28.454	     -25.731	       2.239	      -4.731	    -157.942
	45.500000000	      -1.443	     173.803	      -0.495	      27.882	     -25.926	       2.226	      -4.599	    -158.911
	46.000000000	      -1.422	     173.562	      -0.625	      27.253	     -26.124	       2.271	      -4.542	    -159.285
	46.500000000	      -1.415	     173.193	      -0.733	      26.637	     -26.165	       3.170	      -4.482	    -159.487
	47.000000000	      -1.415	     172.878	      -0.838	      25.956	     -26.183	       3.761	      -4.428	    -159.707
	47.500000000	      -1.408	     172.655	      -0.951	      25.219	     -26.148	       5.251	      -4.366	    -159.994
	48.000000000	      -1.391	     172.358	      -1.070	      24.603	     -26.132	       4.456	      -4.309	    -160.226
	48.500000000	      -1.384	     172.033	      -1.187	      23.926	     -26.113	       3.979	      -4.272	    -160.577
	49.000000000	      -1.401	     171.864	      -1.303	      23.305	     -26.235	       2.753	      -4.190	    -160.931
	49.500000000	      -1.404	     171.700	      -1.401	      22.679	     -26.364	       4.300	      -4.117	    -161.324
	50.000000000	      -1.398	     171.449	      -1.522	      22.205	     -26.488	       5.152	      -4.110	    -161.494
	50.500000000	      -1.382	     171.151	      -1.617	      21.606	     -26.549	       5.248	      -4.084	    -161.988
	51.000000000	      -1.370	     170.884	      -1.747	      20.977	     -26.616	       5.717	      -4.060	    -162.442
	51.500000000	      -1.368	     170.744	      -1.842	      20.324	     -26.502	       6.586	      -4.001	    -162.775
	52.000000000	      -1.347	     170.484	      -1.947	      19.604	     -26.358	       4.850	      -3.959	    -163.010
	52.500000000	      -1.342	     170.143	      -2.062	      19.053	     -26.409	       6.189	      -3.907	    -163.147
	53.000000000	      -1.349	     169.824	      -2.166	      18.462	     -26.590	       5.355	      -3.869	    -163.274
	53.500000000	      -1.335	     169.689	      -2.264	      17.913	     -26.492	       5.998	      -3.815	    -163.509
	54.000000000	      -1.336	     169.442	      -2.357	      17.416	     -26.486	       7.156	      -3.732	    -163.893
	54.500000000	      -1.325	     169.040	      -2.456	      16.786	     -26.671	       7.107	      -3.700	    -164.092
	55.000000000	      -1.337	     168.723	      -2.544	      16.127	     -26.627	       7.276	      -3.647	    -164.226
	55.500000000	      -1.328	     168.445	      -2.634	      15.510	     -26.378	       6.444	      -3.614	    -164.579
	56.000000000	      -1.316	     168.155	      -2.729	      14.876	     -26.684	       6.354	      -3.574	    -165.235
	56.500000000	      -1.318	     168.068	      -2.848	      14.255	     -26.548	       5.012	      -3.536	    -165.813
	57.000000000	      -1.318	     167.804	      -2.965	      13.698	     -26.663	       6.642	      -3.527	    -165.886
	57.500000000	      -1.316	     167.689	      -3.058	      13.020	     -26.827	       6.730	      -3.468	    -166.064
	58.000000000	      -1.300	     167.438	      -3.152	      12.555	     -27.012	       5.075	      -3.439	    -166.412
	58.500000000	      -1.269	     167.280	      -3.224	      11.884	     -26.906	       7.764	      -3.399	    -166.703
	59.000000000	      -1.260	     167.054	      -3.303	      11.133	     -26.995	       7.561	      -3.343	    -166.885
	59.500000000	      -1.271	     166.817	      -3.405	      10.386	     -26.704	       7.867	      -3.307	    -167.278
	60.000000000	      -1.272	     166.630	      -3.497	       9.932	     -26.900	       7.833	      -3.330	    -167.683
	60.500000000	      -1.246	     166.355	      -3.597	       9.172	     -26.898	       5.734	      -3.303	    -167.669
	61.000000000	      -1.200	     166.135	      -3.712	       8.781	     -27.031	       8.941	      -3.270	    -167.902
	61.500000000	      -1.205	     165.897	      -3.807	       8.261	     -26.949	       8.284	      -3.245	    -168.181
	62.000000000	      -1.203	     165.606	      -3.886	       7.662	     -27.365	       8.871	      -3.205	    -168.404
	62.500000000	      -1.198	     165.323	      -3.982	       7.087	     -27.279	       9.665	      -3.178	    -168.376
	63.000000000	      -1.185	     164.930	      -4.034	       6.328	     -26.908	      10.248	      -3.134	    -168.444
	63.500000000	      -1.179	     164.706	      -4.127	       5.583	     -27.087	       9.418	      -3.089	    -168.691
	64.000000000	      -1.185	     164.820	      -4.208	       4.848	     -26.969	       9.289	      -3.016	    -168.723
	64.500000000	      -1.154	     164.694	      -4.298	       4.115	     -26.916	       9.012	      -2.977	    -168.671
	65.000000000	      -1.177	     164.305	      -4.422	       3.200	     -26.716	       9.421	      -2.901	    -169.147
	65.500000000	      -1.151	     163.832	      -4.507	       2.598	     -26.701	       9.589	      -2.903	    -169.707
	66.000000000	      -1.153	     163.491	      -4.625	       1.809	     -26.822	       8.239	      -2.871	    -170.214
	66.500000000	      -1.157	     163.333	      -4.715	       1.130	     -26.780	       8.797	      -2.834	    -170.022
	67.000000000	      -1.200	     162.913	      -4.886	       0.487	     -26.793	       9.623	      -2.813	    -170.088
	67.500000000	      -1.201	     162.285	      -4.999	      -0.244	     -26.854	       9.335	      -2.805	    -170.725
	68.000000000	      -1.233	     162.143	      -5.111	      -0.902	     -26.850	       9.135	      -2.836	    -170.953
	68.500000000	      -1.264	     161.959	      -5.222	      -1.366	     -26.851	       8.802	      -2.782	    -171.158
	69.000000000	      -1.290	     161.760	      -5.346	      -1.906	     -26.867	       8.049	      -2.733	    -171.340
	69.500000000	      -1.290	     161.565	      -5.469	      -2.319	     -26.979	       8.201	      -2.713	    -171.480
	70.000000000	      -1.274	     161.396	      -5.568	      -2.770	     -27.038	       8.893	      -2.683	    -171.575
	70.500000000	      -1.256	     161.245	      -5.660	      -3.185	     -26.943	       9.073	      -2.652	    -171.725
	71.000000000	      -1.244	     161.061	      -5.751	      -3.560	     -26.902	       9.044	      -2.628	    -171.997
	71.500000000	      -1.211	     160.889	      -5.865	      -4.136	     -26.883	       8.818	      -2.550	    -172.194
	72.000000000	      -1.200	     160.584	      -5.963	      -4.521	     -26.863	       8.157	      -2.546	    -172.436
	72.500000000	      -1.224	     160.228	      -6.058	      -5.234	     -26.929	       7.336	      -2.524	    -172.708
	73.000000000	      -1.248	     160.047	      -6.161	      -5.762	     -27.012	       6.880	      -2.483	    -172.854
	73.500000000	      -1.267	     159.933	      -6.269	      -6.340	     -27.183	       6.911	      -2.406	    -173.138
	74.000000000	      -1.271	     159.681	      -6.368	      -6.824	     -27.204	       7.396	      -2.404	    -173.662
	74.500000000	      -1.298	     159.478	      -6.454	      -7.292	     -27.208	       7.710	      -2.419	    -173.892
	75.000000000	      -1.328	     159.413	      -6.558	      -7.861	     -27.253	       7.633	      -2.405	    -174.059
	75.500000000	      -1.355	     159.391	      -6.682	      -8.503	     -27.422	       7.335	      -2.391	    -174.221
	76.000000000	      -1.354	     159.463	      -6.808	      -9.063	     -27.691	       7.965	      -2.393	    -174.360
	76.500000000	      -1.345	     159.527	      -6.962	      -9.419	     -27.954	      10.744	      -2.385	    -174.346
	77.000000000	      -1.328	     159.553	      -7.102	      -9.499	     -27.889	      14.826	      -2.350	    -174.223
	77.500000000	      -1.262	     159.484	      -7.176	      -9.282	     -27.353	      17.752	      -2.277	    -174.260
	78.000000000	      -1.177	     159.374	      -7.208	      -9.252	     -26.765	      18.195	      -2.221	    -174.336
	78.500000000	      -1.115	     158.970	      -7.232	      -9.643	     -26.332	      17.062	      -2.176	    -174.647
	79.000000000	      -1.102	     158.347	      -7.272	     -10.145	     -26.032	      15.544	      -2.122	    -174.972
	79.500000000	      -1.117	     157.840	      -7.305	     -10.850	     -25.785	      13.702	      -2.085	    -175.265
