!File name = EG0520U_1010_6x60_2SDBCB2EV_1915934D06_RC2943_2.5Vd_27mA.s2p
!Base file name = EG0520U_1010_6x60_2SDBCB2EV_1915934D06_RC2943
!Date = 8/23/2019
!Time = 1:02 PM
!Test duration(min) = 0.15
!Test = S-Parameters
!MPTS version = 8.91.5
!State File = C:\Data\PNA\20190821205423\S-Parameters_2019-08-23.sta
!Cal File = 
!ComputerName = CMPE-LAB-6
!Comments = 
!Attenuation = 0
!Z0 = 50
!Input Power(dBm) = -13.00
!Device ID = EG0520U_1010_6x60_2SDBCB2EV
!Row = 29
!Column = 43
!Technology = QPHT09
!Lot/Wafer = 1915934D06
!Gate Size = 360
!Mask = EG0520
!Cal Standards = GaAs BCB
!Cal Kit = EG2306
!Job Number = 20190821205423
!Device Type = FET
!set_Vg(v) = -1.500
!set_Vd(v) = 2.500
!set_Vd(mA) = 27.000
!file_name = EG0520U_1010_6x60_2SDBCB2EV_1915934D06_RC2943_2.5Vd_27mA.s2p
!Vd(V) = 2.500
!Vd(mA) = 26.999
!Vg(V) = -0.547
!Vg(mA) = -0.002
# GHz   S   DB   R   50
!%	Freq(GHz)	     s11(dB)	    s11(deg)	     s21(dB)	    s21(deg)	     s12(dB)	    s12(deg)	     s22(dB)	    s22(deg)
	0.500000000	      -0.039	     -13.677	      20.882	     171.677	     -37.999	      81.572	      -9.828	     -17.177
	1.000000000	      -0.123	     -27.088	      20.544	     163.277	     -32.195	      74.283	      -9.699	     -32.867
	1.500000000	      -0.165	     -39.825	      20.236	     156.566	     -29.004	      67.184	      -9.411	     -47.576
	2.000000000	      -0.317	     -51.631	      19.970	     149.110	     -26.962	      60.415	      -9.132	     -61.649
	2.500000000	      -0.414	     -62.607	      19.579	     142.899	     -25.559	      54.740	      -9.021	     -72.870
	3.000000000	      -0.813	     -70.140	      18.916	     137.800	     -24.709	      50.469	      -9.296	     -77.775
	3.500000000	      -0.937	     -78.867	      18.414	     132.740	     -23.919	      46.028	      -9.145	     -86.088
	4.000000000	      -1.046	     -86.600	      17.882	     128.339	     -23.312	      42.063	      -9.005	     -93.281
	4.500000000	      -1.169	     -93.497	      17.339	     124.092	     -22.856	      38.453	      -8.874	     -99.824
	5.000000000	      -1.249	     -99.655	      16.816	     120.508	     -22.493	      35.337	      -8.783	    -105.323
	5.500000000	      -1.331	    -105.291	      16.300	     117.090	     -22.215	      32.616	      -8.721	    -110.175
	6.000000000	      -1.402	    -110.327	      15.800	     113.985	     -21.978	      30.115	      -8.634	    -114.292
	6.500000000	      -1.457	    -114.817	      15.311	     111.231	     -21.789	      27.856	      -8.562	    -117.951
	7.000000000	      -1.510	    -118.879	      14.838	     108.597	     -21.639	      25.824	      -8.497	    -121.148
	7.500000000	      -1.548	    -122.562	      14.378	     106.196	     -21.517	      23.962	      -8.434	    -124.031
	8.000000000	      -1.567	    -125.669	      13.956	     104.095	     -21.391	      22.469	      -8.415	    -126.016
	8.500000000	      -1.602	    -128.783	      13.530	     102.005	     -21.304	      20.862	      -8.366	    -128.311
	9.000000000	      -1.636	    -131.572	      13.110	     100.051	     -21.229	      19.379	      -8.316	    -130.377
	9.500000000	      -1.661	    -134.191	      12.719	      98.150	     -21.168	      17.973	      -8.268	    -132.204
	10.000000000	      -1.680	    -136.602	      12.338	      96.384	     -21.131	      16.660	      -8.219	    -133.953
	10.500000000	      -1.703	    -138.879	      11.971	      94.657	     -21.098	      15.494	      -8.177	    -135.503
	11.000000000	      -1.719	    -140.947	      11.616	      93.059	     -21.075	      14.405	      -8.137	    -136.884
	11.500000000	      -1.740	    -142.905	      11.269	      91.497	     -21.059	      13.373	      -8.094	    -138.165
	12.000000000	      -1.757	    -144.722	      10.937	      90.018	     -21.055	      12.460	      -8.049	    -139.286
	12.500000000	      -1.766	    -146.408	      10.615	      88.607	     -21.043	      11.549	      -8.000	    -140.433
	13.000000000	      -1.780	    -147.998	      10.301	      87.215	     -21.042	      10.693	      -7.957	    -141.440
	13.500000000	      -1.788	    -149.493	      10.001	      85.899	     -21.044	       9.852	      -7.905	    -142.273
	14.000000000	      -1.799	    -150.944	       9.707	      84.605	     -21.054	       9.096	      -7.854	    -143.094
	14.500000000	      -1.803	    -152.258	       9.422	      83.341	     -21.068	       8.409	      -7.810	    -143.925
	15.000000000	      -1.809	    -153.443	       9.142	      82.134	     -21.085	       7.727	      -7.772	    -144.736
	15.500000000	      -1.819	    -154.619	       8.871	      80.939	     -21.100	       7.174	      -7.728	    -145.371
	16.000000000	      -1.824	    -155.768	       8.608	      79.772	     -21.104	       6.540	      -7.674	    -145.977
	16.500000000	      -1.829	    -156.893	       8.351	      78.623	     -21.122	       5.902	      -7.626	    -146.565
	17.000000000	      -1.831	    -157.928	       8.102	      77.509	     -21.156	       5.322	      -7.584	    -147.103
	17.500000000	      -1.840	    -158.865	       7.855	      76.424	     -21.170	       4.826	      -7.531	    -147.687
	18.000000000	      -1.850	    -159.796	       7.618	      75.360	     -21.207	       4.266	      -7.480	    -148.244
	18.500000000	      -1.850	    -160.702	       7.386	      74.314	     -21.214	       3.725	      -7.421	    -148.700
	19.000000000	      -1.851	    -161.575	       7.157	      73.280	     -21.260	       3.134	      -7.370	    -149.155
	19.500000000	      -1.850	    -162.390	       6.935	      72.279	     -21.316	       2.675	      -7.330	    -149.564
	20.000000000	      -1.859	    -163.163	       6.720	      71.311	     -21.366	       2.523	      -7.289	    -150.002
	20.500000000	      -1.859	    -163.901	       6.514	      70.329	     -21.380	       2.226	      -7.233	    -150.359
	21.000000000	      -1.859	    -164.651	       6.307	      69.357	     -21.391	       1.834	      -7.173	    -150.761
	21.500000000	      -1.853	    -165.388	       6.103	      68.391	     -21.418	       1.427	      -7.119	    -151.100
	22.000000000	      -1.851	    -165.992	       5.905	      67.469	     -21.449	       0.959	      -7.062	    -151.455
	22.500000000	      -1.850	    -166.635	       5.707	      66.519	     -21.479	       0.458	      -7.014	    -151.837
	23.000000000	      -1.853	    -167.299	       5.511	      65.592	     -21.535	       0.030	      -6.961	    -152.289
	23.500000000	      -1.854	    -167.898	       5.322	      64.737	     -21.630	      -0.254	      -6.914	    -152.718
	24.000000000	      -1.853	    -168.493	       5.143	      63.869	     -21.693	      -0.200	      -6.871	    -152.982
	24.500000000	      -1.843	    -168.983	       4.969	      62.970	     -21.693	      -0.285	      -6.822	    -153.146
	25.000000000	      -1.828	    -169.461	       4.793	      62.056	     -21.678	      -0.593	      -6.767	    -153.414
	25.500000000	      -1.820	    -170.075	       4.618	      61.180	     -21.717	      -1.024	      -6.708	    -153.720
	26.000000000	      -1.825	    -170.683	       4.440	      60.310	     -21.761	      -1.499	      -6.638	    -154.067
	26.500000000	      -1.822	    -171.197	       4.270	      59.464	     -21.819	      -1.801	      -6.578	    -154.343
	27.000000000	      -1.814	    -171.584	       4.104	      58.647	     -21.873	      -2.113	      -6.528	    -154.671
	27.500000000	      -1.810	    -171.966	       3.948	      57.887	     -21.965	      -2.107	      -6.489	    -154.877
	28.000000000	      -1.799	    -172.496	       3.798	      57.051	     -22.008	      -1.991	      -6.433	    -155.140
	28.500000000	      -1.788	    -173.025	       3.645	      56.126	     -21.979	      -2.096	      -6.362	    -155.427
	29.000000000	      -1.781	    -173.475	       3.484	      55.243	     -21.987	      -2.544	      -6.304	    -155.752
	29.500000000	      -1.773	    -173.890	       3.326	      54.446	     -22.028	      -2.876	      -6.248	    -156.053
	30.000000000	      -1.764	    -174.292	       3.176	      53.676	     -22.099	      -3.302	      -6.206	    -156.292
	30.500000000	      -1.761	    -174.761	       3.026	      52.854	     -22.134	      -3.493	      -6.154	    -156.604
	31.000000000	      -1.747	    -175.225	       2.877	      52.064	     -22.189	      -3.623	      -6.105	    -156.900
	31.500000000	      -1.735	    -175.648	       2.743	      51.266	     -22.298	      -3.634	      -6.062	    -157.177
	32.000000000	      -1.735	    -175.993	       2.598	      50.460	     -22.325	      -3.581	      -6.011	    -157.368
	32.500000000	      -1.743	    -176.432	       2.454	      49.623	     -22.319	      -3.948	      -5.944	    -157.523
	33.000000000	      -1.740	    -176.864	       2.311	      48.869	     -22.367	      -3.970	      -5.891	    -157.803
	33.500000000	      -1.725	    -177.241	       2.168	      48.118	     -22.435	      -4.289	      -5.841	    -158.098
	34.000000000	      -1.711	    -177.601	       2.031	      47.297	     -22.501	      -4.276	      -5.782	    -158.488
	34.500000000	      -1.708	    -178.020	       1.882	      46.515	     -22.523	      -4.721	      -5.716	    -158.668
	35.000000000	      -1.705	    -178.410	       1.744	      45.757	     -22.599	      -4.743	      -5.668	    -159.033
	35.500000000	      -1.704	    -178.794	       1.621	      45.014	     -22.629	      -4.833	      -5.627	    -159.196
	36.000000000	      -1.697	    -179.170	       1.487	      44.246	     -22.613	      -4.773	      -5.567	    -159.473
	36.500000000	      -1.688	    -179.438	       1.353	      43.481	     -22.653	      -4.993	      -5.510	    -159.757
	37.000000000	      -1.684	    -179.713	       1.218	      42.768	     -22.711	      -5.292	      -5.460	    -160.004
	37.500000000	      -1.687	     179.875	       1.084	      42.015	     -22.789	      -5.192	      -5.421	    -160.284
	38.000000000	      -1.682	     179.525	       0.952	      41.355	     -22.857	      -5.838	      -5.371	    -160.491
	38.500000000	      -1.669	     179.153	       0.818	      40.623	     -22.942	      -6.100	      -5.307	    -160.849
	39.000000000	      -1.668	     178.856	       0.692	      39.950	     -22.959	      -6.003	      -5.266	    -161.121
	39.500000000	      -1.678	     178.612	       0.564	      39.304	     -23.054	      -5.787	      -5.212	    -161.426
	40.000000000	      -1.680	     178.253	       0.451	      38.666	     -23.108	      -5.824	      -5.151	    -161.642
	40.500000000	      -1.678	     177.883	       0.332	      37.963	     -23.150	      -5.561	      -5.087	    -161.911
	41.000000000	      -1.660	     177.640	       0.219	      37.244	     -23.122	      -5.724	      -5.049	    -162.252
	41.500000000	      -1.652	     177.465	       0.102	      36.590	     -23.183	      -5.936	      -5.009	    -162.429
	42.000000000	      -1.657	     177.165	      -0.012	      35.883	     -23.221	      -6.466	      -4.949	    -162.621
	42.500000000	      -1.671	     176.808	      -0.137	      35.255	     -23.361	      -6.472	      -4.908	    -162.728
	43.000000000	      -1.669	     176.610	      -0.241	      34.684	     -23.431	      -6.075	      -4.848	    -163.045
	43.500000000	      -1.652	     176.403	      -0.345	      33.902	     -23.460	      -5.790	      -4.802	    -163.408
	44.000000000	      -1.648	     176.188	      -0.466	      33.177	     -23.360	      -6.165	      -4.746	    -163.663
	44.500000000	      -1.654	     175.740	      -0.579	      32.515	     -23.456	      -6.155	      -4.688	    -163.950
	45.000000000	      -1.662	     175.476	      -0.700	      31.857	     -23.465	      -6.065	      -4.636	    -164.284
	45.500000000	      -1.617	     175.088	      -0.967	      31.360	     -23.745	      -6.710	      -4.499	    -164.985
	46.000000000	      -1.592	     174.845	      -1.092	      30.733	     -23.799	      -6.919	      -4.460	    -165.253
	46.500000000	      -1.582	     174.536	      -1.198	      30.168	     -23.833	      -6.766	      -4.401	    -165.392
	47.000000000	      -1.581	     174.213	      -1.296	      29.527	     -23.951	      -6.593	      -4.338	    -165.598
	47.500000000	      -1.576	     173.937	      -1.401	      28.821	     -23.979	      -6.567	      -4.308	    -165.839
	48.000000000	      -1.560	     173.670	      -1.513	      28.155	     -23.932	      -5.949	      -4.272	    -166.051
	48.500000000	      -1.559	     173.360	      -1.622	      27.573	     -23.975	      -6.068	      -4.211	    -166.300
	49.000000000	      -1.572	     173.169	      -1.735	      26.971	     -23.980	      -6.519	      -4.145	    -166.509
	49.500000000	      -1.579	     172.965	      -1.844	      26.474	     -24.097	      -7.176	      -4.105	    -166.787
	50.000000000	      -1.560	     172.709	      -1.964	      25.902	     -24.281	      -6.594	      -4.083	    -167.134
	50.500000000	      -1.559	     172.443	      -2.042	      25.252	     -24.189	      -6.992	      -4.054	    -167.580
	51.000000000	      -1.533	     172.157	      -2.145	      24.790	     -24.258	      -5.175	      -4.042	    -167.802
	51.500000000	      -1.537	     172.015	      -2.248	      24.141	     -24.261	      -5.468	      -3.983	    -168.231
	52.000000000	      -1.515	     171.811	      -2.349	      23.442	     -24.227	      -5.702	      -3.956	    -168.336
	52.500000000	      -1.509	     171.432	      -2.468	      22.941	     -24.319	      -5.928	      -3.921	    -168.511
	53.000000000	      -1.507	     171.126	      -2.554	      22.330	     -24.333	      -5.761	      -3.868	    -168.610
	53.500000000	      -1.499	     171.005	      -2.654	      21.804	     -24.501	      -5.900	      -3.827	    -168.801
	54.000000000	      -1.493	     170.716	      -2.743	      21.259	     -24.343	      -5.880	      -3.768	    -169.059
	54.500000000	      -1.492	     170.325	      -2.835	      20.776	     -24.410	      -5.442	      -3.732	    -169.280
	55.000000000	      -1.497	     170.011	      -2.913	      20.133	     -24.452	      -6.103	      -3.685	    -169.474
	55.500000000	      -1.494	     169.729	      -2.999	      19.519	     -24.451	      -6.399	      -3.637	    -169.716
	56.000000000	      -1.478	     169.425	      -3.080	      18.948	     -24.330	      -5.646	      -3.607	    -170.160
	56.500000000	      -1.500	     169.224	      -3.181	      18.304	     -24.441	      -8.364	      -3.584	    -170.651
	57.000000000	      -1.490	     169.063	      -3.307	      17.645	     -24.603	      -7.742	      -3.551	    -170.762
	57.500000000	      -1.476	     168.907	      -3.403	      17.264	     -24.669	      -7.502	      -3.528	    -171.117
	58.000000000	      -1.460	     168.889	      -3.467	      16.653	     -24.737	      -7.487	      -3.502	    -171.251
	58.500000000	      -1.440	     168.565	      -3.551	      16.092	     -24.819	      -7.633	      -3.455	    -171.619
	59.000000000	      -1.429	     168.184	      -3.619	      15.303	     -24.826	      -8.012	      -3.432	    -171.767
	59.500000000	      -1.432	     168.057	      -3.720	      14.717	     -24.748	      -7.343	      -3.390	    -171.970
	60.000000000	      -1.426	     167.892	      -3.805	      14.193	     -24.881	      -7.006	      -3.420	    -172.335
	60.500000000	      -1.394	     167.724	      -3.912	      13.454	     -24.915	      -8.327	      -3.406	    -172.313
	61.000000000	      -1.365	     167.437	      -4.013	      13.092	     -24.899	      -7.405	      -3.351	    -172.534
	61.500000000	      -1.363	     167.191	      -4.118	      12.482	     -25.068	      -7.359	      -3.319	    -172.876
	62.000000000	      -1.351	     166.848	      -4.170	      11.854	     -24.973	      -7.299	      -3.322	    -172.869
	62.500000000	      -1.356	     166.579	      -4.259	      11.351	     -25.136	      -6.099	      -3.301	    -172.908
	63.000000000	      -1.334	     166.175	      -4.341	      10.800	     -25.077	      -6.469	      -3.239	    -172.792
	63.500000000	      -1.334	     166.049	      -4.407	      10.102	     -25.071	      -6.667	      -3.205	    -173.356
	64.000000000	      -1.333	     166.070	      -4.482	       9.198	     -25.015	      -5.973	      -3.174	    -173.379
	64.500000000	      -1.304	     166.012	      -4.567	       8.492	     -24.814	      -6.930	      -3.156	    -173.249
	65.000000000	      -1.311	     165.643	      -4.675	       7.959	     -25.325	      -8.516	      -3.079	    -173.488
	65.500000000	      -1.309	     165.087	      -4.782	       7.327	     -25.109	      -8.120	      -3.054	    -173.909
	66.000000000	      -1.303	     164.794	      -4.921	       6.484	     -25.285	      -7.781	      -3.034	    -174.389
	66.500000000	      -1.312	     164.669	      -4.985	       5.963	     -25.648	      -5.856	      -2.995	    -174.197
	67.000000000	      -1.343	     164.368	      -5.106	       5.172	     -25.237	      -7.016	      -3.006	    -174.305
	67.500000000	      -1.349	     163.707	      -5.250	       4.519	     -25.282	      -7.321	      -2.978	    -174.614
	68.000000000	      -1.385	     163.544	      -5.355	       3.945	     -25.298	      -7.316	      -2.995	    -174.929
	68.500000000	      -1.414	     163.340	      -5.436	       3.490	     -25.300	      -7.623	      -2.966	    -174.902
	69.000000000	      -1.437	     163.163	      -5.564	       2.988	     -25.348	      -8.099	      -2.900	    -175.154
	69.500000000	      -1.429	     162.968	      -5.667	       2.597	     -25.468	      -8.380	      -2.883	    -175.214
	70.000000000	      -1.414	     162.812	      -5.754	       2.190	     -25.493	      -7.775	      -2.859	    -175.269
	70.500000000	      -1.394	     162.615	      -5.848	       1.733	     -25.483	      -7.521	      -2.814	    -175.382
	71.000000000	      -1.390	     162.391	      -5.929	       1.319	     -25.478	      -7.698	      -2.785	    -175.503
	71.500000000	      -1.347	     162.199	      -6.031	       0.833	     -25.455	      -7.800	      -2.710	    -175.719
	72.000000000	      -1.348	     161.932	      -6.109	       0.448	     -25.450	      -8.195	      -2.728	    -175.965
	72.500000000	      -1.360	     161.598	      -6.188	      -0.192	     -25.462	      -8.924	      -2.708	    -176.158
	73.000000000	      -1.378	     161.444	      -6.277	      -0.729	     -25.538	      -9.385	      -2.666	    -176.301
	73.500000000	      -1.398	     161.328	      -6.372	      -1.309	     -25.667	      -9.681	      -2.595	    -176.516
	74.000000000	      -1.396	     161.100	      -6.458	      -1.809	     -25.730	      -9.519	      -2.593	    -177.007
	74.500000000	      -1.424	     160.893	      -6.537	      -2.365	     -25.739	      -9.429	      -2.608	    -177.224
	75.000000000	      -1.447	     160.827	      -6.630	      -3.017	     -25.798	      -9.906	      -2.585	    -177.330
	75.500000000	      -1.467	     160.787	      -6.750	      -3.694	     -25.924	     -10.311	      -2.584	    -177.454
	76.000000000	      -1.468	     160.867	      -6.875	      -4.283	     -26.215	     -10.557	      -2.594	    -177.553
	76.500000000	      -1.460	     160.908	      -7.031	      -4.659	     -26.567	      -9.032	      -2.595	    -177.474
	77.000000000	      -1.441	     160.957	      -7.176	      -4.741	     -26.716	      -5.671	      -2.554	    -177.244
	77.500000000	      -1.382	     160.838	      -7.257	      -4.481	     -26.443	      -2.088	      -2.479	    -177.227
	78.000000000	      -1.297	     160.740	      -7.291	      -4.385	     -25.997	      -0.667	      -2.432	    -177.319
	78.500000000	      -1.236	     160.253	      -7.309	      -4.710	     -25.600	      -0.477	      -2.386	    -177.583
	79.000000000	      -1.224	     159.700	      -7.353	      -5.180	     -25.295	      -1.476	      -2.320	    -177.776
	79.500000000	      -1.230	     159.161	      -7.374	      -5.776	     -25.003	      -2.703	      -2.276	    -178.026
