!File name = EG0520U_1010_6x60_2SDBCB2EV_1915934D06_RC4034_2.5Vd_45mA.s2p
!Base file name = EG0520U_1010_6x60_2SDBCB2EV_1915934D06_RC4034
!Date = 8/23/2019
!Time = 12:56 PM
!Test duration(min) = 0.15
!Test = S-Parameters
!MPTS version = 8.91.5
!State File = C:\Data\PNA\20190821205423\S-Parameters_2019-08-23.sta
!Cal File = 
!ComputerName = CMPE-LAB-6
!Comments = 
!Attenuation = 0
!Z0 = 50
!Input Power(dBm) = -13.00
!Device ID = EG0520U_1010_6x60_2SDBCB2EV
!Row = 40
!Column = 34
!Technology = QPHT09
!Lot/Wafer = 1915934D06
!Gate Size = 360
!Mask = EG0520
!Cal Standards = GaAs BCB
!Cal Kit = EG2306
!Job Number = 20190821205423
!Device Type = FET
!set_Vg(v) = -1.500
!set_Vd(v) = 2.500
!set_Vd(mA) = 45.000
!file_name = EG0520U_1010_6x60_2SDBCB2EV_1915934D06_RC4034_2.5Vd_45mA.s2p
!Vd(V) = 2.500
!Vd(mA) = 45.135
!Vg(V) = -0.468
!Vg(mA) = -0.001
# GHz   S   DB   R   50
!%	Freq(GHz)	     s11(dB)	    s11(deg)	     s21(dB)	    s21(deg)	     s12(dB)	    s12(deg)	     s22(dB)	    s22(deg)
	0.500000000	      -0.034	     -14.790	      22.120	     171.064	     -38.959	      81.440	     -11.088	     -19.933
	1.000000000	      -0.117	     -29.242	      21.696	     162.438	     -33.194	      73.643	     -10.839	     -37.676
	1.500000000	      -0.162	     -42.846	      21.339	     155.150	     -30.043	      66.215	     -10.376	     -53.787
	2.000000000	      -0.308	     -55.224	      21.054	     147.700	     -28.045	      59.343	      -9.922	     -68.684
	2.500000000	      -0.405	     -66.644	      20.617	     141.306	     -26.676	      53.530	      -9.660	     -80.230
	3.000000000	      -0.802	     -74.361	      19.923	     136.270	     -25.863	      49.247	      -9.908	     -85.308
	3.500000000	      -0.922	     -83.193	      19.362	     131.194	     -25.112	      44.854	      -9.663	     -93.565
	4.000000000	      -1.020	     -90.973	      18.791	     126.803	     -24.546	      40.950	      -9.449	    -100.585
	4.500000000	      -1.124	     -97.877	      18.222	     122.669	     -24.120	      37.462	      -9.260	    -106.830
	5.000000000	      -1.197	    -103.981	      17.667	     119.122	     -23.784	      34.478	      -9.119	    -112.012
	5.500000000	      -1.267	    -109.501	      17.126	     115.800	     -23.522	      31.820	      -9.009	    -116.531
	6.000000000	      -1.325	    -114.391	      16.601	     112.818	     -23.307	      29.431	      -8.893	    -120.343
	6.500000000	      -1.372	    -118.753	      16.094	     110.140	     -23.136	      27.308	      -8.795	    -123.695
	7.000000000	      -1.415	    -122.695	      15.605	     107.604	     -22.996	      25.407	      -8.707	    -126.603
	7.500000000	      -1.445	    -126.236	      15.132	     105.305	     -22.885	      23.696	      -8.626	    -129.231
	8.000000000	      -1.455	    -129.226	      14.700	     103.283	     -22.763	      22.288	      -8.599	    -130.951
	8.500000000	      -1.484	    -132.212	      14.263	     101.290	     -22.683	      20.822	      -8.539	    -133.024
	9.000000000	      -1.513	    -134.902	      13.836	      99.419	     -22.623	      19.402	      -8.479	    -134.843
	9.500000000	      -1.530	    -137.405	      13.437	      97.603	     -22.570	      18.122	      -8.420	    -136.466
	10.000000000	      -1.545	    -139.713	      13.049	      95.915	     -22.544	      16.945	      -8.369	    -137.980
	10.500000000	      -1.565	    -141.879	      12.675	      94.265	     -22.521	      15.888	      -8.321	    -139.370
	11.000000000	      -1.576	    -143.841	      12.317	      92.744	     -22.498	      14.953	      -8.273	    -140.547
	11.500000000	      -1.594	    -145.715	      11.964	      91.257	     -22.493	      14.022	      -8.226	    -141.658
	12.000000000	      -1.607	    -147.439	      11.630	      89.844	     -22.488	      13.193	      -8.173	    -142.659
	12.500000000	      -1.614	    -149.046	      11.304	      88.495	     -22.479	      12.419	      -8.122	    -143.606
	13.000000000	      -1.622	    -150.554	      10.988	      87.167	     -22.478	      11.699	      -8.073	    -144.480
	13.500000000	      -1.629	    -152.002	      10.685	      85.902	     -22.486	      10.880	      -8.020	    -145.190
	14.000000000	      -1.640	    -153.387	      10.387	      84.664	     -22.503	      10.277	      -7.971	    -145.891
	14.500000000	      -1.645	    -154.620	      10.099	      83.465	     -22.521	       9.673	      -7.925	    -146.574
	15.000000000	      -1.650	    -155.737	       9.818	      82.312	     -22.539	       9.153	      -7.886	    -147.270
	15.500000000	      -1.654	    -156.859	       9.546	      81.168	     -22.547	       8.656	      -7.839	    -147.799
	16.000000000	      -1.658	    -157.971	       9.281	      80.051	     -22.555	       8.045	      -7.783	    -148.313
	16.500000000	      -1.663	    -159.029	       9.022	      78.959	     -22.580	       7.519	      -7.733	    -148.797
	17.000000000	      -1.663	    -160.027	       8.773	      77.893	     -22.615	       7.032	      -7.692	    -149.247
	17.500000000	      -1.670	    -160.931	       8.525	      76.849	     -22.636	       6.669	      -7.641	    -149.749
	18.000000000	      -1.678	    -161.816	       8.288	      75.832	     -22.670	       6.149	      -7.589	    -150.222
	18.500000000	      -1.679	    -162.684	       8.054	      74.836	     -22.694	       5.724	      -7.533	    -150.593
	19.000000000	      -1.677	    -163.508	       7.825	      73.851	     -22.736	       5.247	      -7.482	    -150.908
	19.500000000	      -1.676	    -164.298	       7.604	      72.888	     -22.787	       4.922	      -7.440	    -151.290
	20.000000000	      -1.682	    -165.061	       7.387	      71.947	     -22.861	       4.755	      -7.402	    -151.681
	20.500000000	      -1.687	    -165.767	       7.179	      71.012	     -22.880	       4.705	      -7.349	    -151.941
	21.000000000	      -1.686	    -166.439	       6.973	      70.087	     -22.886	       4.471	      -7.291	    -152.259
	21.500000000	      -1.678	    -167.168	       6.770	      69.152	     -22.908	       4.202	      -7.236	    -152.531
	22.000000000	      -1.669	    -167.806	       6.571	      68.248	     -22.921	       3.830	      -7.179	    -152.821
	22.500000000	      -1.667	    -168.425	       6.373	      67.325	     -22.943	       3.396	      -7.128	    -153.122
	23.000000000	      -1.671	    -169.038	       6.177	      66.439	     -23.001	       3.022	      -7.078	    -153.501
	23.500000000	      -1.669	    -169.710	       5.985	      65.582	     -23.093	       2.666	      -7.032	    -153.921
	24.000000000	      -1.678	    -170.310	       5.800	      64.764	     -23.187	       2.806	      -7.000	    -154.130
	24.500000000	      -1.672	    -170.759	       5.625	      63.920	     -23.170	       2.941	      -6.950	    -154.201
	25.000000000	      -1.659	    -171.249	       5.449	      63.028	     -23.167	       2.764	      -6.894	    -154.365
	25.500000000	      -1.659	    -171.818	       5.270	      62.188	     -23.228	       2.523	      -6.835	    -154.631
	26.000000000	      -1.665	    -172.409	       5.094	      61.379	     -23.239	       2.079	      -6.763	    -154.929
	26.500000000	      -1.661	    -172.891	       4.924	      60.550	     -23.288	       1.872	      -6.707	    -155.178
	27.000000000	      -1.654	    -173.297	       4.756	      59.759	     -23.352	       1.465	      -6.656	    -155.472
	27.500000000	      -1.661	    -173.704	       4.593	      59.039	     -23.469	       1.699	      -6.632	    -155.555
	28.000000000	      -1.660	    -174.204	       4.439	      58.273	     -23.555	       2.134	      -6.581	    -155.796
	28.500000000	      -1.637	    -174.623	       4.297	      57.396	     -23.463	       2.332	      -6.502	    -155.958
	29.000000000	      -1.630	    -175.112	       4.133	      56.521	     -23.479	       1.999	      -6.442	    -156.287
	29.500000000	      -1.631	    -175.524	       3.971	      55.757	     -23.537	       1.612	      -6.389	    -156.549
	30.000000000	      -1.629	    -175.969	       3.818	      55.037	     -23.620	       1.480	      -6.342	    -156.738
	30.500000000	      -1.628	    -176.367	       3.668	      54.264	     -23.632	       1.167	      -6.296	    -156.975
	31.000000000	      -1.620	    -176.778	       3.520	      53.544	     -23.708	       1.153	      -6.251	    -157.212
	31.500000000	      -1.608	    -177.174	       3.388	      52.820	     -23.806	       1.713	      -6.207	    -157.419
	32.000000000	      -1.603	    -177.494	       3.249	      52.004	     -23.797	       1.765	      -6.142	    -157.585
	32.500000000	      -1.610	    -177.930	       3.104	      51.162	     -23.765	       1.677	      -6.081	    -157.761
	33.000000000	      -1.606	    -178.361	       2.960	      50.441	     -23.781	       1.420	      -6.030	    -158.027
	33.500000000	      -1.597	    -178.750	       2.816	      49.713	     -23.848	       1.301	      -5.979	    -158.286
	34.000000000	      -1.588	    -179.115	       2.673	      48.981	     -23.898	       1.145	      -5.927	    -158.583
	34.500000000	      -1.590	    -179.525	       2.526	      48.237	     -23.926	       1.033	      -5.860	    -158.783
	35.000000000	      -1.597	    -179.842	       2.388	      47.558	     -24.021	       0.794	      -5.815	    -159.067
	35.500000000	      -1.588	     179.835	       2.273	      46.868	     -24.087	       1.459	      -5.772	    -159.174
	36.000000000	      -1.583	     179.498	       2.143	      46.079	     -24.022	       1.474	      -5.714	    -159.389
	36.500000000	      -1.573	     179.197	       2.011	      45.354	     -24.098	       1.408	      -5.656	    -159.639
	37.000000000	      -1.572	     178.956	       1.880	      44.663	     -24.098	       1.012	      -5.605	    -159.902
	37.500000000	      -1.570	     178.625	       1.751	      43.964	     -24.201	       0.602	      -5.562	    -160.151
	38.000000000	      -1.563	     178.274	       1.622	      43.285	     -24.217	       0.894	      -5.510	    -160.366
	38.500000000	      -1.557	     177.926	       1.488	      42.615	     -24.309	       0.331	      -5.454	    -160.733
	39.000000000	      -1.555	     177.676	       1.374	      41.984	     -24.402	       0.885	      -5.406	    -160.919
	39.500000000	      -1.547	     177.498	       1.259	      41.362	     -24.436	       1.038	      -5.357	    -161.186
	40.000000000	      -1.533	     177.119	       1.151	      40.607	     -24.397	       1.260	      -5.293	    -161.409
	40.500000000	      -1.523	     176.703	       1.025	      39.872	     -24.439	       1.158	      -5.237	    -161.635
	41.000000000	      -1.514	     176.361	       0.902	      39.138	     -24.508	       0.885	      -5.203	    -161.980
	41.500000000	      -1.509	     176.162	       0.786	      38.521	     -24.546	       1.281	      -5.169	    -162.163
	42.000000000	      -1.512	     175.881	       0.672	      37.840	     -24.558	       0.912	      -5.109	    -162.255
	42.500000000	      -1.519	     175.509	       0.550	      37.220	     -24.678	       0.992	      -5.059	    -162.341
	43.000000000	      -1.516	     175.269	       0.451	      36.588	     -24.805	       2.017	      -5.001	    -162.598
	43.500000000	      -1.510	     175.031	       0.334	      35.845	     -24.675	       1.435	      -4.958	    -162.908
	44.000000000	      -1.507	     174.757	       0.221	      35.175	     -24.658	       1.968	      -4.896	    -163.218
	44.500000000	      -1.517	     174.325	       0.093	      34.497	     -24.701	       1.598	      -4.842	    -163.452
	45.000000000	      -1.524	     174.065	      -0.018	      33.860	     -24.733	       1.935	      -4.781	    -163.772
	45.500000000	      -1.482	     173.718	      -0.295	      33.389	     -24.984	       1.036	      -4.651	    -164.446
	46.000000000	      -1.462	     173.499	      -0.414	      32.851	     -25.054	       1.213	      -4.607	    -164.719
	46.500000000	      -1.455	     173.170	      -0.511	      32.261	     -25.076	       1.281	      -4.548	    -164.849
	47.000000000	      -1.459	     172.826	      -0.602	      31.592	     -25.150	       2.574	      -4.499	    -165.058
	47.500000000	      -1.449	     172.553	      -0.720	      30.968	     -25.176	       2.948	      -4.462	    -165.176
	48.000000000	      -1.431	     172.267	      -0.827	      30.310	     -25.099	       3.397	      -4.408	    -165.525
	48.500000000	      -1.432	     171.918	      -0.942	      29.689	     -25.102	       1.570	      -4.374	    -165.658
	49.000000000	      -1.441	     171.744	      -1.047	      29.154	     -25.263	       1.399	      -4.309	    -165.923
	49.500000000	      -1.447	     171.535	      -1.157	      28.545	     -25.112	       1.358	      -4.256	    -166.193
	50.000000000	      -1.431	     171.286	      -1.258	      27.999	     -25.353	       2.296	      -4.206	    -166.330
	50.500000000	      -1.421	     171.004	      -1.357	      27.371	     -25.452	       3.094	      -4.195	    -166.764
	51.000000000	      -1.409	     170.684	      -1.473	      26.865	     -25.452	       3.429	      -4.177	    -167.153
	51.500000000	      -1.411	     170.541	      -1.572	      26.224	     -25.342	       3.705	      -4.131	    -167.467
	52.000000000	      -1.396	     170.345	      -1.676	      25.647	     -25.397	       3.364	      -4.102	    -167.687
	52.500000000	      -1.397	     170.012	      -1.777	      25.131	     -25.402	       3.090	      -4.068	    -167.820
	53.000000000	      -1.387	     169.680	      -1.883	      24.546	     -25.481	       2.927	      -4.046	    -167.836
	53.500000000	      -1.386	     169.527	      -1.975	      24.078	     -25.473	       2.868	      -3.990	    -168.115
	54.000000000	      -1.370	     169.244	      -2.052	      23.530	     -25.381	       2.958	      -3.931	    -168.352
	54.500000000	      -1.368	     168.889	      -2.148	      22.999	     -25.436	       3.104	      -3.883	    -168.511
	55.000000000	      -1.377	     168.526	      -2.230	      22.352	     -25.545	       3.996	      -3.849	    -168.693
	55.500000000	      -1.377	     168.256	      -2.319	      21.746	     -25.621	       3.013	      -3.808	    -168.918
	56.000000000	      -1.378	     167.994	      -2.401	      21.236	     -25.563	       2.962	      -3.777	    -169.425
	56.500000000	      -1.370	     167.707	      -2.494	      20.569	     -25.729	       2.485	      -3.745	    -169.798
	57.000000000	      -1.368	     167.616	      -2.600	      19.962	     -25.661	       2.900	      -3.724	    -170.033
	57.500000000	      -1.365	     167.363	      -2.703	      19.415	     -25.637	       1.884	      -3.678	    -170.209
	58.000000000	      -1.351	     167.227	      -2.774	      18.848	     -25.613	       3.273	      -3.658	    -170.387
	58.500000000	      -1.323	     167.022	      -2.869	      18.244	     -25.711	       4.387	      -3.615	    -170.562
	59.000000000	      -1.326	     166.599	      -2.938	      17.628	     -25.594	       2.945	      -3.593	    -170.810
	59.500000000	      -1.349	     166.499	      -3.047	      16.980	     -25.787	       2.061	      -3.540	    -170.984
	60.000000000	      -1.336	     166.394	      -3.119	      16.306	     -25.960	       3.536	      -3.547	    -171.237
	60.500000000	      -1.302	     166.169	      -3.236	      15.765	     -25.815	       3.526	      -3.533	    -171.312
	61.000000000	      -1.288	     165.810	      -3.329	      15.291	     -25.942	       3.782	      -3.494	    -171.551
	61.500000000	      -1.282	     165.554	      -3.428	      14.766	     -25.853	       3.015	      -3.471	    -171.748
	62.000000000	      -1.258	     165.243	      -3.492	      14.226	     -26.015	       3.461	      -3.456	    -171.805
	62.500000000	      -1.263	     164.975	      -3.573	      13.629	     -25.790	       5.077	      -3.427	    -171.982
	63.000000000	      -1.253	     164.597	      -3.655	      13.168	     -25.913	       5.236	      -3.398	    -171.903
	63.500000000	      -1.246	     164.358	      -3.727	      12.362	     -25.902	       4.136	      -3.365	    -172.203
	64.000000000	      -1.237	     164.374	      -3.788	      11.679	     -25.920	       3.775	      -3.310	    -172.242
	64.500000000	      -1.213	     164.192	      -3.847	      10.915	     -25.928	       3.747	      -3.291	    -172.120
	65.000000000	      -1.232	     163.791	      -3.978	       9.988	     -25.650	       3.717	      -3.199	    -172.321
	65.500000000	      -1.231	     163.302	      -4.092	       9.553	     -25.839	       5.000	      -3.201	    -172.985
	66.000000000	      -1.221	     163.137	      -4.198	       8.727	     -25.863	       3.150	      -3.157	    -173.355
	66.500000000	      -1.231	     162.901	      -4.282	       7.850	     -25.598	       4.323	      -3.114	    -173.069
	67.000000000	      -1.279	     162.565	      -4.421	       7.398	     -25.849	       5.233	      -3.091	    -173.192
	67.500000000	      -1.279	     162.015	      -4.563	       6.713	     -25.899	       3.070	      -3.096	    -173.606
	68.000000000	      -1.304	     161.813	      -4.656	       6.158	     -25.879	       3.038	      -3.126	    -173.928
	68.500000000	      -1.325	     161.608	      -4.752	       5.765	     -25.945	       2.576	      -3.086	    -173.951
	69.000000000	      -1.347	     161.403	      -4.869	       5.172	     -25.962	       2.458	      -3.029	    -174.055
	69.500000000	      -1.346	     161.144	      -4.978	       4.789	     -26.045	       2.247	      -3.002	    -174.270
	70.000000000	      -1.336	     160.960	      -5.059	       4.382	     -26.086	       2.703	      -2.976	    -174.315
	70.500000000	      -1.329	     160.727	      -5.162	       3.864	     -26.044	       2.665	      -2.933	    -174.391
	71.000000000	      -1.336	     160.488	      -5.246	       3.508	     -26.019	       2.332	      -2.900	    -174.575
	71.500000000	      -1.319	     160.170	      -5.351	       2.863	     -25.999	       1.794	      -2.825	    -174.654
	72.000000000	      -1.314	     160.021	      -5.438	       2.430	     -26.026	       1.359	      -2.831	    -174.963
	72.500000000	      -1.333	     159.695	      -5.526	       1.826	     -26.045	       0.552	      -2.810	    -175.168
	73.000000000	      -1.360	     159.530	      -5.624	       1.271	     -26.163	      -0.202	      -2.773	    -175.321
	73.500000000	      -1.374	     159.419	      -5.728	       0.797	     -26.369	      -0.179	      -2.709	    -175.585
	74.000000000	      -1.380	     159.213	      -5.822	       0.299	     -26.436	       0.428	      -2.702	    -176.119
	74.500000000	      -1.405	     159.020	      -5.909	      -0.190	     -26.517	       0.725	      -2.729	    -176.318
	75.000000000	      -1.433	     158.909	      -6.013	      -0.744	     -26.608	       0.736	      -2.714	    -176.365
	75.500000000	      -1.461	     158.887	      -6.136	      -1.338	     -26.830	       1.100	      -2.713	    -176.500
	76.000000000	      -1.473	     158.927	      -6.261	      -1.770	     -27.089	       2.786	      -2.721	    -176.491
	76.500000000	      -1.477	     159.101	      -6.390	      -1.989	     -27.188	       6.152	      -2.714	    -176.345
	77.000000000	      -1.443	     159.169	      -6.482	      -2.102	     -26.841	       9.621	      -2.650	    -176.105
	77.500000000	      -1.387	     159.062	      -6.530	      -2.162	     -26.238	      10.912	      -2.561	    -176.166
	78.000000000	      -1.305	     158.884	      -6.568	      -2.367	     -25.736	      10.171	      -2.505	    -176.306
	78.500000000	      -1.247	     158.397	      -6.619	      -2.899	     -25.456	       8.506	      -2.465	    -176.558
	79.000000000	      -1.246	     157.817	      -6.680	      -3.403	     -25.264	       7.006	      -2.402	    -176.800
	79.500000000	      -1.269	     157.257	      -6.717	      -4.085	     -25.037	       5.346	      -2.358	    -177.021
