!File name = EG0520U_1010_6x60_2SDBCB2EV_1915934D06_RC2952_4Vd_36mA.s2p
!Base file name = EG0520U_1010_6x60_2SDBCB2EV_1915934D06_RC2952
!Date = 8/23/2019
!Time = 1:17 PM
!Test duration(min) = 0.15
!Test = S-Parameters
!MPTS version = 8.91.5
!State File = C:\Data\PNA\20190821205423\S-Parameters_2019-08-23.sta
!Cal File = 
!ComputerName = CMPE-LAB-6
!Comments = 
!Attenuation = 0
!Z0 = 50
!Input Power(dBm) = -13.00
!Device ID = EG0520U_1010_6x60_2SDBCB2EV
!Row = 29
!Column = 52
!Technology = QPHT09
!Lot/Wafer = 1915934D06
!Gate Size = 360
!Mask = EG0520
!Cal Standards = GaAs BCB
!Cal Kit = EG2306
!Job Number = 20190821205423
!Device Type = FET
!set_Vg(v) = -1.500
!set_Vd(v) = 4.000
!set_Vd(mA) = 36.000
!file_name = EG0520U_1010_6x60_2SDBCB2EV_1915934D06_RC2952_4Vd_36mA.s2p
!Vd(V) = 4.000
!Vd(mA) = 36.142
!Vg(V) = -0.530
!Vg(mA) = -0.004
# GHz   S   DB   R   50
!%	Freq(GHz)	     s11(dB)	    s11(deg)	     s21(dB)	    s21(deg)	     s12(dB)	    s12(deg)	     s22(dB)	    s22(deg)
	0.500000000	      -0.077	     -14.680	      21.844	     170.995	     -38.904	      80.660	      -8.001	     -14.035
	1.000000000	      -0.165	     -29.007	      21.420	     162.486	     -33.123	      73.293	      -8.085	     -26.857
	1.500000000	      -0.206	     -42.534	      21.060	     155.026	     -29.973	      66.029	      -8.124	     -39.268
	2.000000000	      -0.347	     -54.757	      20.791	     147.649	     -27.961	      59.258	      -8.230	     -51.426
	2.500000000	      -0.447	     -66.161	      20.339	     141.164	     -26.585	      53.458	      -8.430	     -61.352
	3.000000000	      -0.835	     -73.806	      19.649	     135.917	     -25.779	      49.072	      -8.847	     -65.356
	3.500000000	      -0.952	     -82.651	      19.092	     130.799	     -25.024	      44.640	      -8.988	     -73.026
	4.000000000	      -1.049	     -90.448	      18.528	     126.248	     -24.456	      40.704	      -9.111	     -79.829
	4.500000000	      -1.155	     -97.349	      17.965	     122.052	     -24.020	      37.187	      -9.219	     -86.085
	5.000000000	      -1.228	    -103.514	      17.410	     118.360	     -23.682	      34.119	      -9.321	     -91.412
	5.500000000	      -1.297	    -109.040	      16.877	     114.936	     -23.423	      31.417	      -9.418	     -96.133
	6.000000000	      -1.357	    -113.998	      16.350	     111.842	     -23.204	      29.002	      -9.467	    -100.266
	6.500000000	      -1.403	    -118.391	      15.846	     109.036	     -23.030	      26.802	      -9.509	    -103.966
	7.000000000	      -1.446	    -122.363	      15.361	     106.407	     -22.891	      24.840	      -9.536	    -107.250
	7.500000000	      -1.476	    -125.964	      14.888	     103.981	     -22.783	      23.059	      -9.552	    -110.169
	8.000000000	      -1.488	    -128.989	      14.454	     101.855	     -22.666	      21.607	      -9.580	    -112.071
	8.500000000	      -1.518	    -132.022	      14.017	      99.740	     -22.589	      20.077	      -9.584	    -114.449
	9.000000000	      -1.547	    -134.740	      13.591	      97.753	     -22.525	      18.633	      -9.574	    -116.545
	9.500000000	      -1.565	    -137.289	      13.192	      95.823	     -22.472	      17.276	      -9.555	    -118.496
	10.000000000	      -1.581	    -139.655	      12.802	      94.008	     -22.451	      15.982	      -9.541	    -120.286
	10.500000000	      -1.603	    -141.844	      12.426	      92.255	     -22.440	      14.974	      -9.525	    -121.854
	11.000000000	      -1.615	    -143.838	      12.065	      90.630	     -22.409	      13.945	      -9.497	    -123.203
	11.500000000	      -1.631	    -145.729	      11.713	      89.036	     -22.406	      12.957	      -9.456	    -124.503
	12.000000000	      -1.643	    -147.489	      11.377	      87.527	     -22.405	      12.051	      -9.408	    -125.649
	12.500000000	      -1.648	    -149.140	      11.051	      86.058	     -22.402	      11.209	      -9.350	    -126.877
	13.000000000	      -1.655	    -150.684	      10.734	      84.609	     -22.404	      10.388	      -9.298	    -127.957
	13.500000000	      -1.665	    -152.163	      10.426	      83.235	     -22.427	       9.557	      -9.243	    -128.896
	14.000000000	      -1.675	    -153.563	      10.127	      81.903	     -22.451	       8.884	      -9.182	    -129.672
	14.500000000	      -1.680	    -154.827	       9.836	      80.596	     -22.475	       8.251	      -9.127	    -130.580
	15.000000000	      -1.682	    -155.966	       9.553	      79.344	     -22.498	       7.752	      -9.075	    -131.355
	15.500000000	      -1.687	    -157.092	       9.279	      78.101	     -22.511	       7.244	      -9.009	    -131.995
	16.000000000	      -1.689	    -158.223	       9.012	      76.882	     -22.517	       6.629	      -8.931	    -132.635
	16.500000000	      -1.691	    -159.319	       8.751	      75.684	     -22.544	       5.995	      -8.860	    -133.262
	17.000000000	      -1.689	    -160.341	       8.501	      74.525	     -22.584	       5.470	      -8.793	    -133.856
	17.500000000	      -1.695	    -161.270	       8.251	      73.369	     -22.609	       4.992	      -8.718	    -134.472
	18.000000000	      -1.703	    -162.187	       8.012	      72.246	     -22.656	       4.428	      -8.646	    -135.100
	18.500000000	      -1.702	    -163.081	       7.777	      71.146	     -22.686	       3.927	      -8.564	    -135.603
	19.000000000	      -1.701	    -163.951	       7.545	      70.047	     -22.736	       3.505	      -8.491	    -136.094
	19.500000000	      -1.699	    -164.770	       7.319	      68.986	     -22.809	       3.162	      -8.426	    -136.512
	20.000000000	      -1.704	    -165.522	       7.100	      67.948	     -22.856	       3.005	      -8.358	    -136.994
	20.500000000	      -1.706	    -166.245	       6.890	      66.911	     -22.872	       2.936	      -8.271	    -137.394
	21.000000000	      -1.706	    -166.969	       6.678	      65.875	     -22.888	       2.382	      -8.183	    -137.874
	21.500000000	      -1.698	    -167.690	       6.471	      64.844	     -22.925	       2.045	      -8.100	    -138.279
	22.000000000	      -1.693	    -168.315	       6.268	      63.854	     -22.983	       1.586	      -8.023	    -138.681
	22.500000000	      -1.685	    -168.961	       6.069	      62.831	     -23.012	       1.202	      -7.950	    -139.133
	23.000000000	      -1.686	    -169.604	       5.870	      61.833	     -23.062	       0.742	      -7.868	    -139.670
	23.500000000	      -1.687	    -170.293	       5.673	      60.888	     -23.178	       0.363	      -7.793	    -140.180
	24.000000000	      -1.691	    -170.881	       5.486	      59.969	     -23.270	       0.383	      -7.726	    -140.525
	24.500000000	      -1.682	    -171.370	       5.305	      59.023	     -23.288	       0.486	      -7.650	    -140.737
	25.000000000	      -1.665	    -171.831	       5.126	      58.041	     -23.327	       0.343	      -7.572	    -141.011
	25.500000000	      -1.657	    -172.472	       4.944	      57.106	     -23.345	       0.168	      -7.482	    -141.437
	26.000000000	      -1.662	    -173.104	       4.762	      56.174	     -23.400	      -0.245	      -7.383	    -141.897
	26.500000000	      -1.660	    -173.632	       4.586	      55.251	     -23.445	      -0.611	      -7.298	    -142.288
	27.000000000	      -1.653	    -174.024	       4.412	      54.365	     -23.526	      -1.044	      -7.226	    -142.672
	27.500000000	      -1.660	    -174.442	       4.240	      53.549	     -23.666	      -0.901	      -7.174	    -142.914
	28.000000000	      -1.664	    -174.949	       4.081	      52.712	     -23.772	      -0.539	      -7.093	    -143.271
	28.500000000	      -1.647	    -175.373	       3.930	      51.777	     -23.739	      -0.415	      -6.996	    -143.649
	29.000000000	      -1.634	    -175.824	       3.765	      50.843	     -23.756	      -0.455	      -6.917	    -144.044
	29.500000000	      -1.625	    -176.229	       3.605	      49.974	     -23.798	      -0.917	      -6.836	    -144.390
	30.000000000	      -1.626	    -176.660	       3.446	      49.151	     -23.876	      -1.182	      -6.771	    -144.705
	30.500000000	      -1.619	    -177.125	       3.294	      48.285	     -23.932	      -1.242	      -6.697	    -145.041
	31.000000000	      -1.610	    -177.589	       3.138	      47.445	     -24.008	      -1.641	      -6.633	    -145.433
	31.500000000	      -1.597	    -177.973	       2.997	      46.633	     -24.121	      -0.692	      -6.563	    -145.793
	32.000000000	      -1.595	    -178.281	       2.850	      45.781	     -24.174	      -0.522	      -6.482	    -146.064
	32.500000000	      -1.605	    -178.705	       2.700	      44.865	     -24.116	      -0.449	      -6.393	    -146.326
	33.000000000	      -1.603	    -179.179	       2.554	      44.058	     -24.120	      -0.757	      -6.321	    -146.756
	33.500000000	      -1.589	    -179.562	       2.403	      43.256	     -24.164	      -1.015	      -6.256	    -147.184
	34.000000000	      -1.578	    -179.846	       2.259	      42.459	     -24.266	      -0.993	      -6.180	    -147.637
	34.500000000	      -1.576	     179.771	       2.108	      41.597	     -24.343	      -1.487	      -6.094	    -147.923
	35.000000000	      -1.575	     179.436	       1.965	      40.849	     -24.426	      -1.440	      -6.032	    -148.445
	35.500000000	      -1.567	     179.065	       1.842	      40.067	     -24.542	      -0.661	      -5.971	    -148.666
	36.000000000	      -1.550	     178.707	       1.714	      39.175	     -24.434	      -0.647	      -5.885	    -148.982
	36.500000000	      -1.538	     178.437	       1.571	      38.339	     -24.486	      -0.883	      -5.815	    -149.402
	37.000000000	      -1.530	     178.149	       1.434	      37.552	     -24.559	      -1.369	      -5.748	    -149.757
	37.500000000	      -1.539	     177.741	       1.292	      36.763	     -24.642	      -1.578	      -5.697	    -150.102
	38.000000000	      -1.540	     177.358	       1.147	      36.054	     -24.681	      -1.695	      -5.633	    -150.415
	38.500000000	      -1.536	     177.061	       1.009	      35.364	     -24.895	      -1.903	      -5.561	    -150.841
	39.000000000	      -1.526	     176.883	       0.889	      34.687	     -24.921	      -0.625	      -5.493	    -151.210
	39.500000000	      -1.521	     176.701	       0.769	      33.988	     -24.971	      -0.698	      -5.420	    -151.576
	40.000000000	      -1.508	     176.262	       0.655	      33.136	     -24.932	      -0.567	      -5.340	    -151.917
	40.500000000	      -1.503	     175.877	       0.524	      32.383	     -24.985	      -0.702	      -5.265	    -152.287
	41.000000000	      -1.481	     175.568	       0.407	      31.596	     -25.038	      -0.750	      -5.210	    -152.788
	41.500000000	      -1.474	     175.410	       0.282	      30.853	     -25.093	      -0.254	      -5.167	    -153.037
	42.000000000	      -1.473	     175.118	       0.161	      30.065	     -25.138	      -1.145	      -5.093	    -153.272
	42.500000000	      -1.486	     174.724	       0.030	      29.392	     -25.268	      -0.959	      -5.033	    -153.435
	43.000000000	      -1.482	     174.499	      -0.077	      28.758	     -25.349	       0.046	      -4.961	    -153.749
	43.500000000	      -1.465	     174.247	      -0.195	      27.880	     -25.295	       0.413	      -4.900	    -154.185
	44.000000000	      -1.479	     173.991	      -0.326	      27.102	     -25.354	       0.565	      -4.825	    -154.642
	44.500000000	      -1.485	     173.563	      -0.454	      26.375	     -25.324	       0.208	      -4.763	    -155.035
	45.000000000	      -1.497	     173.260	      -0.580	      25.719	     -25.350	       0.036	      -4.698	    -155.518
	45.500000000	      -1.451	     172.942	      -0.861	      25.150	     -25.624	      -0.182	      -4.567	    -156.515
	46.000000000	      -1.425	     172.797	      -0.992	      24.534	     -25.763	       0.053	      -4.521	    -156.987
	46.500000000	      -1.412	     172.428	      -1.097	      23.903	     -25.918	       1.184	      -4.448	    -157.073
	47.000000000	      -1.409	     172.095	      -1.201	      23.189	     -25.906	       1.549	      -4.385	    -157.370
	47.500000000	      -1.403	     171.806	      -1.323	      22.438	     -25.989	       2.281	      -4.345	    -157.514
	48.000000000	      -1.385	     171.530	      -1.444	      21.839	     -25.907	       2.262	      -4.303	    -158.025
	48.500000000	      -1.382	     171.269	      -1.560	      21.216	     -25.877	       2.304	      -4.248	    -158.296
	49.000000000	      -1.394	     171.080	      -1.663	      20.574	     -25.953	       2.203	      -4.178	    -158.468
	49.500000000	      -1.405	     170.873	      -1.775	      20.077	     -26.055	       1.478	      -4.115	    -158.764
	50.000000000	      -1.392	     170.626	      -1.868	      19.497	     -26.157	       2.103	      -4.052	    -159.073
	50.500000000	      -1.375	     170.316	      -1.966	      18.685	     -26.035	       3.182	      -4.016	    -159.651
	51.000000000	      -1.365	     170.027	      -2.074	      18.010	     -26.144	       3.092	      -3.993	    -159.984
	51.500000000	      -1.358	     169.903	      -2.174	      17.355	     -26.097	       4.203	      -3.934	    -160.381
	52.000000000	      -1.352	     169.671	      -2.289	      16.565	     -26.042	       3.833	      -3.872	    -160.693
	52.500000000	      -1.338	     169.315	      -2.407	      15.922	     -26.085	       3.907	      -3.826	    -160.868
	53.000000000	      -1.341	     168.994	      -2.526	      15.194	     -26.101	       2.820	      -3.772	    -161.059
	53.500000000	      -1.334	     168.866	      -2.634	      14.695	     -26.222	       4.321	      -3.703	    -161.455
	54.000000000	      -1.330	     168.685	      -2.730	      14.127	     -26.175	       4.342	      -3.644	    -161.806
	54.500000000	      -1.322	     168.261	      -2.835	      13.530	     -26.457	       4.805	      -3.586	    -162.047
	55.000000000	      -1.325	     167.848	      -2.933	      12.850	     -26.246	       3.968	      -3.552	    -162.375
	55.500000000	      -1.333	     167.559	      -3.031	      12.160	     -26.200	       3.597	      -3.500	    -162.748
	56.000000000	      -1.317	     167.242	      -3.123	      11.403	     -26.361	       3.387	      -3.468	    -163.277
	56.500000000	      -1.322	     167.113	      -3.224	      10.757	     -26.200	       4.179	      -3.429	    -163.817
	57.000000000	      -1.320	     167.040	      -3.362	      10.191	     -26.175	       3.238	      -3.428	    -164.149
	57.500000000	      -1.326	     166.828	      -3.478	       9.665	     -26.612	       3.255	      -3.400	    -164.288
	58.000000000	      -1.297	     166.818	      -3.560	       9.068	     -26.795	       3.455	      -3.339	    -164.703
	58.500000000	      -1.271	     166.516	      -3.668	       8.688	     -26.790	       6.168	      -3.308	    -164.940
	59.000000000	      -1.272	     166.244	      -3.734	       7.864	     -26.613	       4.553	      -3.256	    -165.228
	59.500000000	      -1.275	     166.080	      -3.859	       7.342	     -26.745	       4.629	      -3.205	    -165.533
	60.000000000	      -1.273	     165.928	      -3.940	       6.705	     -26.758	       4.956	      -3.222	    -165.876
	60.500000000	      -1.242	     165.725	      -4.051	       6.154	     -26.918	       4.894	      -3.202	    -166.056
	61.000000000	      -1.208	     165.480	      -4.147	       5.614	     -26.831	       3.896	      -3.155	    -166.207
	61.500000000	      -1.194	     165.201	      -4.255	       5.180	     -26.971	       6.020	      -3.130	    -166.453
	62.000000000	      -1.190	     164.938	      -4.295	       4.667	     -27.034	       8.686	      -3.128	    -166.488
	62.500000000	      -1.194	     164.666	      -4.378	       3.947	     -26.706	       9.912	      -3.118	    -166.816
	63.000000000	      -1.165	     164.221	      -4.451	       3.286	     -26.633	       8.602	      -3.054	    -166.700
	63.500000000	      -1.166	     164.081	      -4.538	       2.528	     -26.665	       9.619	      -2.971	    -167.119
	64.000000000	      -1.158	     164.173	      -4.596	       1.778	     -26.609	       8.353	      -2.906	    -167.154
	64.500000000	      -1.151	     164.085	      -4.694	       0.884	     -26.713	       9.097	      -2.847	    -167.052
	65.000000000	      -1.176	     163.657	      -4.796	      -0.012	     -26.811	       7.085	      -2.798	    -167.427
	65.500000000	      -1.147	     163.212	      -4.911	      -0.754	     -26.764	       8.458	      -2.773	    -168.198
	66.000000000	      -1.153	     162.823	      -5.031	      -1.580	     -26.410	       8.362	      -2.729	    -168.799
	66.500000000	      -1.178	     162.694	      -5.123	      -2.287	     -26.579	       9.293	      -2.697	    -168.688
	67.000000000	      -1.230	     162.227	      -5.254	      -2.915	     -26.303	       7.546	      -2.699	    -168.883
	67.500000000	      -1.213	     161.650	      -5.427	      -4.016	     -26.505	       7.648	      -2.681	    -169.287
	68.000000000	      -1.261	     161.442	      -5.524	      -4.628	     -26.473	       7.760	      -2.731	    -169.640
	68.500000000	      -1.306	     161.210	      -5.630	      -5.161	     -26.489	       7.287	      -2.671	    -169.839
	69.000000000	      -1.340	     161.078	      -5.760	      -5.622	     -26.491	       6.479	      -2.608	    -170.131
	69.500000000	      -1.335	     160.931	      -5.888	      -6.101	     -26.636	       6.501	      -2.589	    -170.270
	70.000000000	      -1.310	     160.775	      -5.997	      -6.548	     -26.697	       7.248	      -2.557	    -170.376
	70.500000000	      -1.289	     160.634	      -6.093	      -6.990	     -26.607	       7.199	      -2.523	    -170.558
	71.000000000	      -1.272	     160.487	      -6.165	      -7.500	     -26.625	       6.845	      -2.489	    -170.770
	71.500000000	      -1.225	     160.342	      -6.292	      -7.944	     -26.628	       6.467	      -2.406	    -171.016
	72.000000000	      -1.215	     160.137	      -6.416	      -8.464	     -26.618	       6.022	      -2.415	    -171.308
	72.500000000	      -1.250	     159.657	      -6.520	      -9.178	     -26.674	       5.113	      -2.394	    -171.584
	73.000000000	      -1.286	     159.459	      -6.633	      -9.756	     -26.785	       4.560	      -2.355	    -171.820
	73.500000000	      -1.308	     159.394	      -6.753	     -10.268	     -27.002	       4.728	      -2.290	    -172.131
	74.000000000	      -1.316	     159.109	      -6.867	     -10.662	     -27.124	       5.544	      -2.284	    -172.691
	74.500000000	      -1.354	     158.840	      -6.959	     -11.019	     -27.197	       6.071	      -2.305	    -172.986
	75.000000000	      -1.400	     158.785	      -7.064	     -11.512	     -27.273	       6.468	      -2.291	    -173.098
	75.500000000	      -1.433	     158.845	      -7.188	     -12.056	     -27.482	       7.372	      -2.293	    -173.207
	76.000000000	      -1.445	     159.015	      -7.314	     -12.402	     -27.712	       9.694	      -2.294	    -173.285
	76.500000000	      -1.437	     159.211	      -7.445	     -12.436	     -27.703	      13.779	      -2.271	    -173.234
	77.000000000	      -1.401	     159.242	      -7.517	     -12.459	     -27.214	      17.369	      -2.213	    -173.209
	77.500000000	      -1.327	     159.202	      -7.546	     -12.472	     -26.509	      18.582	      -2.137	    -173.392
	78.000000000	      -1.244	     158.930	      -7.541	     -12.793	     -25.872	      17.528	      -2.110	    -173.565
	78.500000000	      -1.197	     158.376	      -7.563	     -13.562	     -25.490	      15.150	      -2.062	    -173.840
	79.000000000	      -1.219	     157.677	      -7.625	     -14.451	     -25.274	      12.437	      -1.997	    -174.185
	79.500000000	      -1.250	     157.270	      -7.691	     -15.323	     -25.126	      10.004	      -1.961	    -174.432
