!File name = EG0520U_1010_6x60_2SDBCB2EV_1915934D06_RC2943_2.5Vd_54mA.s2p
!Base file name = EG0520U_1010_6x60_2SDBCB2EV_1915934D06_RC2943
!Date = 8/23/2019
!Time = 1:02 PM
!Test duration(min) = 0.15
!Test = S-Parameters
!MPTS version = 8.91.5
!State File = C:\Data\PNA\20190821205423\S-Parameters_2019-08-23.sta
!Cal File = 
!ComputerName = CMPE-LAB-6
!Comments = 
!Attenuation = 0
!Z0 = 50
!Input Power(dBm) = -13.00
!Device ID = EG0520U_1010_6x60_2SDBCB2EV
!Row = 29
!Column = 43
!Technology = QPHT09
!Lot/Wafer = 1915934D06
!Gate Size = 360
!Mask = EG0520
!Cal Standards = GaAs BCB
!Cal Kit = EG2306
!Job Number = 20190821205423
!Device Type = FET
!set_Vg(v) = -1.500
!set_Vd(v) = 2.500
!set_Vd(mA) = 54.000
!file_name = EG0520U_1010_6x60_2SDBCB2EV_1915934D06_RC2943_2.5Vd_54mA.s2p
!Vd(V) = 2.500
!Vd(mA) = 54.055
!Vg(V) = -0.415
!Vg(mA) = -0.000
# GHz   S   DB   R   50
!%	Freq(GHz)	     s11(dB)	    s11(deg)	     s21(dB)	    s21(deg)	     s12(dB)	    s12(deg)	     s22(dB)	    s22(deg)
	0.500000000	      -0.032	     -15.094	      22.533	     170.846	     -39.271	      81.325	     -10.996	     -19.834
	1.000000000	      -0.116	     -29.828	      22.071	     162.156	     -33.515	      73.424	     -10.780	     -37.483
	1.500000000	      -0.162	     -43.658	      21.697	     154.680	     -30.385	      65.877	     -10.358	     -53.542
	2.000000000	      -0.309	     -56.184	      21.412	     147.239	     -28.402	      58.973	      -9.946	     -68.415
	2.500000000	      -0.407	     -67.720	      20.959	     140.777	     -27.043	      53.119	      -9.714	     -79.962
	3.000000000	      -0.805	     -75.474	      20.258	     135.738	     -26.241	      48.834	      -9.984	     -85.003
	3.500000000	      -0.923	     -84.341	      19.679	     130.642	     -25.501	      44.422	      -9.765	     -93.298
	4.000000000	      -1.020	     -92.128	      19.097	     126.227	     -24.946	      40.522	      -9.573	    -100.347
	4.500000000	      -1.119	     -99.026	      18.523	     122.126	     -24.526	      37.059	      -9.402	    -106.597
	5.000000000	      -1.191	    -105.123	      17.957	     118.555	     -24.198	      34.079	      -9.275	    -111.799
	5.500000000	      -1.258	    -110.614	      17.411	     115.241	     -23.942	      31.457	      -9.174	    -116.308
	6.000000000	      -1.314	    -115.483	      16.877	     112.264	     -23.736	      29.075	      -9.066	    -120.136
	6.500000000	      -1.362	    -119.814	      16.364	     109.588	     -23.572	      26.978	      -8.974	    -123.503
	7.000000000	      -1.400	    -123.709	      15.872	     107.070	     -23.434	      25.100	      -8.892	    -126.453
	7.500000000	      -1.429	    -127.233	      15.394	     104.770	     -23.328	      23.384	      -8.818	    -129.041
	8.000000000	      -1.440	    -130.192	      14.958	     102.759	     -23.208	      22.016	      -8.793	    -130.684
	8.500000000	      -1.466	    -133.152	      14.517	     100.766	     -23.134	      20.555	      -8.733	    -132.778
	9.000000000	      -1.493	    -135.811	      14.090	      98.905	     -23.075	      19.181	      -8.675	    -134.629
	9.500000000	      -1.509	    -138.292	      13.688	      97.093	     -23.025	      17.937	      -8.616	    -136.250
	10.000000000	      -1.522	    -140.580	      13.299	      95.399	     -22.999	      16.731	      -8.562	    -137.819
	10.500000000	      -1.541	    -142.726	      12.923	      93.756	     -22.984	      15.720	      -8.513	    -139.189
	11.000000000	      -1.552	    -144.691	      12.562	      92.217	     -22.969	      14.733	      -8.465	    -140.412
	11.500000000	      -1.570	    -146.543	      12.209	      90.734	     -22.964	      13.817	      -8.419	    -141.504
	12.000000000	      -1.583	    -148.254	      11.870	      89.322	     -22.966	      13.042	      -8.369	    -142.485
	12.500000000	      -1.592	    -149.838	      11.541	      87.963	     -22.960	      12.282	      -8.315	    -143.460
	13.000000000	      -1.602	    -151.335	      11.223	      86.637	     -22.966	      11.570	      -8.268	    -144.332
	13.500000000	      -1.609	    -152.742	      10.917	      85.380	     -22.976	      10.823	      -8.212	    -145.033
	14.000000000	      -1.617	    -154.109	      10.619	      84.138	     -22.995	      10.196	      -8.157	    -145.728
	14.500000000	      -1.621	    -155.342	      10.329	      82.926	     -23.016	       9.606	      -8.111	    -146.482
	15.000000000	      -1.627	    -156.455	      10.046	      81.772	     -23.038	       9.077	      -8.069	    -147.144
	15.500000000	      -1.633	    -157.559	       9.772	      80.626	     -23.063	       8.682	      -8.022	    -147.665
	16.000000000	      -1.637	    -158.650	       9.505	      79.507	     -23.068	       8.159	      -7.966	    -148.163
	16.500000000	      -1.641	    -159.698	       9.245	      78.414	     -23.098	       7.624	      -7.912	    -148.660
	17.000000000	      -1.643	    -160.681	       8.994	      77.344	     -23.136	       7.197	      -7.869	    -149.111
	17.500000000	      -1.650	    -161.568	       8.745	      76.300	     -23.152	       6.842	      -7.812	    -149.603
	18.000000000	      -1.660	    -162.439	       8.504	      75.286	     -23.196	       6.372	      -7.757	    -150.078
	18.500000000	      -1.660	    -163.298	       8.271	      74.279	     -23.210	       5.939	      -7.696	    -150.450
	19.000000000	      -1.660	    -164.126	       8.039	      73.287	     -23.254	       5.482	      -7.642	    -150.795
	19.500000000	      -1.659	    -164.904	       7.815	      72.328	     -23.333	       5.182	      -7.599	    -151.230
	20.000000000	      -1.667	    -165.625	       7.597	      71.396	     -23.392	       5.132	      -7.557	    -151.541
	20.500000000	      -1.669	    -166.317	       7.389	      70.452	     -23.399	       5.084	      -7.496	    -151.822
	21.000000000	      -1.669	    -166.999	       7.180	      69.518	     -23.406	       4.855	      -7.434	    -152.153
	21.500000000	      -1.662	    -167.721	       6.974	      68.588	     -23.438	       4.471	      -7.377	    -152.431
	22.000000000	      -1.660	    -168.297	       6.774	      67.695	     -23.475	       4.150	      -7.317	    -152.732
	22.500000000	      -1.659	    -168.909	       6.574	      66.783	     -23.502	       3.735	      -7.267	    -153.057
	23.000000000	      -1.663	    -169.505	       6.377	      65.892	     -23.568	       3.401	      -7.212	    -153.452
	23.500000000	      -1.663	    -170.114	       6.186	      65.063	     -23.688	       3.294	      -7.164	    -153.837
	24.000000000	      -1.663	    -170.672	       6.005	      64.240	     -23.752	       3.591	      -7.118	    -154.036
	24.500000000	      -1.654	    -171.119	       5.830	      63.372	     -23.746	       3.751	      -7.067	    -154.150
	25.000000000	      -1.639	    -171.575	       5.652	      62.486	     -23.729	       3.389	      -7.010	    -154.334
	25.500000000	      -1.631	    -172.163	       5.475	      61.638	     -23.763	       3.127	      -6.946	    -154.608
	26.000000000	      -1.634	    -172.759	       5.296	      60.803	     -23.789	       2.928	      -6.871	    -154.927
	26.500000000	      -1.634	    -173.237	       5.124	      59.977	     -23.867	       2.616	      -6.809	    -155.175
	27.000000000	      -1.626	    -173.613	       4.957	      59.198	     -23.944	       2.445	      -6.756	    -155.433
	27.500000000	      -1.622	    -173.964	       4.801	      58.460	     -24.043	       2.732	      -6.720	    -155.506
	28.000000000	      -1.613	    -174.483	       4.648	      57.645	     -24.037	       2.937	      -6.660	    -155.818
	28.500000000	      -1.602	    -174.997	       4.493	      56.743	     -24.049	       3.068	      -6.584	    -156.056
	29.000000000	      -1.594	    -175.399	       4.332	      55.906	     -24.032	       2.851	      -6.521	    -156.365
	29.500000000	      -1.589	    -175.830	       4.172	      55.115	     -24.099	       2.287	      -6.464	    -156.638
	30.000000000	      -1.583	    -176.201	       4.020	      54.379	     -24.180	       2.356	      -6.415	    -156.836
	30.500000000	      -1.577	    -176.667	       3.868	      53.574	     -24.197	       2.121	      -6.365	    -157.113
	31.000000000	      -1.564	    -177.095	       3.720	      52.821	     -24.292	       1.785	      -6.310	    -157.409
	31.500000000	      -1.553	    -177.503	       3.583	      52.043	     -24.350	       2.371	      -6.268	    -157.617
	32.000000000	      -1.550	    -177.838	       3.437	      51.255	     -24.391	       2.585	      -6.211	    -157.786
	32.500000000	      -1.563	    -178.250	       3.291	      50.453	     -24.400	       2.527	      -6.143	    -157.918
	33.000000000	      -1.559	    -178.693	       3.147	      49.712	     -24.446	       2.263	      -6.087	    -158.166
	33.500000000	      -1.544	    -179.048	       3.003	      48.977	     -24.483	       2.416	      -6.038	    -158.452
	34.000000000	      -1.531	    -179.371	       2.863	      48.213	     -24.561	       2.577	      -5.969	    -158.763
	34.500000000	      -1.528	    -179.787	       2.715	      47.416	     -24.604	       2.188	      -5.906	    -158.976
	35.000000000	      -1.528	     179.838	       2.575	      46.677	     -24.648	       2.425	      -5.855	    -159.301
	35.500000000	      -1.525	     179.451	       2.449	      46.006	     -24.704	       2.869	      -5.810	    -159.491
	36.000000000	      -1.519	     179.114	       2.315	      45.199	     -24.681	       2.995	      -5.745	    -159.696
	36.500000000	      -1.510	     178.841	       2.180	      44.454	     -24.655	       2.826	      -5.689	    -159.952
	37.000000000	      -1.509	     178.541	       2.044	      43.750	     -24.709	       2.390	      -5.637	    -160.207
	37.500000000	      -1.510	     178.178	       1.907	      43.058	     -24.776	       2.559	      -5.591	    -160.454
	38.000000000	      -1.505	     177.835	       1.778	      42.393	     -24.897	       1.992	      -5.539	    -160.649
	38.500000000	      -1.494	     177.510	       1.641	      41.693	     -24.911	       2.096	      -5.484	    -161.035
	39.000000000	      -1.493	     177.178	       1.511	      41.046	     -24.987	       2.190	      -5.434	    -161.299
	39.500000000	      -1.507	     176.944	       1.383	      40.419	     -25.083	       2.392	      -5.376	    -161.568
	40.000000000	      -1.510	     176.589	       1.270	      39.768	     -25.097	       2.820	      -5.315	    -161.710
	40.500000000	      -1.509	     176.266	       1.151	      39.107	     -25.052	       3.051	      -5.251	    -161.963
	41.000000000	      -1.491	     175.987	       1.035	      38.403	     -25.155	       2.749	      -5.201	    -162.231
	41.500000000	      -1.483	     175.838	       0.918	      37.727	     -25.216	       2.994	      -5.157	    -162.515
	42.000000000	      -1.490	     175.552	       0.797	      37.072	     -25.215	       2.839	      -5.101	    -162.657
	42.500000000	      -1.499	     175.173	       0.675	      36.458	     -25.330	       2.693	      -5.056	    -162.777
	43.000000000	      -1.500	     175.001	       0.574	      35.881	     -25.412	       3.627	      -4.999	    -163.036
	43.500000000	      -1.489	     174.781	       0.463	      35.142	     -25.326	       3.991	      -4.960	    -163.373
	44.000000000	      -1.490	     174.544	       0.345	      34.421	     -25.335	       3.873	      -4.897	    -163.657
	44.500000000	      -1.493	     174.166	       0.224	      33.762	     -25.359	       4.084	      -4.832	    -163.917
	45.000000000	      -1.502	     173.892	       0.105	      33.111	     -25.391	       3.665	      -4.781	    -164.221
	45.500000000	      -1.452	     173.530	      -0.165	      32.642	     -25.606	       3.751	      -4.641	    -164.926
	46.000000000	      -1.430	     173.311	      -0.290	      32.056	     -25.793	       3.479	      -4.590	    -165.239
	46.500000000	      -1.418	     172.965	      -0.393	      31.477	     -25.855	       3.760	      -4.529	    -165.293
	47.000000000	      -1.421	     172.680	      -0.493	      30.833	     -25.826	       4.262	      -4.480	    -165.514
	47.500000000	      -1.416	     172.449	      -0.607	      30.186	     -25.869	       5.344	      -4.439	    -165.798
	48.000000000	      -1.400	     172.170	      -0.719	      29.550	     -25.740	       6.144	      -4.397	    -165.976
	48.500000000	      -1.402	     171.827	      -0.833	      28.964	     -25.822	       5.325	      -4.335	    -166.181
	49.000000000	      -1.410	     171.643	      -0.948	      28.377	     -25.833	       4.400	      -4.270	    -166.552
	49.500000000	      -1.417	     171.400	      -1.051	      27.830	     -26.006	       4.240	      -4.219	    -166.773
	50.000000000	      -1.406	     171.127	      -1.161	      27.319	     -26.048	       5.515	      -4.192	    -166.986
	50.500000000	      -1.392	     170.993	      -1.259	      26.707	     -26.133	       6.605	      -4.180	    -167.500
	51.000000000	      -1.382	     170.746	      -1.371	      26.118	     -26.237	       6.964	      -4.142	    -167.806
	51.500000000	      -1.380	     170.560	      -1.463	      25.567	     -26.056	       6.811	      -4.099	    -168.114
	52.000000000	      -1.360	     170.305	      -1.569	      24.873	     -25.913	       6.599	      -4.068	    -168.192
	52.500000000	      -1.357	     169.963	      -1.670	      24.329	     -26.012	       6.684	      -4.035	    -168.305
	53.000000000	      -1.354	     169.671	      -1.782	      23.808	     -26.103	       5.283	      -3.995	    -168.326
	53.500000000	      -1.343	     169.503	      -1.881	      23.297	     -26.169	       5.658	      -3.933	    -168.528
	54.000000000	      -1.343	     169.286	      -1.964	      22.788	     -26.097	       6.567	      -3.883	    -168.831
	54.500000000	      -1.337	     168.900	      -2.057	      22.260	     -26.286	       7.002	      -3.840	    -168.971
	55.000000000	      -1.346	     168.555	      -2.138	      21.686	     -26.130	       7.032	      -3.793	    -169.197
	55.500000000	      -1.347	     168.258	      -2.212	      21.069	     -25.970	       7.264	      -3.762	    -169.503
	56.000000000	      -1.342	     168.042	      -2.307	      20.451	     -26.219	       5.400	      -3.704	    -170.000
	56.500000000	      -1.333	     167.886	      -2.415	      19.783	     -26.185	       5.379	      -3.685	    -170.539
	57.000000000	      -1.336	     167.668	      -2.522	      19.300	     -26.299	       6.092	      -3.674	    -170.665
	57.500000000	      -1.335	     167.457	      -2.619	      18.765	     -26.224	       6.402	      -3.623	    -170.740
	58.000000000	      -1.321	     167.446	      -2.697	      18.247	     -26.398	       5.785	      -3.601	    -171.128
	58.500000000	      -1.289	     167.179	      -2.766	      17.647	     -26.325	       6.635	      -3.569	    -171.433
	59.000000000	      -1.303	     166.917	      -2.857	      16.904	     -26.726	       8.725	      -3.522	    -171.604
	59.500000000	      -1.296	     166.633	      -2.969	      16.336	     -26.270	       6.517	      -3.501	    -171.822
	60.000000000	      -1.289	     166.564	      -3.053	      15.722	     -26.293	       6.802	      -3.493	    -172.083
	60.500000000	      -1.257	     166.358	      -3.161	      15.133	     -26.461	       6.321	      -3.500	    -172.225
	61.000000000	      -1.226	     166.112	      -3.264	      14.619	     -26.604	       6.386	      -3.443	    -172.258
	61.500000000	      -1.224	     165.792	      -3.361	      14.247	     -26.614	       6.672	      -3.426	    -172.510
	62.000000000	      -1.216	     165.535	      -3.423	      13.545	     -26.472	       7.130	      -3.418	    -172.508
	62.500000000	      -1.207	     165.178	      -3.516	      13.031	     -26.546	       8.378	      -3.408	    -172.494
	63.000000000	      -1.200	     164.757	      -3.585	      12.388	     -26.468	       9.451	      -3.370	    -172.676
	63.500000000	      -1.189	     164.643	      -3.657	      11.734	     -26.404	       9.562	      -3.286	    -172.872
	64.000000000	      -1.185	     164.763	      -3.729	      10.991	     -26.536	       7.888	      -3.237	    -172.919
	64.500000000	      -1.148	     164.610	      -3.828	      10.406	     -26.433	       8.381	      -3.225	    -172.683
	65.000000000	      -1.189	     164.246	      -3.946	       9.592	     -26.219	       7.955	      -3.171	    -172.934
	65.500000000	      -1.163	     163.826	      -4.041	       8.901	     -26.621	       7.769	      -3.126	    -173.664
	66.000000000	      -1.159	     163.480	      -4.139	       8.290	     -26.661	       7.049	      -3.142	    -173.964
	66.500000000	      -1.173	     163.369	      -4.253	       7.635	     -26.489	       8.874	      -3.071	    -174.047
	67.000000000	      -1.213	     162.913	      -4.376	       6.950	     -26.660	       6.558	      -3.073	    -173.937
	67.500000000	      -1.209	     162.307	      -4.491	       6.308	     -26.488	       8.015	      -3.054	    -174.313
	68.000000000	      -1.247	     162.123	      -4.587	       5.760	     -26.418	       8.012	      -3.077	    -174.654
	68.500000000	      -1.273	     161.918	      -4.681	       5.249	     -26.463	       7.479	      -3.035	    -174.728
	69.000000000	      -1.298	     161.737	      -4.807	       4.845	     -26.492	       7.001	      -2.977	    -174.801
	69.500000000	      -1.298	     161.549	      -4.917	       4.390	     -26.584	       6.770	      -2.957	    -174.917
	70.000000000	      -1.282	     161.354	      -5.004	       3.950	     -26.678	       7.478	      -2.926	    -174.928
	70.500000000	      -1.264	     161.192	      -5.107	       3.539	     -26.576	       7.783	      -2.886	    -175.044
	71.000000000	      -1.262	     160.984	      -5.193	       3.249	     -26.558	       7.564	      -2.857	    -175.161
	71.500000000	      -1.207	     160.762	      -5.285	       2.730	     -26.519	       7.054	      -2.784	    -175.273
	72.000000000	      -1.216	     160.601	      -5.368	       2.218	     -26.489	       6.563	      -2.791	    -175.588
	72.500000000	      -1.235	     160.178	      -5.450	       1.647	     -26.537	       6.101	      -2.768	    -175.835
	73.000000000	      -1.256	     160.003	      -5.544	       1.083	     -26.621	       5.368	      -2.727	    -175.935
	73.500000000	      -1.278	     159.906	      -5.638	       0.506	     -26.778	       5.610	      -2.661	    -176.192
	74.000000000	      -1.282	     159.677	      -5.728	       0.009	     -26.791	       5.706	      -2.650	    -176.697
	74.500000000	      -1.310	     159.474	      -5.807	      -0.524	     -26.814	       5.863	      -2.659	    -176.897
	75.000000000	      -1.340	     159.429	      -5.902	      -1.132	     -26.873	       5.699	      -2.643	    -176.974
	75.500000000	      -1.365	     159.452	      -6.026	      -1.805	     -27.001	       5.291	      -2.641	    -177.138
	76.000000000	      -1.364	     159.522	      -6.157	      -2.405	     -27.270	       5.661	      -2.644	    -177.210
	76.500000000	      -1.351	     159.596	      -6.312	      -2.789	     -27.580	       8.035	      -2.648	    -177.132
	77.000000000	      -1.334	     159.647	      -6.455	      -2.883	     -27.547	      11.783	      -2.603	    -176.915
	77.500000000	      -1.280	     159.585	      -6.542	      -2.678	     -27.070	      14.551	      -2.523	    -176.886
	78.000000000	      -1.187	     159.499	      -6.581	      -2.569	     -26.545	      15.217	      -2.468	    -176.916
	78.500000000	      -1.120	     159.003	      -6.602	      -2.901	     -26.144	      14.326	      -2.422	    -177.241
	79.000000000	      -1.124	     158.519	      -6.653	      -3.386	     -25.824	      12.955	      -2.363	    -177.509
	79.500000000	      -1.113	     157.936	      -6.678	      -3.949	     -25.610	      11.393	      -2.317	    -177.731
