!File name = EG0520U_1010_6x60_2SDBCB2EV_1915934D06_RC2943_3Vd_18mA.s2p
!Base file name = EG0520U_1010_6x60_2SDBCB2EV_1915934D06_RC2943
!Date = 8/23/2019
!Time = 1:03 PM
!Test duration(min) = 0.15
!Test = S-Parameters
!MPTS version = 8.91.5
!State File = C:\Data\PNA\20190821205423\S-Parameters_2019-08-23.sta
!Cal File = 
!ComputerName = CMPE-LAB-6
!Comments = 
!Attenuation = 0
!Z0 = 50
!Input Power(dBm) = -13.00
!Device ID = EG0520U_1010_6x60_2SDBCB2EV
!Row = 29
!Column = 43
!Technology = QPHT09
!Lot/Wafer = 1915934D06
!Gate Size = 360
!Mask = EG0520
!Cal Standards = GaAs BCB
!Cal Kit = EG2306
!Job Number = 20190821205423
!Device Type = FET
!set_Vg(v) = -1.500
!set_Vd(v) = 3.000
!set_Vd(mA) = 18.000
!file_name = EG0520U_1010_6x60_2SDBCB2EV_1915934D06_RC2943_3Vd_18mA.s2p
!Vd(V) = 3.000
!Vd(mA) = 17.918
!Vg(V) = -0.616
!Vg(mA) = -0.004
# GHz   S   DB   R   50
!%	Freq(GHz)	     s11(dB)	    s11(deg)	     s21(dB)	    s21(deg)	     s12(dB)	    s12(deg)	     s22(dB)	    s22(deg)
	0.500000000	      -0.052	     -12.525	      19.763	     172.137	     -37.483	      81.630	      -7.472	     -12.799
	1.000000000	      -0.134	     -24.814	      19.466	     164.196	     -31.655	      75.033	      -7.511	     -24.754
	1.500000000	      -0.169	     -36.581	      19.193	     157.922	     -28.419	      68.372	      -7.492	     -36.423
	2.000000000	      -0.319	     -47.666	      18.972	     150.667	     -26.315	      61.858	      -7.522	     -48.088
	2.500000000	      -0.411	     -58.025	      18.609	     144.682	     -24.860	      56.380	      -7.684	     -57.771
	3.000000000	      -0.802	     -65.282	      17.996	     139.433	     -23.983	      52.047	      -8.029	     -61.901
	3.500000000	      -0.923	     -73.776	      17.550	     134.468	     -23.143	      47.639	      -8.114	     -69.507
	4.000000000	      -1.040	     -81.375	      17.067	     129.995	     -22.489	      43.640	      -8.187	     -76.356
	4.500000000	      -1.180	     -88.192	      16.560	     125.638	     -21.993	      39.936	      -8.250	     -82.817
	5.000000000	      -1.264	     -94.362	      16.071	     121.981	     -21.600	      36.704	      -8.322	     -88.354
	5.500000000	      -1.359	    -100.052	      15.590	     118.434	     -21.295	      33.876	      -8.412	     -93.356
	6.000000000	      -1.440	    -105.200	      15.119	     115.198	     -21.034	      31.279	      -8.446	     -97.722
	6.500000000	      -1.503	    -109.793	      14.655	     112.313	     -20.822	      28.883	      -8.479	    -101.667
	7.000000000	      -1.566	    -113.984	      14.203	     109.534	     -20.649	      26.727	      -8.497	    -105.217
	7.500000000	      -1.612	    -117.793	      13.761	     106.997	     -20.514	      24.705	      -8.510	    -108.396
	8.000000000	      -1.639	    -121.030	      13.353	     104.757	     -20.382	      23.102	      -8.535	    -110.660
	8.500000000	      -1.682	    -124.274	      12.941	     102.532	     -20.282	      21.388	      -8.544	    -113.283
	9.000000000	      -1.724	    -127.172	      12.531	     100.448	     -20.195	      19.757	      -8.538	    -115.607
	9.500000000	      -1.755	    -129.925	      12.151	      98.401	     -20.124	      18.249	      -8.526	    -117.712
	10.000000000	      -1.778	    -132.451	      11.779	      96.512	     -20.076	      16.816	      -8.511	    -119.725
	10.500000000	      -1.808	    -134.834	      11.419	      94.656	     -20.037	      15.528	      -8.494	    -121.525
	11.000000000	      -1.827	    -137.009	      11.071	      92.945	     -20.007	      14.317	      -8.476	    -123.148
	11.500000000	      -1.853	    -139.064	      10.729	      91.263	     -19.982	      13.148	      -8.452	    -124.645
	12.000000000	      -1.872	    -140.983	      10.404	      89.673	     -19.971	      12.083	      -8.418	    -126.015
	12.500000000	      -1.883	    -142.766	      10.088	      88.161	     -19.958	      11.103	      -8.381	    -127.328
	13.000000000	      -1.901	    -144.438	       9.777	      86.644	     -19.957	      10.144	      -8.343	    -128.605
	13.500000000	      -1.912	    -146.020	       9.481	      85.221	     -19.949	       9.206	      -8.297	    -129.687
	14.000000000	      -1.923	    -147.550	       9.191	      83.825	     -19.958	       8.317	      -8.247	    -130.648
	14.500000000	      -1.928	    -148.950	       8.910	      82.456	     -19.968	       7.496	      -8.206	    -131.685
	15.000000000	      -1.935	    -150.205	       8.632	      81.151	     -19.985	       6.737	      -8.166	    -132.612
	15.500000000	      -1.945	    -151.450	       8.363	      79.855	     -19.993	       6.029	      -8.118	    -133.409
	16.000000000	      -1.952	    -152.661	       8.101	      78.592	     -20.004	       5.295	      -8.059	    -134.170
	16.500000000	      -1.959	    -153.838	       7.846	      77.347	     -20.018	       4.548	      -8.006	    -134.866
	17.000000000	      -1.961	    -154.938	       7.599	      76.145	     -20.049	       3.861	      -7.958	    -135.573
	17.500000000	      -1.969	    -155.927	       7.353	      74.962	     -20.068	       3.271	      -7.897	    -136.307
	18.000000000	      -1.980	    -156.907	       7.118	      73.808	     -20.097	       2.627	      -7.840	    -137.000
	18.500000000	      -1.982	    -157.867	       6.887	      72.677	     -20.108	       1.972	      -7.771	    -137.589
	19.000000000	      -1.982	    -158.785	       6.659	      71.545	     -20.146	       1.303	      -7.711	    -138.187
	19.500000000	      -1.981	    -159.652	       6.438	      70.462	     -20.204	       0.736	      -7.660	    -138.757
	20.000000000	      -1.988	    -160.461	       6.222	      69.408	     -20.255	       0.407	      -7.610	    -139.239
	20.500000000	      -1.990	    -161.242	       6.018	      68.342	     -20.276	       0.074	      -7.541	    -139.720
	21.000000000	      -1.991	    -162.007	       5.810	      67.286	     -20.291	      -0.411	      -7.471	    -140.242
	21.500000000	      -1.983	    -162.806	       5.607	      66.237	     -20.323	      -0.942	      -7.404	    -140.708
	22.000000000	      -1.981	    -163.449	       5.407	      65.226	     -20.350	      -1.457	      -7.336	    -141.167
	22.500000000	      -1.979	    -164.129	       5.210	      64.194	     -20.377	      -2.076	      -7.278	    -141.673
	23.000000000	      -1.983	    -164.783	       5.014	      63.196	     -20.428	      -2.609	      -7.216	    -142.220
	23.500000000	      -1.981	    -165.445	       4.823	      62.262	     -20.525	      -3.031	      -7.158	    -142.737
	24.000000000	      -1.980	    -166.074	       4.644	      61.328	     -20.589	      -3.151	      -7.101	    -143.112
	24.500000000	      -1.969	    -166.618	       4.469	      60.357	     -20.596	      -3.348	      -7.036	    -143.381
	25.000000000	      -1.953	    -167.103	       4.294	      59.362	     -20.596	      -3.661	      -6.966	    -143.723
	25.500000000	      -1.945	    -167.701	       4.118	      58.407	     -20.626	      -4.213	      -6.899	    -144.147
	26.000000000	      -1.946	    -168.384	       3.939	      57.471	     -20.679	      -4.706	      -6.818	    -144.638
	26.500000000	      -1.944	    -168.912	       3.767	      56.545	     -20.728	      -5.116	      -6.744	    -145.033
	27.000000000	      -1.935	    -169.325	       3.600	      55.663	     -20.783	      -5.570	      -6.683	    -145.421
	27.500000000	      -1.928	    -169.728	       3.443	      54.837	     -20.874	      -5.668	      -6.631	    -145.616
	28.000000000	      -1.916	    -170.275	       3.293	      53.930	     -20.916	      -5.804	      -6.562	    -146.077
	28.500000000	      -1.906	    -170.837	       3.138	      52.944	     -20.921	      -5.985	      -6.481	    -146.462
	29.000000000	      -1.896	    -171.293	       2.976	      51.996	     -20.944	      -6.346	      -6.412	    -146.902
	29.500000000	      -1.888	    -171.750	       2.818	      51.115	     -21.006	      -6.883	      -6.348	    -147.291
	30.000000000	      -1.880	    -172.173	       2.665	      50.290	     -21.063	      -7.134	      -6.291	    -147.645
	30.500000000	      -1.872	    -172.657	       2.516	      49.384	     -21.106	      -7.622	      -6.230	    -148.013
	31.000000000	      -1.861	    -173.131	       2.365	      48.537	     -21.168	      -8.048	      -6.177	    -148.413
	31.500000000	      -1.846	    -173.588	       2.228	      47.681	     -21.247	      -8.032	      -6.126	    -148.745
	32.000000000	      -1.842	    -173.949	       2.082	      46.813	     -21.327	      -8.146	      -6.055	    -149.054
	32.500000000	      -1.848	    -174.424	       1.936	      45.918	     -21.317	      -8.388	      -5.978	    -149.319
	33.000000000	      -1.847	    -174.855	       1.793	      45.101	     -21.356	      -8.633	      -5.917	    -149.676
	33.500000000	      -1.829	    -175.271	       1.648	      44.277	     -21.444	      -8.928	      -5.858	    -150.081
	34.000000000	      -1.814	    -175.618	       1.508	      43.437	     -21.483	      -9.183	      -5.787	    -150.523
	34.500000000	      -1.808	    -176.071	       1.359	      42.561	     -21.524	      -9.533	      -5.718	    -150.855
	35.000000000	      -1.805	    -176.465	       1.216	      41.738	     -21.622	      -9.715	      -5.657	    -151.281
	35.500000000	      -1.801	    -176.878	       1.090	      40.975	     -21.688	      -9.678	      -5.609	    -151.546
	36.000000000	      -1.795	    -177.249	       0.959	      40.092	     -21.681	      -9.775	      -5.535	    -151.872
	36.500000000	      -1.784	    -177.555	       0.822	      39.271	     -21.746	      -9.989	      -5.472	    -152.275
	37.000000000	      -1.778	    -177.865	       0.687	      38.483	     -21.735	     -10.337	      -5.416	    -152.614
	37.500000000	      -1.777	    -178.246	       0.550	      37.718	     -21.848	     -11.010	      -5.370	    -152.962
	38.000000000	      -1.775	    -178.624	       0.417	      36.979	     -21.892	     -11.186	      -5.308	    -153.284
	38.500000000	      -1.763	    -179.009	       0.279	      36.198	     -21.992	     -11.590	      -5.242	    -153.694
	39.000000000	      -1.761	    -179.328	       0.149	      35.478	     -22.054	     -11.327	      -5.192	    -154.067
	39.500000000	      -1.766	    -179.589	       0.020	      34.792	     -22.161	     -11.728	      -5.133	    -154.420
	40.000000000	      -1.767	    -179.970	      -0.095	      34.067	     -22.225	     -11.637	      -5.067	    -154.718
	40.500000000	      -1.767	     179.675	      -0.216	      33.332	     -22.239	     -11.509	      -4.996	    -155.059
	41.000000000	      -1.749	     179.380	      -0.333	      32.541	     -22.278	     -11.697	      -4.934	    -155.508
	41.500000000	      -1.739	     179.201	      -0.450	      31.781	     -22.344	     -11.940	      -4.906	    -155.794
	42.000000000	      -1.742	     178.936	      -0.573	      31.059	     -22.398	     -12.340	      -4.834	    -156.064
	42.500000000	      -1.753	     178.529	      -0.698	      30.367	     -22.479	     -12.481	      -4.779	    -156.226
	43.000000000	      -1.755	     178.300	      -0.799	      29.751	     -22.561	     -12.580	      -4.716	    -156.557
	43.500000000	      -1.726	     178.161	      -0.914	      28.982	     -22.597	     -11.863	      -4.679	    -157.005
	44.000000000	      -1.739	     177.864	      -1.031	      28.200	     -22.631	     -12.433	      -4.608	    -157.392
	44.500000000	      -1.736	     177.434	      -1.150	      27.449	     -22.640	     -12.088	      -4.545	    -157.753
	45.000000000	      -1.739	     177.195	      -1.269	      26.741	     -22.685	     -12.891	      -4.489	    -158.131
	45.500000000	      -1.688	     176.714	      -1.545	      26.146	     -22.896	     -12.921	      -4.360	    -159.083
	46.000000000	      -1.669	     176.483	      -1.670	      25.475	     -22.942	     -13.123	      -4.314	    -159.429
	46.500000000	      -1.657	     176.126	      -1.778	      24.847	     -23.099	     -13.213	      -4.244	    -159.643
	47.000000000	      -1.662	     175.774	      -1.878	      24.207	     -23.185	     -13.348	      -4.182	    -159.837
	47.500000000	      -1.651	     175.514	      -1.986	      23.465	     -23.256	     -12.479	      -4.151	    -160.137
	48.000000000	      -1.632	     175.254	      -2.105	      22.758	     -23.237	     -12.191	      -4.096	    -160.481
	48.500000000	      -1.625	     174.924	      -2.212	      22.092	     -23.227	     -12.867	      -4.039	    -160.753
	49.000000000	      -1.635	     174.692	      -2.326	      21.460	     -23.320	     -13.933	      -3.986	    -161.025
	49.500000000	      -1.648	     174.474	      -2.457	      20.806	     -23.430	     -14.629	      -3.941	    -161.471
	50.000000000	      -1.630	     174.144	      -2.543	      20.256	     -23.647	     -13.856	      -3.887	    -161.757
	50.500000000	      -1.620	     173.958	      -2.654	      19.707	     -23.641	     -14.158	      -3.877	    -162.376
	51.000000000	      -1.603	     173.681	      -2.754	      18.962	     -23.680	     -13.614	      -3.851	    -162.697
	51.500000000	      -1.598	     173.502	      -2.864	      18.392	     -23.625	     -12.614	      -3.799	    -163.021
	52.000000000	      -1.571	     173.294	      -2.966	      17.739	     -23.586	     -13.171	      -3.761	    -163.271
	52.500000000	      -1.571	     172.909	      -3.076	      17.098	     -23.704	     -13.288	      -3.727	    -163.464
	53.000000000	      -1.566	     172.552	      -3.184	      16.380	     -23.780	     -14.249	      -3.679	    -163.615
	53.500000000	      -1.563	     172.391	      -3.277	      15.945	     -23.836	     -13.677	      -3.635	    -163.964
	54.000000000	      -1.552	     172.206	      -3.376	      15.331	     -23.801	     -13.902	      -3.566	    -164.200
	54.500000000	      -1.551	     171.762	      -3.464	      14.791	     -23.991	     -13.274	      -3.511	    -164.442
	55.000000000	      -1.561	     171.447	      -3.556	      14.105	     -23.955	     -13.092	      -3.471	    -164.682
	55.500000000	      -1.550	     171.151	      -3.642	      13.444	     -23.965	     -13.797	      -3.417	    -165.106
	56.000000000	      -1.545	     170.891	      -3.740	      12.761	     -23.908	     -14.050	      -3.392	    -165.591
	56.500000000	      -1.544	     170.709	      -3.834	      12.158	     -23.958	     -13.271	      -3.356	    -166.257
	57.000000000	      -1.543	     170.594	      -3.925	      11.611	     -23.918	     -14.701	      -3.348	    -166.218
	57.500000000	      -1.539	     170.282	      -4.047	      10.979	     -24.259	     -14.562	      -3.308	    -166.581
	58.000000000	      -1.509	     170.204	      -4.130	      10.352	     -24.191	     -15.525	      -3.277	    -166.853
	58.500000000	      -1.484	     169.992	      -4.214	       9.773	     -24.271	     -14.940	      -3.243	    -167.228
	59.000000000	      -1.478	     169.625	      -4.275	       9.039	     -24.181	     -14.356	      -3.187	    -167.331
	59.500000000	      -1.490	     169.451	      -4.373	       8.378	     -24.362	     -15.044	      -3.160	    -167.754
	60.000000000	      -1.475	     169.325	      -4.479	       7.721	     -24.377	     -15.156	      -3.162	    -168.051
	60.500000000	      -1.438	     169.001	      -4.578	       7.029	     -24.438	     -15.288	      -3.162	    -168.105
	61.000000000	      -1.417	     168.708	      -4.673	       6.557	     -24.592	     -15.874	      -3.117	    -168.409
	61.500000000	      -1.416	     168.460	      -4.757	       5.910	     -24.533	     -16.172	      -3.086	    -168.606
	62.000000000	      -1.394	     168.120	      -4.830	       5.471	     -24.734	     -14.793	      -3.070	    -168.753
	62.500000000	      -1.398	     167.906	      -4.938	       4.768	     -24.850	     -13.898	      -3.040	    -168.927
	63.000000000	      -1.396	     167.379	      -5.008	       4.124	     -24.617	     -13.193	      -3.007	    -168.934
	63.500000000	      -1.382	     167.295	      -5.086	       3.305	     -24.690	     -14.745	      -2.947	    -169.360
	64.000000000	      -1.369	     167.258	      -5.180	       2.778	     -24.601	     -13.776	      -2.888	    -169.306
	64.500000000	      -1.337	     167.219	      -5.252	       1.902	     -24.771	     -14.308	      -2.875	    -169.406
	65.000000000	      -1.354	     166.804	      -5.365	       1.044	     -25.114	     -14.169	      -2.814	    -169.730
	65.500000000	      -1.347	     166.331	      -5.477	       0.482	     -24.859	     -14.607	      -2.771	    -170.387
	66.000000000	      -1.334	     166.059	      -5.608	      -0.399	     -24.979	     -14.269	      -2.738	    -170.629
	66.500000000	      -1.372	     165.920	      -5.736	      -0.947	     -24.908	     -15.884	      -2.711	    -170.832
	67.000000000	      -1.416	     165.566	      -5.825	      -1.770	     -25.015	     -13.877	      -2.688	    -170.795
	67.500000000	      -1.395	     164.933	      -5.974	      -2.522	     -25.032	     -14.564	      -2.696	    -171.325
	68.000000000	      -1.430	     164.771	      -6.083	      -3.143	     -24.983	     -14.917	      -2.728	    -171.596
	68.500000000	      -1.457	     164.596	      -6.174	      -3.601	     -25.052	     -15.198	      -2.682	    -171.685
	69.000000000	      -1.480	     164.411	      -6.303	      -4.213	     -25.096	     -15.796	      -2.618	    -171.999
	69.500000000	      -1.473	     164.202	      -6.416	      -4.633	     -25.196	     -15.937	      -2.608	    -172.128
	70.000000000	      -1.453	     164.041	      -6.518	      -5.063	     -25.285	     -15.457	      -2.584	    -172.211
	70.500000000	      -1.431	     163.860	      -6.610	      -5.506	     -25.272	     -15.090	      -2.548	    -172.339
	71.000000000	      -1.422	     163.626	      -6.678	      -5.786	     -25.265	     -15.115	      -2.519	    -172.565
	71.500000000	      -1.384	     163.480	      -6.786	      -6.391	     -25.249	     -15.407	      -2.446	    -172.782
	72.000000000	      -1.376	     163.127	      -6.894	      -6.869	     -25.239	     -15.905	      -2.449	    -172.971
	72.500000000	      -1.391	     162.827	      -6.986	      -7.497	     -25.255	     -16.426	      -2.432	    -173.261
	73.000000000	      -1.412	     162.614	      -7.082	      -8.051	     -25.369	     -17.019	      -2.393	    -173.421
	73.500000000	      -1.425	     162.507	      -7.185	      -8.599	     -25.493	     -17.337	      -2.321	    -173.698
	74.000000000	      -1.424	     162.241	      -7.274	      -9.052	     -25.584	     -17.026	      -2.321	    -174.238
	74.500000000	      -1.448	     162.050	      -7.365	      -9.568	     -25.628	     -16.954	      -2.336	    -174.477
	75.000000000	      -1.473	     161.964	      -7.461	     -10.209	     -25.667	     -17.239	      -2.312	    -174.630
	75.500000000	      -1.493	     161.918	      -7.574	     -10.802	     -25.791	     -17.698	      -2.309	    -174.811
	76.000000000	      -1.497	     161.939	      -7.701	     -11.406	     -26.074	     -17.927	      -2.310	    -174.952
	76.500000000	      -1.474	     161.959	      -7.854	     -11.759	     -26.480	     -16.631	      -2.314	    -174.913
	77.000000000	      -1.470	     161.967	      -7.990	     -11.838	     -26.698	     -13.279	      -2.276	    -174.830
	77.500000000	      -1.409	     161.858	      -8.066	     -11.580	     -26.495	      -9.357	      -2.203	    -174.833
	78.000000000	      -1.329	     161.743	      -8.096	     -11.506	     -26.013	      -7.353	      -2.148	    -174.915
	78.500000000	      -1.265	     161.261	      -8.108	     -11.859	     -25.605	      -6.973	      -2.113	    -175.206
	79.000000000	      -1.265	     160.694	      -8.145	     -12.413	     -25.285	      -7.792	      -2.055	    -175.549
	79.500000000	      -1.263	     160.199	      -8.161	     -13.001	     -24.982	      -8.688	      -2.008	    -175.805
