!File name = EG0520U_1010_6x60_2SDBCB2EV_1915934D06_RC7325_3.5Vd_27mA.s2p
!Base file name = EG0520U_1010_6x60_2SDBCB2EV_1915934D06_RC7325
!Date = 8/23/2019
!Time = 1:10 PM
!Test duration(min) = 0.15
!Test = S-Parameters
!MPTS version = 8.91.5
!State File = C:\Data\PNA\20190821205423\S-Parameters_2019-08-23.sta
!Cal File = 
!ComputerName = CMPE-LAB-6
!Comments = 
!Attenuation = 0
!Z0 = 50
!Input Power(dBm) = -13.00
!Device ID = EG0520U_1010_6x60_2SDBCB2EV
!Row = 73
!Column = 25
!Technology = QPHT09
!Lot/Wafer = 1915934D06
!Gate Size = 360
!Mask = EG0520
!Cal Standards = GaAs BCB
!Cal Kit = EG2306
!Job Number = 20190821205423
!Device Type = FET
!set_Vg(v) = -1.500
!set_Vd(v) = 3.500
!set_Vd(mA) = 27.000
!file_name = EG0520U_1010_6x60_2SDBCB2EV_1915934D06_RC7325_3.5Vd_27mA.s2p
!Vd(V) = 3.500
!Vd(mA) = 26.799
!Vg(V) = -0.606
!Vg(mA) = -0.005
# GHz   S   DB   R   50
!%	Freq(GHz)	     s11(dB)	    s11(deg)	     s21(dB)	    s21(deg)	     s12(dB)	    s12(deg)	     s22(dB)	    s22(deg)
	0.500000000	      -0.064	     -13.429	      20.855	     171.693	     -38.456	      81.271	      -8.027	     -13.462
	1.000000000	      -0.145	     -26.591	      20.505	     163.619	     -32.650	      74.426	      -8.073	     -25.915
	1.500000000	      -0.181	     -39.128	      20.200	     156.803	     -29.444	      67.544	      -8.063	     -37.994
	2.000000000	      -0.321	     -50.658	      19.951	     149.630	     -27.378	      61.000	      -8.104	     -49.900
	2.500000000	      -0.415	     -61.494	      19.553	     143.427	     -25.949	      55.398	      -8.253	     -59.723
	3.000000000	      -0.799	     -68.886	      18.906	     138.232	     -25.099	      51.050	      -8.613	     -63.763
	3.500000000	      -0.917	     -77.512	      18.407	     133.226	     -24.293	      46.666	      -8.704	     -71.407
	4.000000000	      -1.022	     -85.178	      17.889	     128.752	     -23.675	      42.741	      -8.780	     -78.223
	4.500000000	      -1.141	     -92.015	      17.359	     124.525	     -23.208	      39.137	      -8.848	     -84.535
	5.000000000	      -1.219	     -98.160	      16.840	     120.873	     -22.834	      36.001	      -8.919	     -89.916
	5.500000000	      -1.299	    -103.749	      16.336	     117.423	     -22.544	      33.278	      -8.995	     -94.738
	6.000000000	      -1.368	    -108.769	      15.839	     114.295	     -22.304	      30.763	      -9.023	     -98.945
	6.500000000	      -1.422	    -113.239	      15.356	     111.484	     -22.107	      28.523	      -9.048	    -102.695
	7.000000000	      -1.474	    -117.304	      14.889	     108.815	     -21.947	      26.454	      -9.061	    -106.020
	7.500000000	      -1.510	    -120.963	      14.436	     106.378	     -21.819	      24.615	      -9.065	    -109.013
	8.000000000	      -1.529	    -124.081	      14.016	     104.224	     -21.691	      23.088	      -9.084	    -111.060
	8.500000000	      -1.564	    -127.190	      13.593	     102.091	     -21.599	      21.459	      -9.086	    -113.490
	9.000000000	      -1.599	    -129.975	      13.177	     100.092	     -21.525	      19.952	      -9.073	    -115.662
	9.500000000	      -1.624	    -132.591	      12.788	      98.147	     -21.459	      18.560	      -9.056	    -117.563
	10.000000000	      -1.642	    -135.004	      12.409	      96.338	     -21.420	      17.232	      -9.037	    -119.364
	10.500000000	      -1.666	    -137.265	      12.045	      94.567	     -21.390	      16.070	      -9.014	    -121.031
	11.000000000	      -1.681	    -139.323	      11.692	      92.929	     -21.360	      14.983	      -8.987	    -122.449
	11.500000000	      -1.701	    -141.278	      11.347	      91.330	     -21.341	      13.919	      -8.954	    -123.790
	12.000000000	      -1.718	    -143.084	      11.018	      89.816	     -21.333	      12.996	      -8.908	    -124.971
	12.500000000	      -1.726	    -144.768	      10.698	      88.357	     -21.321	      12.087	      -8.861	    -126.203
	13.000000000	      -1.737	    -146.356	      10.386	      86.914	     -21.316	      11.214	      -8.817	    -127.281
	13.500000000	      -1.748	    -147.862	      10.085	      85.554	     -21.322	      10.333	      -8.765	    -128.163
	14.000000000	      -1.759	    -149.297	       9.793	      84.223	     -21.331	       9.616	      -8.709	    -129.033
	14.500000000	      -1.763	    -150.599	       9.509	      82.928	     -21.345	       8.878	      -8.661	    -129.936
	15.000000000	      -1.768	    -151.758	       9.230	      81.689	     -21.357	       8.266	      -8.613	    -130.726
	15.500000000	      -1.774	    -152.929	       8.961	      80.452	     -21.365	       7.645	      -8.556	    -131.394
	16.000000000	      -1.778	    -154.083	       8.699	      79.248	     -21.370	       6.952	      -8.492	    -132.044
	16.500000000	      -1.784	    -155.190	       8.442	      78.061	     -21.393	       6.307	      -8.431	    -132.618
	17.000000000	      -1.783	    -156.223	       8.196	      76.917	     -21.423	       5.699	      -8.376	    -133.224
	17.500000000	      -1.792	    -157.164	       7.949	      75.780	     -21.442	       5.192	      -8.310	    -133.865
	18.000000000	      -1.801	    -158.087	       7.715	      74.680	     -21.477	       4.590	      -8.248	    -134.459
	18.500000000	      -1.802	    -158.988	       7.484	      73.607	     -21.492	       4.058	      -8.175	    -134.944
	19.000000000	      -1.801	    -159.850	       7.256	      72.534	     -21.534	       3.514	      -8.109	    -135.420
	19.500000000	      -1.798	    -160.666	       7.037	      71.491	     -21.587	       3.076	      -8.052	    -135.890
	20.000000000	      -1.804	    -161.444	       6.821	      70.471	     -21.640	       2.763	      -7.998	    -136.311
	20.500000000	      -1.806	    -162.177	       6.616	      69.455	     -21.664	       2.545	      -7.926	    -136.690
	21.000000000	      -1.806	    -162.894	       6.410	      68.443	     -21.679	       2.225	      -7.850	    -137.121
	21.500000000	      -1.798	    -163.655	       6.206	      67.433	     -21.707	       1.780	      -7.777	    -137.483
	22.000000000	      -1.789	    -164.291	       6.009	      66.447	     -21.728	       1.335	      -7.705	    -137.866
	22.500000000	      -1.787	    -164.964	       5.811	      65.447	     -21.751	       0.796	      -7.642	    -138.277
	23.000000000	      -1.791	    -165.595	       5.615	      64.486	     -21.794	       0.316	      -7.573	    -138.777
	23.500000000	      -1.791	    -166.300	       5.422	      63.551	     -21.879	      -0.173	      -7.511	    -139.286
	24.000000000	      -1.800	    -166.919	       5.236	      62.675	     -21.985	      -0.329	      -7.463	    -139.556
	24.500000000	      -1.793	    -167.368	       5.063	      61.771	     -22.007	      -0.288	      -7.394	    -139.709
	25.000000000	      -1.780	    -167.843	       4.888	      60.822	     -21.984	      -0.516	      -7.314	    -139.937
	25.500000000	      -1.782	    -168.425	       4.710	      59.923	     -22.046	      -0.922	      -7.238	    -140.283
	26.000000000	      -1.781	    -169.032	       4.535	      59.040	     -22.077	      -1.230	      -7.149	    -140.755
	26.500000000	      -1.776	    -169.539	       4.366	      58.140	     -22.123	      -1.650	      -7.072	    -141.111
	27.000000000	      -1.766	    -169.957	       4.197	      57.269	     -22.183	      -2.126	      -7.010	    -141.388
	27.500000000	      -1.769	    -170.345	       4.035	      56.496	     -22.312	      -2.130	      -6.966	    -141.546
	28.000000000	      -1.767	    -170.885	       3.883	      55.640	     -22.392	      -1.940	      -6.895	    -141.933
	28.500000000	      -1.746	    -171.375	       3.738	      54.702	     -22.337	      -1.828	      -6.800	    -142.259
	29.000000000	      -1.739	    -171.855	       3.574	      53.777	     -22.341	      -2.110	      -6.729	    -142.644
	29.500000000	      -1.735	    -172.264	       3.415	      52.913	     -22.394	      -2.682	      -6.657	    -143.012
	30.000000000	      -1.735	    -172.718	       3.259	      52.135	     -22.469	      -2.880	      -6.602	    -143.280
	30.500000000	      -1.738	    -173.167	       3.108	      51.293	     -22.518	      -3.185	      -6.539	    -143.602
	31.000000000	      -1.729	    -173.618	       2.961	      50.460	     -22.586	      -3.588	      -6.482	    -143.934
	31.500000000	      -1.713	    -174.013	       2.827	      49.724	     -22.681	      -3.053	      -6.422	    -144.232
	32.000000000	      -1.710	    -174.388	       2.684	      48.867	     -22.694	      -2.845	      -6.346	    -144.492
	32.500000000	      -1.719	    -174.816	       2.540	      47.990	     -22.670	      -3.334	      -6.269	    -144.772
	33.000000000	      -1.719	    -175.237	       2.398	      47.188	     -22.717	      -3.523	      -6.208	    -145.098
	33.500000000	      -1.706	    -175.659	       2.250	      46.407	     -22.778	      -3.782	      -6.146	    -145.439
	34.000000000	      -1.699	    -175.981	       2.110	      45.620	     -22.848	      -3.818	      -6.075	    -145.893
	34.500000000	      -1.699	    -176.392	       1.964	      44.794	     -22.868	      -4.187	      -6.005	    -146.135
	35.000000000	      -1.699	    -176.737	       1.826	      44.063	     -22.988	      -4.220	      -5.949	    -146.585
	35.500000000	      -1.699	    -177.106	       1.706	      43.324	     -23.027	      -3.923	      -5.893	    -146.781
	36.000000000	      -1.688	    -177.445	       1.579	      42.489	     -23.016	      -4.204	      -5.824	    -147.043
	36.500000000	      -1.674	    -177.684	       1.454	      41.705	     -23.033	      -4.516	      -5.748	    -147.409
	37.000000000	      -1.669	    -177.907	       1.325	      40.944	     -23.069	      -4.937	      -5.689	    -147.733
	37.500000000	      -1.667	    -178.351	       1.193	      40.146	     -23.174	      -4.771	      -5.635	    -148.042
	38.000000000	      -1.659	    -178.682	       1.059	      39.408	     -23.169	      -4.889	      -5.580	    -148.334
	38.500000000	      -1.648	    -179.065	       0.928	      38.674	     -23.306	      -5.663	      -5.511	    -148.773
	39.000000000	      -1.637	    -179.323	       0.808	      37.978	     -23.400	      -5.115	      -5.452	    -149.082
	39.500000000	      -1.632	    -179.536	       0.691	      37.266	     -23.408	      -5.250	      -5.391	    -149.412
	40.000000000	      -1.620	     179.994	       0.580	      36.444	     -23.420	      -4.938	      -5.320	    -149.799
	40.500000000	      -1.616	     179.536	       0.451	      35.665	     -23.496	      -5.683	      -5.252	    -150.129
	41.000000000	      -1.606	     179.219	       0.328	      34.888	     -23.583	      -5.410	      -5.207	    -150.508
	41.500000000	      -1.599	     178.967	       0.210	      34.207	     -23.574	      -5.654	      -5.166	    -150.761
	42.000000000	      -1.605	     178.700	       0.091	      33.483	     -23.663	      -5.866	      -5.100	    -150.968
	42.500000000	      -1.621	     178.283	      -0.031	      32.831	     -23.733	      -5.996	      -5.039	    -151.064
	43.000000000	      -1.621	     178.074	      -0.132	      32.199	     -23.902	      -5.201	      -4.973	    -151.423
	43.500000000	      -1.606	     177.882	      -0.246	      31.376	     -23.793	      -5.344	      -4.924	    -151.886
	44.000000000	      -1.603	     177.517	      -0.364	      30.617	     -23.838	      -4.824	      -4.851	    -152.259
	44.500000000	      -1.616	     177.141	      -0.482	      29.922	     -23.845	      -5.441	      -4.804	    -152.588
	45.000000000	      -1.626	     176.821	      -0.598	      29.210	     -23.862	      -5.833	      -4.737	    -153.008
	45.500000000	      -1.580	     176.361	      -0.873	      28.585	     -24.108	      -6.435	      -4.617	    -154.083
	46.000000000	      -1.553	     176.120	      -0.992	      27.937	     -24.256	      -6.653	      -4.573	    -154.438
	46.500000000	      -1.542	     175.721	      -1.095	      27.324	     -24.349	      -6.270	      -4.495	    -154.548
	47.000000000	      -1.547	     175.389	      -1.194	      26.556	     -24.362	      -5.769	      -4.428	    -154.924
	47.500000000	      -1.539	     175.074	      -1.315	      25.830	     -24.469	      -5.733	      -4.400	    -155.043
	48.000000000	      -1.517	     174.785	      -1.428	      25.171	     -24.300	      -5.111	      -4.348	    -155.418
	48.500000000	      -1.520	     174.439	      -1.535	      24.552	     -24.441	      -5.590	      -4.297	    -155.730
	49.000000000	      -1.534	     174.208	      -1.642	      23.854	     -24.563	      -5.834	      -4.223	    -155.977
	49.500000000	      -1.535	     173.949	      -1.742	      23.236	     -24.535	      -6.301	      -4.142	    -156.418
	50.000000000	      -1.526	     173.677	      -1.868	      22.672	     -24.570	      -5.837	      -4.123	    -156.736
	50.500000000	      -1.513	     173.371	      -1.962	      21.987	     -24.683	      -5.545	      -4.114	    -157.114
	51.000000000	      -1.506	     173.032	      -2.065	      21.422	     -24.778	      -4.946	      -4.095	    -157.542
	51.500000000	      -1.503	     172.923	      -2.171	      20.691	     -24.679	      -4.925	      -4.033	    -157.997
	52.000000000	      -1.477	     172.681	      -2.278	      19.971	     -24.708	      -4.953	      -3.981	    -158.301
	52.500000000	      -1.474	     172.310	      -2.381	      19.373	     -24.850	      -5.330	      -3.951	    -158.460
	53.000000000	      -1.474	     171.963	      -2.489	      18.769	     -24.810	      -5.474	      -3.913	    -158.545
	53.500000000	      -1.465	     171.740	      -2.590	      18.246	     -24.852	      -5.444	      -3.856	    -158.925
	54.000000000	      -1.464	     171.486	      -2.672	      17.657	     -24.851	      -6.087	      -3.787	    -159.167
	54.500000000	      -1.454	     171.053	      -2.775	      17.010	     -24.922	      -5.373	      -3.757	    -159.493
	55.000000000	      -1.468	     170.640	      -2.863	      16.362	     -24.957	      -5.103	      -3.699	    -159.646
	55.500000000	      -1.460	     170.357	      -2.950	      15.721	     -24.853	      -5.381	      -3.657	    -160.035
	56.000000000	      -1.456	     169.949	      -3.039	      15.104	     -25.002	      -5.901	      -3.600	    -160.496
	56.500000000	      -1.448	     169.736	      -3.141	      14.458	     -25.213	      -6.098	      -3.578	    -161.367
	57.000000000	      -1.460	     169.519	      -3.240	      13.723	     -24.969	      -6.518	      -3.562	    -161.232
	57.500000000	      -1.467	     169.357	      -3.350	      13.096	     -25.170	      -5.896	      -3.528	    -161.525
	58.000000000	      -1.422	     169.176	      -3.436	      12.563	     -25.304	      -5.479	      -3.497	    -161.788
	58.500000000	      -1.421	     169.022	      -3.510	      11.860	     -25.457	      -5.619	      -3.454	    -162.177
	59.000000000	      -1.400	     168.509	      -3.599	      11.202	     -25.247	      -7.297	      -3.395	    -162.359
	59.500000000	      -1.404	     168.406	      -3.696	      10.431	     -25.220	      -5.554	      -3.335	    -162.740
	60.000000000	      -1.411	     168.196	      -3.775	       9.782	     -25.435	      -5.009	      -3.357	    -163.162
	60.500000000	      -1.379	     167.918	      -3.893	       9.187	     -25.448	      -6.476	      -3.354	    -163.214
	61.000000000	      -1.348	     167.648	      -3.999	       8.648	     -25.473	      -5.893	      -3.314	    -163.438
	61.500000000	      -1.350	     167.312	      -4.099	       8.044	     -25.570	      -7.353	      -3.253	    -163.719
	62.000000000	      -1.333	     167.011	      -4.175	       7.415	     -25.515	      -4.445	      -3.232	    -163.843
	62.500000000	      -1.340	     166.726	      -4.255	       6.695	     -25.567	      -6.716	      -3.222	    -163.979
	63.000000000	      -1.329	     166.143	      -4.328	       6.113	     -25.655	      -3.783	      -3.146	    -163.946
	63.500000000	      -1.314	     166.004	      -4.404	       5.351	     -25.617	      -3.921	      -3.105	    -164.348
	64.000000000	      -1.317	     166.099	      -4.475	       4.548	     -25.525	      -4.612	      -3.025	    -164.549
	64.500000000	      -1.285	     165.920	      -4.561	       3.560	     -25.514	      -3.146	      -2.980	    -164.417
	65.000000000	      -1.305	     165.418	      -4.660	       2.929	     -25.564	      -4.508	      -2.913	    -164.784
	65.500000000	      -1.280	     164.948	      -4.781	       2.165	     -25.609	      -6.244	      -2.887	    -165.800
	66.000000000	      -1.294	     164.610	      -4.912	       1.382	     -25.592	      -5.616	      -2.885	    -166.174
	66.500000000	      -1.317	     164.432	      -5.050	       0.444	     -25.464	      -5.192	      -2.842	    -166.116
	67.000000000	      -1.343	     164.147	      -5.136	      -0.356	     -25.656	      -5.947	      -2.812	    -166.000
	67.500000000	      -1.347	     163.398	      -5.288	      -0.952	     -25.647	      -5.490	      -2.822	    -166.769
	68.000000000	      -1.385	     163.178	      -5.390	      -1.694	     -25.621	      -5.941	      -2.852	    -167.098
	68.500000000	      -1.423	     162.926	      -5.490	      -2.224	     -25.633	      -6.389	      -2.812	    -167.315
	69.000000000	      -1.453	     162.695	      -5.619	      -2.832	     -25.616	      -6.974	      -2.742	    -167.588
	69.500000000	      -1.450	     162.473	      -5.744	      -3.335	     -25.767	      -7.176	      -2.728	    -167.824
	70.000000000	      -1.432	     162.258	      -5.856	      -3.867	     -25.798	      -6.938	      -2.706	    -167.894
	70.500000000	      -1.417	     162.064	      -5.962	      -4.341	     -25.780	      -6.796	      -2.662	    -168.106
	71.000000000	      -1.409	     161.860	      -6.061	      -4.763	     -25.769	      -7.261	      -2.633	    -168.333
	71.500000000	      -1.365	     161.804	      -6.185	      -5.218	     -25.739	      -7.822	      -2.570	    -168.621
	72.000000000	      -1.348	     161.389	      -6.300	      -5.892	     -25.737	      -8.704	      -2.573	    -168.882
	72.500000000	      -1.379	     160.952	      -6.407	      -6.561	     -25.810	      -9.814	      -2.544	    -169.209
	73.000000000	      -1.414	     160.729	      -6.527	      -7.182	     -26.005	     -10.758	      -2.505	    -169.426
	73.500000000	      -1.435	     160.592	      -6.649	      -7.643	     -26.268	     -10.997	      -2.442	    -169.787
	74.000000000	      -1.445	     160.324	      -6.771	      -8.077	     -26.430	     -10.522	      -2.445	    -170.353
	74.500000000	      -1.474	     160.064	      -6.861	      -8.422	     -26.546	      -9.943	      -2.463	    -170.593
	75.000000000	      -1.511	     159.979	      -6.967	      -8.944	     -26.643	      -9.796	      -2.452	    -170.708
	75.500000000	      -1.534	     159.944	      -7.093	      -9.440	     -26.907	      -9.354	      -2.445	    -170.859
	76.000000000	      -1.553	     160.024	      -7.214	      -9.762	     -27.268	      -7.853	      -2.453	    -170.981
	76.500000000	      -1.544	     160.165	      -7.337	      -9.871	     -27.519	      -3.786	      -2.440	    -170.882
	77.000000000	      -1.514	     160.154	      -7.406	      -9.931	     -27.196	       0.863	      -2.380	    -170.819
	77.500000000	      -1.438	     160.012	      -7.429	      -9.928	     -26.566	       3.445	      -2.297	    -170.946
	78.000000000	      -1.356	     159.700	      -7.433	     -10.246	     -25.928	       3.386	      -2.252	    -171.121
	78.500000000	      -1.313	     159.128	      -7.449	     -11.039	     -25.448	       2.059	      -2.211	    -171.440
	79.000000000	      -1.338	     158.570	      -7.516	     -11.964	     -25.140	      -0.320	      -2.149	    -171.736
	79.500000000	      -1.379	     157.976	      -7.578	     -12.880	     -24.932	      -2.091	      -2.109	    -171.993
