!File name = EG0520U_1010_6x60_2SDBCB2EV_1915934D06_RC2943_2.5Vd_36mA.s2p
!Base file name = EG0520U_1010_6x60_2SDBCB2EV_1915934D06_RC2943
!Date = 8/23/2019
!Time = 1:02 PM
!Test duration(min) = 0.15
!Test = S-Parameters
!MPTS version = 8.91.5
!State File = C:\Data\PNA\20190821205423\S-Parameters_2019-08-23.sta
!Cal File = 
!ComputerName = CMPE-LAB-6
!Comments = 
!Attenuation = 0
!Z0 = 50
!Input Power(dBm) = -13.00
!Device ID = EG0520U_1010_6x60_2SDBCB2EV
!Row = 29
!Column = 43
!Technology = QPHT09
!Lot/Wafer = 1915934D06
!Gate Size = 360
!Mask = EG0520
!Cal Standards = GaAs BCB
!Cal Kit = EG2306
!Job Number = 20190821205423
!Device Type = FET
!set_Vg(v) = -1.500
!set_Vd(v) = 2.500
!set_Vd(mA) = 36.000
!file_name = EG0520U_1010_6x60_2SDBCB2EV_1915934D06_RC2943_2.5Vd_36mA.s2p
!Vd(V) = 2.500
!Vd(mA) = 36.001
!Vg(V) = -0.500
!Vg(mA) = -0.001
# GHz   S   DB   R   50
!%	Freq(GHz)	     s11(dB)	    s11(deg)	     s21(dB)	    s21(deg)	     s12(dB)	    s12(deg)	     s22(dB)	    s22(deg)
	0.500000000	      -0.036	     -14.373	      21.627	     171.302	     -38.571	      81.484	     -10.523	     -18.643
	1.000000000	      -0.121	     -28.437	      21.240	     162.733	     -32.793	      73.847	     -10.338	     -35.467
	1.500000000	      -0.165	     -41.722	      20.903	     155.659	     -29.624	      66.509	      -9.965	     -50.984
	2.000000000	      -0.314	     -53.892	      20.623	     148.190	     -27.611	      59.685	      -9.601	     -65.556
	2.500000000	      -0.413	     -65.159	      20.202	     141.847	     -26.231	      53.911	      -9.413	     -77.000
	3.000000000	      -0.812	     -72.816	      19.519	     136.777	     -25.402	      49.627	      -9.680	     -82.009
	3.500000000	      -0.933	     -81.622	      18.981	     131.689	     -24.637	      45.208	      -9.482	     -90.329
	4.000000000	      -1.036	     -89.395	      18.423	     127.287	     -24.058	      41.279	      -9.304	     -97.453
	4.500000000	      -1.147	     -96.301	      17.864	     123.105	     -23.624	      37.727	      -9.142	    -103.840
	5.000000000	      -1.223	    -102.434	      17.319	     119.533	     -23.277	      34.689	      -9.024	    -109.193
	5.500000000	      -1.298	    -108.008	      16.788	     116.162	     -23.009	      32.008	      -8.938	    -113.858
	6.000000000	      -1.362	    -112.954	      16.271	     113.128	     -22.784	      29.558	      -8.835	    -117.824
	6.500000000	      -1.412	    -117.370	      15.770	     110.413	     -22.611	      27.371	      -8.748	    -121.323
	7.000000000	      -1.457	    -121.353	      15.288	     107.835	     -22.465	      25.433	      -8.671	    -124.366
	7.500000000	      -1.491	    -124.965	      14.819	     105.483	     -22.357	      23.672	      -8.600	    -127.086
	8.000000000	      -1.506	    -127.993	      14.389	     103.430	     -22.230	      22.207	      -8.575	    -128.912
	8.500000000	      -1.536	    -131.029	      13.955	     101.393	     -22.148	      20.667	      -8.519	    -131.107
	9.000000000	      -1.566	    -133.754	      13.532	      99.486	     -22.083	      19.242	      -8.464	    -133.056
	9.500000000	      -1.588	    -136.304	      13.135	      97.631	     -22.030	      17.924	      -8.410	    -134.767
	10.000000000	      -1.603	    -138.656	      12.750	      95.903	     -21.997	      16.652	      -8.359	    -136.373
	10.500000000	      -1.623	    -140.869	      12.379	      94.216	     -21.970	      15.552	      -8.310	    -137.863
	11.000000000	      -1.636	    -142.883	      12.021	      92.655	     -21.951	      14.550	      -8.263	    -139.175
	11.500000000	      -1.656	    -144.785	      11.670	      91.133	     -21.942	      13.570	      -8.221	    -140.328
	12.000000000	      -1.671	    -146.550	      11.336	      89.688	     -21.937	      12.678	      -8.173	    -141.373
	12.500000000	      -1.680	    -148.185	      11.009	      88.303	     -21.929	      11.862	      -8.121	    -142.432
	13.000000000	      -1.692	    -149.723	      10.694	      86.950	     -21.937	      11.101	      -8.075	    -143.371
	13.500000000	      -1.699	    -151.177	      10.391	      85.661	     -21.939	      10.301	      -8.020	    -144.127
	14.000000000	      -1.709	    -152.589	      10.095	      84.397	     -21.952	       9.603	      -7.969	    -144.888
	14.500000000	      -1.713	    -153.858	       9.807	      83.164	     -21.971	       8.934	      -7.923	    -145.653
	15.000000000	      -1.718	    -155.007	       9.526	      81.982	     -21.989	       8.383	      -7.883	    -146.403
	15.500000000	      -1.726	    -156.149	       9.254	      80.813	     -22.006	       7.864	      -7.838	    -146.982
	16.000000000	      -1.732	    -157.268	       8.989	      79.674	     -22.013	       7.290	      -7.784	    -147.527
	16.500000000	      -1.735	    -158.353	       8.731	      78.554	     -22.035	       6.712	      -7.735	    -148.029
	17.000000000	      -1.738	    -159.364	       8.480	      77.465	     -22.070	       6.193	      -7.691	    -148.557
	17.500000000	      -1.745	    -160.273	       8.232	      76.402	     -22.090	       5.738	      -7.636	    -149.098
	18.000000000	      -1.755	    -161.170	       7.993	      75.363	     -22.128	       5.262	      -7.584	    -149.608
	18.500000000	      -1.756	    -162.062	       7.760	      74.337	     -22.136	       4.739	      -7.523	    -150.022
	19.000000000	      -1.755	    -162.912	       7.531	      73.323	     -22.182	       4.213	      -7.472	    -150.450
	19.500000000	      -1.755	    -163.708	       7.308	      72.346	     -22.246	       3.844	      -7.430	    -150.870
	20.000000000	      -1.762	    -164.456	       7.092	      71.397	     -22.303	       3.731	      -7.391	    -151.209
	20.500000000	      -1.765	    -165.175	       6.884	      70.438	     -22.318	       3.556	      -7.332	    -151.528
	21.000000000	      -1.763	    -165.898	       6.676	      69.485	     -22.318	       3.240	      -7.271	    -151.888
	21.500000000	      -1.758	    -166.617	       6.471	      68.540	     -22.354	       2.835	      -7.217	    -152.204
	22.000000000	      -1.756	    -167.205	       6.272	      67.635	     -22.384	       2.487	      -7.158	    -152.530
	22.500000000	      -1.755	    -167.836	       6.074	      66.699	     -22.418	       1.994	      -7.110	    -152.882
	23.000000000	      -1.758	    -168.469	       5.877	      65.801	     -22.479	       1.596	      -7.057	    -153.303
	23.500000000	      -1.759	    -169.064	       5.687	      64.958	     -22.585	       1.396	      -7.011	    -153.697
	24.000000000	      -1.758	    -169.643	       5.507	      64.108	     -22.641	       1.578	      -6.967	    -153.928
	24.500000000	      -1.749	    -170.109	       5.333	      63.231	     -22.639	       1.588	      -6.917	    -154.075
	25.000000000	      -1.735	    -170.576	       5.156	      62.329	     -22.627	       1.271	      -6.862	    -154.272
	25.500000000	      -1.726	    -171.175	       4.981	      61.473	     -22.660	       0.929	      -6.799	    -154.573
	26.000000000	      -1.731	    -171.768	       4.802	      60.623	     -22.705	       0.587	      -6.731	    -154.912
	26.500000000	      -1.729	    -172.275	       4.631	      59.785	     -22.740	       0.207	      -6.669	    -155.180
	27.000000000	      -1.723	    -172.653	       4.465	      58.990	     -22.820	       0.009	      -6.618	    -155.452
	27.500000000	      -1.717	    -173.032	       4.307	      58.248	     -22.906	       0.165	      -6.584	    -155.545
	28.000000000	      -1.707	    -173.551	       4.158	      57.414	     -22.959	       0.126	      -6.523	    -155.909
	28.500000000	      -1.697	    -174.070	       4.002	      56.502	     -22.881	       0.218	      -6.449	    -156.142
	29.000000000	      -1.687	    -174.499	       3.841	      55.656	     -22.916	      -0.116	      -6.390	    -156.455
	29.500000000	      -1.683	    -174.882	       3.683	      54.854	     -22.985	      -0.406	      -6.335	    -156.764
	30.000000000	      -1.676	    -175.300	       3.531	      54.116	     -23.074	      -0.659	      -6.288	    -156.958
	30.500000000	      -1.671	    -175.774	       3.382	      53.289	     -23.080	      -0.909	      -6.239	    -157.240
	31.000000000	      -1.659	    -176.193	       3.234	      52.537	     -23.157	      -1.197	      -6.195	    -157.522
	31.500000000	      -1.647	    -176.629	       3.096	      51.780	     -23.251	      -0.993	      -6.146	    -157.789
	32.000000000	      -1.645	    -177.020	       2.951	      50.955	     -23.266	      -0.694	      -6.093	    -157.973
	32.500000000	      -1.652	    -177.441	       2.805	      50.120	     -23.263	      -0.920	      -6.028	    -158.117
	33.000000000	      -1.652	    -177.823	       2.666	      49.381	     -23.312	      -0.873	      -5.973	    -158.364
	33.500000000	      -1.639	    -178.212	       2.521	      48.640	     -23.384	      -1.239	      -5.922	    -158.677
	34.000000000	      -1.624	    -178.553	       2.380	      47.875	     -23.435	      -1.147	      -5.862	    -158.984
	34.500000000	      -1.619	    -178.959	       2.234	      47.056	     -23.467	      -1.429	      -5.796	    -159.202
	35.000000000	      -1.619	    -179.349	       2.093	      46.347	     -23.573	      -1.605	      -5.745	    -159.529
	35.500000000	      -1.616	    -179.729	       1.971	      45.588	     -23.594	      -1.102	      -5.703	    -159.699
	36.000000000	      -1.612	     179.931	       1.839	      44.812	     -23.567	      -1.235	      -5.642	    -159.923
	36.500000000	      -1.601	     179.630	       1.703	      44.066	     -23.582	      -1.460	      -5.583	    -160.212
	37.000000000	      -1.594	     179.354	       1.568	      43.352	     -23.618	      -1.683	      -5.538	    -160.497
	37.500000000	      -1.599	     178.989	       1.433	      42.665	     -23.688	      -2.059	      -5.498	    -160.746
	38.000000000	      -1.596	     178.634	       1.301	      41.969	     -23.746	      -1.841	      -5.444	    -160.958
	38.500000000	      -1.584	     178.256	       1.168	      41.274	     -23.875	      -2.242	      -5.385	    -161.299
	39.000000000	      -1.589	     177.953	       1.038	      40.611	     -23.894	      -2.332	      -5.342	    -161.546
	39.500000000	      -1.593	     177.720	       0.912	      39.975	     -24.014	      -1.949	      -5.283	    -161.832
	40.000000000	      -1.595	     177.381	       0.799	      39.333	     -24.047	      -1.879	      -5.231	    -162.029
	40.500000000	      -1.598	     177.039	       0.679	      38.652	     -24.080	      -1.629	      -5.162	    -162.257
	41.000000000	      -1.581	     176.770	       0.565	      37.934	     -24.102	      -1.447	      -5.112	    -162.671
	41.500000000	      -1.574	     176.583	       0.449	      37.282	     -24.132	      -1.237	      -5.074	    -162.829
	42.000000000	      -1.574	     176.289	       0.331	      36.607	     -24.111	      -1.764	      -5.023	    -163.013
	42.500000000	      -1.589	     175.926	       0.207	      35.982	     -24.188	      -2.232	      -4.972	    -163.090
	43.000000000	      -1.590	     175.701	       0.104	      35.405	     -24.335	      -1.461	      -4.921	    -163.375
	43.500000000	      -1.576	     175.575	      -0.001	      34.647	     -24.344	      -1.139	      -4.879	    -163.730
	44.000000000	      -1.577	     175.335	      -0.117	      33.960	     -24.378	      -0.741	      -4.823	    -164.020
	44.500000000	      -1.578	     174.926	      -0.241	      33.258	     -24.325	      -1.318	      -4.759	    -164.230
	45.000000000	      -1.588	     174.616	      -0.354	      32.622	     -24.392	      -1.583	      -4.705	    -164.570
	45.500000000	      -1.539	     174.275	      -0.627	      32.140	     -24.595	      -2.003	      -4.564	    -165.247
	46.000000000	      -1.508	     174.011	      -0.752	      31.505	     -24.705	      -1.790	      -4.519	    -165.588
	46.500000000	      -1.506	     173.679	      -0.857	      30.989	     -24.838	      -1.894	      -4.455	    -165.685
	47.000000000	      -1.509	     173.388	      -0.954	      30.375	     -24.795	      -1.001	      -4.407	    -165.765
	47.500000000	      -1.507	     173.140	      -1.062	      29.694	     -24.837	      -0.467	      -4.369	    -166.135
	48.000000000	      -1.484	     172.832	      -1.180	      29.038	     -24.761	      -1.068	      -4.320	    -166.278
	48.500000000	      -1.487	     172.564	      -1.292	      28.480	     -24.763	      -0.816	      -4.267	    -166.576
	49.000000000	      -1.494	     172.373	      -1.399	      27.831	     -24.768	      -1.719	      -4.194	    -166.797
	49.500000000	      -1.499	     172.095	      -1.508	      27.208	     -24.763	      -1.710	      -4.164	    -167.138
	50.000000000	      -1.480	     171.864	      -1.613	      26.741	     -24.970	      -0.942	      -4.129	    -167.470
	50.500000000	      -1.469	     171.658	      -1.710	      26.238	     -25.183	       0.185	      -4.113	    -167.848
	51.000000000	      -1.466	     171.408	      -1.826	      25.653	     -25.319	      -0.332	      -4.089	    -168.197
	51.500000000	      -1.464	     171.237	      -1.909	      24.935	     -25.103	       0.107	      -4.054	    -168.331
	52.000000000	      -1.451	     171.009	      -2.020	      24.336	     -25.036	      -0.218	      -4.013	    -168.570
	52.500000000	      -1.444	     170.683	      -2.120	      23.775	     -25.140	      -0.446	      -3.973	    -168.692
	53.000000000	      -1.436	     170.352	      -2.223	      23.217	     -25.172	      -0.216	      -3.930	    -168.776
	53.500000000	      -1.435	     170.220	      -2.319	      22.755	     -25.161	      -0.512	      -3.880	    -168.946
	54.000000000	      -1.421	     169.954	      -2.406	      22.234	     -25.200	       0.181	      -3.824	    -169.301
	54.500000000	      -1.424	     169.556	      -2.502	      21.703	     -25.248	       0.186	      -3.784	    -169.415
	55.000000000	      -1.429	     169.190	      -2.588	      21.074	     -25.236	       0.854	      -3.741	    -169.611
	55.500000000	      -1.425	     168.992	      -2.673	      20.494	     -25.275	       0.095	      -3.704	    -169.910
	56.000000000	      -1.405	     168.718	      -2.758	      19.830	     -25.271	      -0.632	      -3.663	    -170.347
	56.500000000	      -1.422	     168.516	      -2.869	      19.389	     -25.245	      -0.402	      -3.627	    -170.839
	57.000000000	      -1.424	     168.358	      -2.947	      18.638	     -25.287	      -0.822	      -3.627	    -170.905
	57.500000000	      -1.421	     168.128	      -3.048	      18.129	     -25.432	      -1.808	      -3.588	    -171.168
	58.000000000	      -1.383	     168.030	      -3.157	      17.530	     -25.551	      -0.555	      -3.548	    -171.512
	58.500000000	      -1.363	     167.836	      -3.221	      16.957	     -25.423	       0.105	      -3.514	    -171.764
	59.000000000	      -1.377	     167.456	      -3.284	      16.298	     -25.359	      -2.275	      -3.476	    -171.814
	59.500000000	      -1.357	     167.379	      -3.396	      15.590	     -25.575	      -1.155	      -3.446	    -172.140
	60.000000000	      -1.359	     167.155	      -3.491	      15.063	     -25.719	       0.396	      -3.442	    -172.457
	60.500000000	      -1.342	     166.938	      -3.582	      14.375	     -25.687	      -1.972	      -3.452	    -172.400
	61.000000000	      -1.308	     166.717	      -3.702	      14.008	     -25.687	      -0.516	      -3.395	    -172.607
	61.500000000	      -1.300	     166.410	      -3.803	      13.606	     -25.715	      -1.056	      -3.373	    -172.748
	62.000000000	      -1.285	     166.178	      -3.869	      12.993	     -25.679	      -0.640	      -3.355	    -173.017
	62.500000000	      -1.299	     165.769	      -3.951	      12.490	     -25.904	       0.102	      -3.363	    -173.039
	63.000000000	      -1.271	     165.426	      -4.028	      11.878	     -25.803	       0.849	      -3.312	    -173.189
	63.500000000	      -1.273	     165.291	      -4.088	      11.056	     -25.769	      -0.590	      -3.261	    -173.375
	64.000000000	      -1.264	     165.335	      -4.150	      10.469	     -25.721	       1.659	      -3.222	    -173.404
	64.500000000	      -1.249	     165.260	      -4.248	       9.642	     -25.763	       1.020	      -3.201	    -173.365
	65.000000000	      -1.260	     164.819	      -4.365	       8.973	     -26.136	       0.001	      -3.120	    -173.338
	65.500000000	      -1.241	     164.377	      -4.465	       8.317	     -25.606	      -0.648	      -3.106	    -173.904
	66.000000000	      -1.232	     164.015	      -4.568	       7.765	     -26.104	       0.651	      -3.082	    -174.457
	66.500000000	      -1.256	     163.861	      -4.662	       6.941	     -25.876	      -1.053	      -3.047	    -174.300
	67.000000000	      -1.295	     163.494	      -4.800	       6.494	     -26.033	      -1.102	      -3.019	    -174.323
	67.500000000	      -1.295	     162.966	      -4.931	       5.624	     -25.826	      -0.461	      -3.017	    -174.726
	68.000000000	      -1.320	     162.796	      -5.027	       5.061	     -25.837	      -0.479	      -3.045	    -174.996
	68.500000000	      -1.349	     162.584	      -5.114	       4.644	     -25.875	      -0.847	      -3.003	    -175.015
	69.000000000	      -1.374	     162.407	      -5.228	       4.103	     -25.892	      -1.234	      -2.948	    -175.152
	69.500000000	      -1.371	     162.219	      -5.348	       3.736	     -26.008	      -1.029	      -2.926	    -175.296
	70.000000000	      -1.354	     162.035	      -5.431	       3.318	     -26.050	      -0.728	      -2.897	    -175.343
	70.500000000	      -1.337	     161.882	      -5.522	       2.943	     -26.005	      -0.487	      -2.861	    -175.472
	71.000000000	      -1.327	     161.695	      -5.613	       2.465	     -25.980	      -0.591	      -2.820	    -175.507
	71.500000000	      -1.298	     161.442	      -5.700	       2.082	     -25.944	      -1.070	      -2.755	    -175.751
	72.000000000	      -1.287	     161.226	      -5.785	       1.595	     -25.924	      -1.396	      -2.762	    -175.997
	72.500000000	      -1.303	     160.876	      -5.866	       0.967	     -25.950	      -1.988	      -2.743	    -176.202
	73.000000000	      -1.327	     160.642	      -5.951	       0.394	     -26.046	      -2.637	      -2.706	    -176.312
	73.500000000	      -1.345	     160.589	      -6.052	      -0.170	     -26.191	      -2.697	      -2.632	    -176.515
	74.000000000	      -1.353	     160.331	      -6.137	      -0.705	     -26.219	      -2.516	      -2.631	    -177.041
	74.500000000	      -1.374	     160.153	      -6.219	      -1.166	     -26.250	      -2.476	      -2.638	    -177.254
	75.000000000	      -1.401	     160.076	      -6.314	      -1.851	     -26.268	      -2.819	      -2.631	    -177.368
	75.500000000	      -1.421	     160.073	      -6.430	      -2.506	     -26.425	      -3.293	      -2.623	    -177.492
	76.000000000	      -1.424	     160.140	      -6.556	      -3.100	     -26.693	      -3.183	      -2.631	    -177.602
	76.500000000	      -1.415	     160.221	      -6.716	      -3.480	     -27.050	      -1.246	      -2.631	    -177.481
	77.000000000	      -1.395	     160.243	      -6.859	      -3.560	     -27.135	       2.275	      -2.591	    -177.298
	77.500000000	      -1.337	     160.171	      -6.945	      -3.326	     -26.757	       5.624	      -2.515	    -177.251
	78.000000000	      -1.243	     160.019	      -6.975	      -3.219	     -26.233	       6.713	      -2.454	    -177.237
	78.500000000	      -1.190	     159.606	      -7.000	      -3.549	     -25.861	       6.342	      -2.413	    -177.558
	79.000000000	      -1.183	     159.048	      -7.046	      -4.042	     -25.546	       5.100	      -2.357	    -177.805
	79.500000000	      -1.175	     158.469	      -7.063	      -4.609	     -25.270	       3.780	      -2.314	    -178.075
