!File name = EG0520U_1010_6x60_2SDBCB2EV_1915934D06_RC2952_3.5Vd_27mA.s2p
!Base file name = EG0520U_1010_6x60_2SDBCB2EV_1915934D06_RC2952
!Date = 8/23/2019
!Time = 1:16 PM
!Test duration(min) = 0.15
!Test = S-Parameters
!MPTS version = 8.91.5
!State File = C:\Data\PNA\20190821205423\S-Parameters_2019-08-23.sta
!Cal File = 
!ComputerName = CMPE-LAB-6
!Comments = 
!Attenuation = 0
!Z0 = 50
!Input Power(dBm) = -13.00
!Device ID = EG0520U_1010_6x60_2SDBCB2EV
!Row = 29
!Column = 52
!Technology = QPHT09
!Lot/Wafer = 1915934D06
!Gate Size = 360
!Mask = EG0520
!Cal Standards = GaAs BCB
!Cal Kit = EG2306
!Job Number = 20190821205423
!Device Type = FET
!set_Vg(v) = -1.500
!set_Vd(v) = 3.500
!set_Vd(mA) = 27.000
!file_name = EG0520U_1010_6x60_2SDBCB2EV_1915934D06_RC2952_3.5Vd_27mA.s2p
!Vd(V) = 3.500
!Vd(mA) = 26.913
!Vg(V) = -0.566
!Vg(mA) = -0.004
# GHz   S   DB   R   50
!%	Freq(GHz)	     s11(dB)	    s11(deg)	     s21(dB)	    s21(deg)	     s12(dB)	    s12(deg)	     s22(dB)	    s22(deg)
	0.500000000	      -0.060	     -13.867	      21.101	     171.453	     -38.353	      81.113	      -7.881	     -13.653
	1.000000000	      -0.147	     -27.457	      20.734	     163.143	     -32.561	      73.976	      -7.941	     -26.290
	1.500000000	      -0.184	     -40.364	      20.412	     156.118	     -29.372	      66.912	      -7.949	     -38.546
	2.000000000	      -0.333	     -52.173	      20.153	     148.793	     -27.336	      60.207	      -8.017	     -50.623
	2.500000000	      -0.429	     -63.264	      19.738	     142.462	     -25.927	      54.517	      -8.194	     -60.523
	3.000000000	      -0.820	     -70.779	      19.074	     137.220	     -25.094	      50.145	      -8.583	     -64.616
	3.500000000	      -0.940	     -79.540	      18.557	     132.139	     -24.310	      45.692	      -8.696	     -72.322
	4.000000000	      -1.043	     -87.294	      18.024	     127.613	     -23.707	      41.759	      -8.793	     -79.182
	4.500000000	      -1.162	     -94.193	      17.480	     123.355	     -23.254	      38.148	      -8.880	     -85.552
	5.000000000	      -1.239	    -100.393	      16.947	     119.667	     -22.897	      35.026	      -8.968	     -90.978
	5.500000000	      -1.317	    -106.000	      16.433	     116.198	     -22.620	      32.290	      -9.057	     -95.812
	6.000000000	      -1.384	    -111.050	      15.926	     113.048	     -22.386	      29.767	      -9.096	    -100.054
	6.500000000	      -1.437	    -115.532	      15.435	     110.212	     -22.201	      27.511	      -9.133	    -103.854
	7.000000000	      -1.486	    -119.605	      14.961	     107.530	     -22.050	      25.456	      -9.155	    -107.197
	7.500000000	      -1.522	    -123.294	      14.499	     105.062	     -21.931	      23.604	      -9.167	    -110.231
	8.000000000	      -1.539	    -126.403	      14.074	     102.900	     -21.810	      22.095	      -9.196	    -112.297
	8.500000000	      -1.573	    -129.530	      13.645	     100.739	     -21.724	      20.522	      -9.201	    -114.755
	9.000000000	      -1.606	    -132.313	      13.225	      98.728	     -21.653	      18.996	      -9.191	    -116.950
	9.500000000	      -1.628	    -134.945	      12.832	      96.756	     -21.593	      17.579	      -9.176	    -118.935
	10.000000000	      -1.647	    -137.382	      12.448	      94.911	     -21.564	      16.207	      -9.163	    -120.832
	10.500000000	      -1.673	    -139.647	      12.076	      93.124	     -21.544	      15.109	      -9.150	    -122.481
	11.000000000	      -1.687	    -141.709	      11.720	      91.474	     -21.515	      14.031	      -9.121	    -123.946
	11.500000000	      -1.706	    -143.655	      11.371	      89.857	     -21.503	      12.984	      -9.090	    -125.271
	12.000000000	      -1.720	    -145.474	      11.038	      88.321	     -21.494	      12.057	      -9.047	    -126.496
	12.500000000	      -1.725	    -147.187	      10.716	      86.832	     -21.486	      11.092	      -8.997	    -127.769
	13.000000000	      -1.735	    -148.780	      10.402	      85.368	     -21.488	      10.266	      -8.948	    -128.915
	13.500000000	      -1.746	    -150.313	      10.098	      83.975	     -21.504	       9.326	      -8.899	    -129.901
	14.000000000	      -1.757	    -151.766	       9.801	      82.619	     -21.520	       8.607	      -8.844	    -130.737
	14.500000000	      -1.761	    -153.079	       9.514	      81.300	     -21.544	       7.943	      -8.797	    -131.681
	15.000000000	      -1.766	    -154.266	       9.232	      80.030	     -21.564	       7.323	      -8.750	    -132.501
	15.500000000	      -1.772	    -155.426	       8.960	      78.779	     -21.573	       6.760	      -8.691	    -133.201
	16.000000000	      -1.774	    -156.596	       8.695	      77.542	     -21.574	       6.081	      -8.621	    -133.866
	16.500000000	      -1.776	    -157.729	       8.437	      76.329	     -21.596	       5.387	      -8.556	    -134.522
	17.000000000	      -1.776	    -158.789	       8.188	      75.156	     -21.633	       4.821	      -8.496	    -135.160
	17.500000000	      -1.782	    -159.751	       7.940	      73.990	     -21.651	       4.289	      -8.429	    -135.815
	18.000000000	      -1.790	    -160.696	       7.703	      72.856	     -21.695	       3.697	      -8.362	    -136.462
	18.500000000	      -1.790	    -161.624	       7.469	      71.747	     -21.720	       3.131	      -8.288	    -136.988
	19.000000000	      -1.789	    -162.518	       7.238	      70.639	     -21.764	       2.639	      -8.221	    -137.493
	19.500000000	      -1.788	    -163.361	       7.015	      69.570	     -21.835	       2.236	      -8.161	    -138.000
	20.000000000	      -1.792	    -164.140	       6.797	      68.525	     -21.879	       1.994	      -8.101	    -138.454
	20.500000000	      -1.794	    -164.895	       6.589	      67.475	     -21.892	       1.808	      -8.021	    -138.878
	21.000000000	      -1.795	    -165.643	       6.378	      66.428	     -21.911	       1.299	      -7.941	    -139.372
	21.500000000	      -1.785	    -166.419	       6.173	      65.395	     -21.944	       0.789	      -7.864	    -139.783
	22.000000000	      -1.782	    -167.035	       5.970	      64.402	     -21.989	       0.298	      -7.794	    -140.207
	22.500000000	      -1.775	    -167.694	       5.772	      63.370	     -22.023	      -0.085	      -7.728	    -140.664
	23.000000000	      -1.775	    -168.360	       5.575	      62.367	     -22.063	      -0.553	      -7.651	    -141.213
	23.500000000	      -1.777	    -169.069	       5.379	      61.418	     -22.171	      -1.006	      -7.583	    -141.733
	24.000000000	      -1.779	    -169.701	       5.193	      60.497	     -22.264	      -1.079	      -7.522	    -142.083
	24.500000000	      -1.769	    -170.182	       5.014	      59.537	     -22.295	      -1.100	      -7.454	    -142.320
	25.000000000	      -1.755	    -170.680	       4.835	      58.556	     -22.299	      -1.260	      -7.377	    -142.605
	25.500000000	      -1.747	    -171.323	       4.656	      57.622	     -22.345	      -1.587	      -7.296	    -143.012
	26.000000000	      -1.751	    -171.964	       4.475	      56.682	     -22.385	      -2.005	      -7.204	    -143.462
	26.500000000	      -1.749	    -172.500	       4.299	      55.763	     -22.431	      -2.354	      -7.124	    -143.883
	27.000000000	      -1.743	    -172.917	       4.126	      54.865	     -22.484	      -2.854	      -7.060	    -144.238
	27.500000000	      -1.750	    -173.349	       3.957	      54.045	     -22.643	      -2.866	      -7.008	    -144.485
	28.000000000	      -1.751	    -173.854	       3.799	      53.212	     -22.705	      -2.788	      -6.937	    -144.837
	28.500000000	      -1.735	    -174.299	       3.649	      52.268	     -22.690	      -2.547	      -6.844	    -145.206
	29.000000000	      -1.722	    -174.773	       3.485	      51.333	     -22.726	      -2.801	      -6.770	    -145.593
	29.500000000	      -1.713	    -175.156	       3.326	      50.458	     -22.759	      -3.147	      -6.695	    -145.964
	30.000000000	      -1.711	    -175.621	       3.168	      49.645	     -22.818	      -3.421	      -6.633	    -146.249
	30.500000000	      -1.708	    -176.080	       3.017	      48.767	     -22.850	      -3.765	      -6.565	    -146.640
	31.000000000	      -1.696	    -176.573	       2.861	      47.935	     -22.934	      -4.037	      -6.508	    -146.980
	31.500000000	      -1.683	    -176.980	       2.721	      47.139	     -23.074	      -3.658	      -6.440	    -147.351
	32.000000000	      -1.684	    -177.295	       2.574	      46.266	     -23.095	      -3.393	      -6.364	    -147.587
	32.500000000	      -1.691	    -177.765	       2.430	      45.367	     -23.078	      -3.346	      -6.279	    -147.865
	33.000000000	      -1.690	    -178.188	       2.284	      44.551	     -23.086	      -3.790	      -6.213	    -148.247
	33.500000000	      -1.677	    -178.573	       2.133	      43.749	     -23.139	      -4.142	      -6.151	    -148.692
	34.000000000	      -1.666	    -178.886	       1.989	      42.965	     -23.221	      -4.151	      -6.073	    -149.144
	34.500000000	      -1.660	    -179.264	       1.841	      42.077	     -23.265	      -4.604	      -5.996	    -149.448
	35.000000000	      -1.660	    -179.621	       1.698	      41.334	     -23.376	      -4.770	      -5.930	    -149.923
	35.500000000	      -1.653	    -179.990	       1.579	      40.534	     -23.444	      -4.198	      -5.881	    -150.170
	36.000000000	      -1.634	     179.662	       1.449	      39.672	     -23.440	      -4.012	      -5.800	    -150.501
	36.500000000	      -1.623	     179.384	       1.312	      38.851	     -23.466	      -4.286	      -5.731	    -150.886
	37.000000000	      -1.617	     179.071	       1.171	      38.055	     -23.444	      -4.740	      -5.664	    -151.219
	37.500000000	      -1.623	     178.635	       1.029	      37.285	     -23.577	      -5.319	      -5.618	    -151.619
	38.000000000	      -1.628	     178.291	       0.891	      36.548	     -23.617	      -5.307	      -5.558	    -151.845
	38.500000000	      -1.621	     177.968	       0.752	      35.872	     -23.750	      -5.424	      -5.485	    -152.323
	39.000000000	      -1.611	     177.823	       0.637	      35.202	     -23.860	      -4.876	      -5.423	    -152.652
	39.500000000	      -1.602	     177.588	       0.516	      34.491	     -23.946	      -4.884	      -5.357	    -153.017
	40.000000000	      -1.591	     177.166	       0.403	      33.648	     -23.907	      -4.672	      -5.276	    -153.351
	40.500000000	      -1.587	     176.767	       0.276	      32.911	     -23.913	      -4.703	      -5.205	    -153.699
	41.000000000	      -1.564	     176.465	       0.157	      32.119	     -23.993	      -4.633	      -5.152	    -154.149
	41.500000000	      -1.553	     176.281	       0.038	      31.360	     -24.051	      -4.800	      -5.117	    -154.380
	42.000000000	      -1.555	     175.973	      -0.086	      30.585	     -24.133	      -5.332	      -5.044	    -154.640
	42.500000000	      -1.567	     175.597	      -0.216	      29.910	     -24.200	      -5.464	      -4.982	    -154.773
	43.000000000	      -1.563	     175.343	      -0.324	      29.284	     -24.392	      -5.153	      -4.922	    -155.072
	43.500000000	      -1.547	     175.163	      -0.443	      28.405	     -24.333	      -4.481	      -4.860	    -155.560
	44.000000000	      -1.557	     174.822	      -0.565	      27.688	     -24.262	      -4.669	      -4.799	    -155.990
	44.500000000	      -1.557	     174.397	      -0.696	      26.952	     -24.392	      -5.110	      -4.727	    -156.371
	45.000000000	      -1.575	     174.125	      -0.814	      26.259	     -24.367	      -4.459	      -4.671	    -156.776
	45.500000000	      -1.519	     173.765	      -1.096	      25.691	     -24.606	      -5.269	      -4.535	    -157.759
	46.000000000	      -1.500	     173.579	      -1.222	      25.095	     -24.767	      -5.360	      -4.495	    -158.206
	46.500000000	      -1.488	     173.233	      -1.322	      24.495	     -24.970	      -4.681	      -4.417	    -158.331
	47.000000000	      -1.488	     172.896	      -1.430	      23.767	     -24.749	      -3.876	      -4.368	    -158.577
	47.500000000	      -1.476	     172.633	      -1.551	      23.045	     -24.975	      -4.456	      -4.318	    -158.766
	48.000000000	      -1.462	     172.366	      -1.673	      22.417	     -24.940	      -3.045	      -4.278	    -159.160
	48.500000000	      -1.460	     172.044	      -1.781	      21.792	     -24.926	      -3.877	      -4.237	    -159.444
	49.000000000	      -1.471	     171.877	      -1.887	      21.185	     -24.978	      -4.436	      -4.170	    -159.670
	49.500000000	      -1.482	     171.645	      -1.987	      20.565	     -25.118	      -3.837	      -4.086	    -159.908
	50.000000000	      -1.463	     171.421	      -2.098	      19.977	     -25.377	      -2.670	      -4.040	    -160.303
	50.500000000	      -1.458	     171.166	      -2.177	      19.355	     -25.287	      -2.950	      -4.028	    -160.821
	51.000000000	      -1.439	     170.817	      -2.292	      18.553	     -25.207	      -1.995	      -3.982	    -161.078
	51.500000000	      -1.441	     170.682	      -2.390	      17.970	     -25.145	      -2.125	      -3.919	    -161.515
	52.000000000	      -1.419	     170.487	      -2.498	      17.165	     -25.068	      -2.933	      -3.869	    -161.789
	52.500000000	      -1.415	     170.150	      -2.628	      16.482	     -25.152	      -3.659	      -3.822	    -161.971
	53.000000000	      -1.413	     169.737	      -2.734	      15.804	     -25.224	      -3.444	      -3.770	    -162.270
	53.500000000	      -1.402	     169.658	      -2.838	      15.270	     -25.393	      -3.625	      -3.704	    -162.513
	54.000000000	      -1.401	     169.448	      -2.944	      14.768	     -25.301	      -2.997	      -3.640	    -162.899
	54.500000000	      -1.396	     169.036	      -3.036	      14.120	     -25.373	      -3.078	      -3.593	    -163.102
	55.000000000	      -1.405	     168.654	      -3.135	      13.499	     -25.415	      -3.008	      -3.555	    -163.366
	55.500000000	      -1.399	     168.358	      -3.234	      12.848	     -25.256	      -3.704	      -3.510	    -163.712
	56.000000000	      -1.385	     168.097	      -3.328	      12.247	     -25.501	      -3.310	      -3.465	    -164.314
	56.500000000	      -1.397	     167.956	      -3.441	      11.503	     -25.426	      -3.291	      -3.468	    -164.895
	57.000000000	      -1.403	     167.690	      -3.555	      10.826	     -25.534	      -4.293	      -3.448	    -165.091
	57.500000000	      -1.386	     167.597	      -3.661	      10.423	     -25.793	      -3.705	      -3.395	    -165.381
	58.000000000	      -1.364	     167.558	      -3.766	       9.919	     -25.856	      -2.870	      -3.361	    -165.599
	58.500000000	      -1.343	     167.258	      -3.843	       9.208	     -25.790	      -2.276	      -3.319	    -165.908
	59.000000000	      -1.338	     167.054	      -3.938	       8.439	     -26.020	      -2.459	      -3.247	    -166.074
	59.500000000	      -1.343	     166.783	      -4.053	       7.846	     -25.729	      -1.902	      -3.217	    -166.456
	60.000000000	      -1.344	     166.707	      -4.140	       7.562	     -25.923	      -1.470	      -3.243	    -166.898
	60.500000000	      -1.308	     166.477	      -4.223	       6.883	     -25.895	      -1.548	      -3.213	    -166.996
	61.000000000	      -1.269	     166.141	      -4.325	       6.364	     -26.039	      -2.531	      -3.173	    -167.212
	61.500000000	      -1.266	     165.943	      -4.421	       5.758	     -26.023	      -1.708	      -3.145	    -167.412
	62.000000000	      -1.256	     165.642	      -4.459	       5.182	     -26.159	      -1.667	      -3.132	    -167.581
	62.500000000	      -1.273	     165.376	      -4.561	       4.520	     -26.311	      -1.007	      -3.119	    -167.693
	63.000000000	      -1.234	     164.976	      -4.652	       3.989	     -26.337	       0.152	      -3.046	    -167.745
	63.500000000	      -1.229	     164.809	      -4.716	       3.287	     -26.286	       0.628	      -2.989	    -168.184
	64.000000000	      -1.221	     164.963	      -4.775	       2.471	     -26.031	       1.420	      -2.915	    -168.176
	64.500000000	      -1.209	     164.857	      -4.850	       1.682	     -25.982	       1.127	      -2.891	    -167.927
	65.000000000	      -1.217	     164.492	      -4.944	       0.845	     -26.352	      -0.433	      -2.807	    -168.342
	65.500000000	      -1.214	     163.849	      -5.079	      -0.062	     -25.938	      -0.877	      -2.799	    -169.055
	66.000000000	      -1.209	     163.594	      -5.210	      -0.754	     -26.046	       0.837	      -2.786	    -169.589
	66.500000000	      -1.246	     163.451	      -5.321	      -1.601	     -26.203	       0.766	      -2.746	    -169.653
	67.000000000	      -1.303	     163.085	      -5.425	      -2.266	     -25.905	      -0.886	      -2.732	    -169.569
	67.500000000	      -1.273	     162.448	      -5.590	      -3.126	     -25.998	      -0.525	      -2.726	    -170.094
	68.000000000	      -1.323	     162.250	      -5.693	      -3.773	     -25.972	      -0.727	      -2.755	    -170.475
	68.500000000	      -1.368	     162.019	      -5.790	      -4.284	     -25.976	      -0.963	      -2.704	    -170.664
	69.000000000	      -1.401	     161.869	      -5.906	      -4.811	     -26.004	      -1.678	      -2.645	    -170.940
	69.500000000	      -1.394	     161.717	      -6.041	      -5.270	     -26.115	      -1.680	      -2.624	    -171.088
	70.000000000	      -1.369	     161.565	      -6.139	      -5.757	     -26.162	      -1.038	      -2.602	    -171.141
	70.500000000	      -1.347	     161.414	      -6.231	      -6.162	     -26.116	      -0.869	      -2.564	    -171.333
	71.000000000	      -1.333	     161.229	      -6.318	      -6.602	     -26.147	      -1.169	      -2.524	    -171.496
	71.500000000	      -1.277	     161.224	      -6.446	      -6.984	     -26.122	      -1.605	      -2.452	    -171.754
	72.000000000	      -1.273	     160.865	      -6.551	      -7.647	     -26.127	      -2.237	      -2.451	    -171.995
	72.500000000	      -1.301	     160.412	      -6.648	      -8.345	     -26.190	      -2.828	      -2.426	    -172.315
	73.000000000	      -1.334	     160.263	      -6.762	      -8.866	     -26.304	      -3.516	      -2.394	    -172.518
	73.500000000	      -1.361	     160.168	      -6.874	      -9.399	     -26.488	      -3.463	      -2.330	    -172.832
	74.000000000	      -1.372	     159.869	      -6.984	      -9.860	     -26.620	      -2.953	      -2.324	    -173.406
	74.500000000	      -1.405	     159.623	      -7.075	     -10.185	     -26.712	      -2.458	      -2.348	    -173.695
	75.000000000	      -1.450	     159.584	      -7.173	     -10.703	     -26.819	      -2.240	      -2.326	    -173.777
	75.500000000	      -1.486	     159.589	      -7.302	     -11.232	     -27.025	      -1.583	      -2.334	    -173.891
	76.000000000	      -1.495	     159.764	      -7.429	     -11.592	     -27.327	       0.248	      -2.335	    -173.967
	76.500000000	      -1.487	     159.955	      -7.555	     -11.662	     -27.420	       4.176	      -2.317	    -173.920
	77.000000000	      -1.452	     159.999	      -7.627	     -11.660	     -27.044	       8.214	      -2.260	    -173.878
	77.500000000	      -1.360	     159.834	      -7.644	     -11.621	     -26.385	      10.128	      -2.178	    -174.017
	78.000000000	      -1.273	     159.600	      -7.641	     -11.911	     -25.744	       9.531	      -2.141	    -174.189
	78.500000000	      -1.238	     159.078	      -7.665	     -12.730	     -25.317	       7.584	      -2.097	    -174.444
	79.000000000	      -1.284	     158.523	      -7.734	     -13.597	     -25.101	       5.089	      -2.039	    -174.778
	79.500000000	      -1.298	     158.005	      -7.793	     -14.443	     -24.920	       3.073	      -2.010	    -175.075
