! AWR Design Environment (9307) Mon Sep  2 17:34:05 2019
! Document = 'Drain EM Export'
! nPorts: 2, nXvals: 220

# GHz S DB R 50
!Freq DBS11 AngS11 DBS21 AngS21 DBS12 AngS12 DBS22 AngS22 
0.5 -75.298149 48.876506 -0.00097891019 -0.090640104 -0.00097891019 -0.090640104 -76.640533 40.323938 
1 -71.182421 65.161008 -0.00099684009 -0.18092708 -0.00099684009 -0.18092708 -73.602453 57.334018 
1.5 -68.177246 72.128886 -0.0010186895 -0.2711093 -0.0010186895 -0.2711093 -70.999915 66.494248 
2 -65.889394 75.79307 -0.0010467463 -0.36120509 -0.0010467463 -0.36120509 -68.847549 72.006496 
2.5 -64.058011 77.964144 -0.001082109 -0.4512179 -0.001082109 -0.4512179 -67.038692 75.639935 
3 -62.536114 79.343629 -0.001125144 -0.54114962 -0.001125144 -0.54114962 -65.485408 78.203581 
3.5 -61.23613 80.255644 -0.0011759183 -0.6310025 -0.0011759183 -0.6310025 -64.125763 80.106771 
4 -60.102435 80.869477 -0.001234359 -0.72077927 -0.001234359 -0.72077927 -62.916625 81.575428 
4.5 -59.097738 81.281831 -0.0013003121 -0.81048311 -0.0013003121 -0.81048311 -61.827387 82.743383 
5 -58.195909 81.551841 -0.0013735671 -0.90011753 -0.0013735671 -0.90011753 -60.835782 83.694595 
5.5 -57.377965 81.717655 -0.0014538673 -0.98968638 -0.0014538673 -0.98968638 -59.92521 84.484259 
6 -56.629703 81.804969 -0.0015409165 -1.0791938 -0.0015409165 -1.0791938 -59.083012 85.150103 
6.5 -55.940226 81.831711 -0.0016343813 -1.1686441 -0.0016343813 -1.1686441 -58.299342 85.718772 
7 -55.300998 81.81077 -0.0017338944 -1.2580419 -0.0017338944 -1.2580419 -57.566406 86.209613 
7.5 -54.705208 81.751646 -0.0018390562 -1.347392 -0.0018390562 -1.347392 -56.877934 86.637016 
8 -54.147338 81.661496 -0.0019494364 -1.4366995 -0.0019494364 -1.4366995 -56.228816 87.011909 
8.5 -53.622857 81.545813 -0.0020645759 -1.5259694 -0.0020645759 -1.5259694 -55.614831 87.342744 
9 -53.127995 81.408887 -0.0021839883 -1.6152072 -0.0021839883 -1.6152072 -55.032457 87.636165 
9.5 -52.659588 81.254111 -0.0023071619 -1.7044183 -0.0023071619 -1.7044183 -54.478724 87.897473 
10 -52.214953 81.084212 -0.0024335609 -1.7936083 -0.0024335609 -1.7936083 -53.951104 88.130948 
10.5 -51.791791 80.9014 -0.0025626281 -1.8827829 -0.0025626281 -1.8827829 -53.44743 88.340088 
11 -51.388123 80.70749 -0.0026937859 -1.9719479 -0.0026937859 -1.9719479 -52.965826 88.527785 
11.5 -51.002232 80.503987 -0.0028264388 -2.0611092 -0.0028264388 -2.0611092 -52.504661 88.696447 
12 -50.632615 80.292147 -0.0029599756 -2.1502727 -0.0029599756 -2.1502727 -52.062503 88.848103 
12.5 -50.277953 80.073028 -0.0030937708 -2.2394444 -0.0030937708 -2.2394444 -51.638091 88.984471 
13 -49.937082 79.847531 -0.0032271875 -2.3286304 -0.0032271875 -2.3286304 -51.230306 89.107017 
13.5 -49.608966 79.616424 -0.0033595792 -2.4178365 -0.0033595792 -2.4178365 -50.83815 89.217002 
14 -49.292683 79.38037 -0.0034902921 -2.5070688 -0.0034902921 -2.5070688 -50.46073 89.315517 
14.5 -48.987405 79.13994 -0.0036186673 -2.5963333 -0.0036186673 -2.5963333 -50.09724 89.403507 
15 -48.69239 78.895634 -0.0037440435 -2.6856358 -0.0037440435 -2.6856358 -49.74695 89.4818 
15.5 -48.406967 78.64789 -0.0038657588 -2.7749822 -0.0038657588 -2.7749822 -49.409199 89.551119 
16 -48.130527 78.397092 -0.0039831533 -2.8643782 -0.0039831533 -2.8643782 -49.083381 89.612104 
16.5 -47.86252 78.143581 -0.0040955716 -2.9538296 -0.0040955716 -2.9538296 -48.768942 89.665317 
17 -47.602441 77.88766 -0.0042023648 -3.0433418 -0.0042023648 -3.0433418 -48.465372 89.711257 
17.5 -47.349832 77.629599 -0.004302893 -3.1329204 -0.004302893 -3.1329204 -48.172199 89.750367 
18 -47.104269 77.369641 -0.0043965278 -3.2225705 -0.0043965278 -3.2225705 -47.888987 89.78304 
18.5 -46.865367 77.108004 -0.0044826541 -3.3122972 -0.0044826541 -3.3122972 -47.615327 89.809626 
19 -46.632768 76.844886 -0.004560673 -3.4021056 -0.004560673 -3.4021056 -47.350839 89.830439 
19.5 -46.406143 76.580468 -0.0046300035 -3.4920004 -0.0046300035 -3.4920004 -47.095167 89.845757 
20 -46.185187 76.314913 -0.0046900849 -3.5819861 -0.0046900849 -3.5819861 -46.847976 89.855828 
20.5 -45.969618 76.048371 -0.0047403787 -3.672067 -0.0047403787 -3.672067 -46.608947 89.860875 
21 -45.759173 75.780981 -0.0047803709 -3.7622473 -0.0047803709 -3.7622473 -46.377782 89.861094 
21.5 -45.553609 75.51287 -0.0048095741 -3.8525309 -0.0048095741 -3.8525309 -46.154194 89.856662 
22 -45.352698 75.244155 -0.0048275288 -3.9429213 -0.0048275288 -3.9429213 -45.937913 89.847734 
22.5 -45.156226 74.974948 -0.0048338059 -4.0334219 -0.0048338059 -4.0334219 -45.728677 89.834448 
23 -44.963995 74.705348 -0.0048280078 -4.1240359 -0.0048280078 -4.1240359 -45.526239 89.816924 
23.5 -44.77582 74.435453 -0.0048097706 -4.214766 -0.0048097706 -4.214766 -45.330356 89.795269 
24 -44.591524 74.165352 -0.0047787653 -4.3056148 -0.0047787653 -4.3056148 -45.1408 89.769576 
24.5 -44.410943 73.89513 -0.0047346992 -4.3965847 -0.0047346992 -4.3965847 -44.957344 89.739922 
25 -44.233924 73.624866 -0.0046773174 -4.4876775 -0.0046773174 -4.4876775 -44.779772 89.706377 
25.5 -44.06032 73.354635 -0.0046064037 -4.5788949 -0.0046064037 -4.5788949 -44.607874 89.668998 
26 -43.889993 73.084509 -0.004521782 -4.6702384 -0.004521782 -4.6702384 -44.441443 89.62783 
26.5 -43.722815 72.814557 -0.004423317 -4.761709 -0.004423317 -4.761709 -44.280278 89.582912 
27 -43.558663 72.544844 -0.0043109151 -4.8533076 -0.0043109151 -4.8533076 -44.124182 89.534274 
27.5 -43.39742 72.27543 -0.0041845249 -4.9450345 -0.0041845249 -4.9450345 -43.972963 89.481936 
28 -43.238936 72.005294 -0.0040503041 -5.0368723 -0.0040503041 -5.0368723 -43.826219 89.430422 
28.5 -43.083024 71.732366 -0.0039210065 -5.1287847 -0.0039210065 -5.1287847 -43.683343 89.388624 
29 -42.929582 71.456829 -0.0037970567 -5.2207713 -0.0037970567 -5.2207713 -43.544163 89.356084 
29.5 -42.778516 71.17893 -0.0036784746 -5.3128323 -0.0036784746 -5.3128323 -43.408522 89.332067 
30 -42.629738 70.898915 -0.0035652609 -5.4049682 -0.0035652609 -5.4049682 -43.276264 89.315848 
30.5 -42.483164 70.617022 -0.0034573967 -5.4971789 -0.0034573967 -5.4971789 -43.147234 89.30671 
31 -42.338714 70.333489 -0.0033548446 -5.5894646 -0.0033548446 -5.5894646 -43.021281 89.303944 
31.5 -42.196314 70.048546 -0.0032575487 -5.6818253 -0.0032575487 -5.6818253 -42.898252 89.306848 
32 -42.055891 69.762421 -0.0031654351 -5.7742606 -0.0031654351 -5.7742606 -42.778 89.314724 
32.5 -41.917378 69.47534 -0.0030784126 -5.8667704 -0.0030784126 -5.8667704 -42.660376 89.32688 
33 -41.780712 69.187521 -0.0029963729 -5.9593543 -0.0029963729 -5.9593543 -42.545236 89.342627 
33.5 -41.645833 68.89918 -0.0029191919 -6.0520116 -0.0029191919 -6.0520116 -42.432436 89.361281 
34 -41.512683 68.610528 -0.0028467294 -6.1447418 -0.0028467294 -6.1447418 -42.321835 89.382164 
34.5 -41.381209 68.321772 -0.002778831 -6.2375442 -0.002778831 -6.2375442 -42.213293 89.404601 
35 -41.251358 68.033113 -0.0027153278 -6.3304179 -0.0027153278 -6.3304179 -42.106674 89.427922 
35.5 -41.123083 67.744747 -0.0026560379 -6.423362 -0.0026560379 -6.423362 -42.001844 89.451463 
36 -40.996338 67.456866 -0.002600767 -6.5163755 -0.002600767 -6.5163755 -41.898671 89.474566 
36.5 -40.871079 67.169656 -0.0025493096 -6.6094573 -0.0025493096 -6.6094573 -41.797026 89.496582 
37 -40.747266 66.883298 -0.0025014493 -6.7026061 -0.0025014493 -6.7026061 -41.696782 89.516869 
37.5 -40.62486 66.597967 -0.0024569606 -6.7958207 -0.0024569606 -6.7958207 -41.597815 89.534793 
38 -40.503824 66.313831 -0.0024156092 -6.8890997 -0.0024156092 -6.8890997 -41.500007 89.549735 
38.5 -40.384122 66.031052 -0.0023771533 -6.9824418 -0.0023771533 -6.9824418 -41.403238 89.561085 
39 -40.265723 65.749789 -0.0023413448 -7.0758453 -0.0023413448 -7.0758453 -41.307395 89.568248 
39.5 -40.148594 65.470189 -0.0023079302 -7.1693088 -0.0023079302 -7.1693088 -41.212367 89.570644 
40 -40.032706 65.192398 -0.0022766514 -7.2628307 -0.0022766514 -7.2628307 -41.118046 89.567713 
40.5 -39.918031 64.916551 -0.0022472473 -7.3564093 -0.0022472473 -7.3564093 -41.02433 89.558911 
41 -39.804542 64.642779 -0.0022194546 -7.4500428 -0.0022194546 -7.4500428 -40.931116 89.543714 
41.5 -39.692214 64.371204 -0.002193009 -7.5437296 -0.002193009 -7.5437296 -40.83831 89.521625 
42 -39.581023 64.101942 -0.0021676462 -7.637468 -0.0021676462 -7.637468 -40.745818 89.492166 
42.5 -39.470944 63.835103 -0.0021431028 -7.731256 -0.0021431028 -7.731256 -40.65355 89.454888 
43 -39.361957 63.570787 -0.0021191178 -7.8250919 -0.0021191178 -7.8250919 -40.561423 89.40937 
43.5 -39.254041 63.309089 -0.0020954336 -7.9189739 -0.0020954336 -7.9189739 -40.469356 89.355219 
44 -39.147174 63.050096 -0.0020717966 -8.0129002 -0.0020717966 -8.0129002 -40.37727 89.292074 
44.5 -39.041338 62.793888 -0.0020479588 -8.106869 -0.0020479588 -8.106869 -40.285094 89.219603 
45 -38.936514 62.540537 -0.0020236783 -8.2008784 -0.0020236783 -8.2008784 -40.192758 89.137512 
45.5 -38.832684 62.290108 -0.0019987208 -8.2949267 -0.0019987208 -8.2949267 -40.100199 89.04554 
46 -38.729831 62.042661 -0.0019728601 -8.3890121 -0.0019728601 -8.3890121 -40.007357 88.943459 
46.5 -38.627938 61.798245 -0.0019458792 -8.4831329 -0.0019458792 -8.4831329 -39.914175 88.831081 
47 -38.526988 61.556904 -0.0019175713 -8.5772874 -0.0019175713 -8.5772874 -39.820602 88.708253 
47.5 -38.426967 61.318675 -0.0018877405 -8.6714739 -0.0018877405 -8.6714739 -39.726591 88.574861 
48 -38.327857 61.083588 -0.0018562025 -8.7656908 -0.0018562025 -8.7656908 -39.632099 88.430828 
48.5 -38.229645 60.851666 -0.0018227856 -8.8599367 -0.0018227856 -8.8599367 -39.537088 88.276113 
49 -38.132315 60.622926 -0.0017873314 -8.9542099 -0.0017873314 -8.9542099 -39.441525 88.110716 
49.5 -38.035852 60.397376 -0.0017496952 -9.0485091 -0.0017496952 -9.0485091 -39.345381 87.934671 
50 -37.940243 60.17502 -0.0017097467 -9.142833 -0.0017097467 -9.142833 -39.248629 87.748051 
