! AWR Design Environment (9307) Mon Sep  2 17:34:05 2019
! Document = 'Drain EM Export'
! nPorts: 2, nXvals: 220

# GHz S DB R 50
!Freq DBS11 AngS11 DBS21 AngS21 DBS12 AngS12 DBS22 AngS22 
0.5 -75.298149 48.876506 -0.00097891019 -0.090640104 -0.00097891019 -0.090640104 -76.640533 40.323938 
1 -71.182421 65.161008 -0.00099684009 -0.18092708 -0.00099684009 -0.18092708 -73.602453 57.334018 
1.5 -68.177246 72.128886 -0.0010186895 -0.2711093 -0.0010186895 -0.2711093 -70.999915 66.494248 
2 -65.889394 75.79307 -0.0010467463 -0.36120509 -0.0010467463 -0.36120509 -68.847549 72.006496 
2.5 -64.058011 77.964144 -0.001082109 -0.4512179 -0.001082109 -0.4512179 -67.038692 75.639935 
3 -62.536114 79.343629 -0.001125144 -0.54114962 -0.001125144 -0.54114962 -65.485408 78.203581 
3.5 -61.23613 80.255644 -0.0011759183 -0.6310025 -0.0011759183 -0.6310025 -64.125763 80.106771 
4 -60.102435 80.869477 -0.001234359 -0.72077927 -0.001234359 -0.72077927 -62.916625 81.575428 
4.5 -59.097738 81.281831 -0.0013003121 -0.81048311 -0.0013003121 -0.81048311 -61.827387 82.743383 
5 -58.195909 81.551841 -0.0013735671 -0.90011753 -0.0013735671 -0.90011753 -60.835782 83.694595 
5.5 -57.377965 81.717655 -0.0014538673 -0.98968638 -0.0014538673 -0.98968638 -59.92521 84.484259 
6 -56.629703 81.804969 -0.0015409165 -1.0791938 -0.0015409165 -1.0791938 -59.083012 85.150103 
6.5 -55.940226 81.831711 -0.0016343813 -1.1686441 -0.0016343813 -1.1686441 -58.299342 85.718772 
7 -55.300998 81.81077 -0.0017338944 -1.2580419 -0.0017338944 -1.2580419 -57.566406 86.209613 
7.5 -54.705208 81.751646 -0.0018390562 -1.347392 -0.0018390562 -1.347392 -56.877934 86.637016 
8 -54.147338 81.661496 -0.0019494364 -1.4366995 -0.0019494364 -1.4366995 -56.228816 87.011909 
8.5 -53.622857 81.545813 -0.0020645759 -1.5259694 -0.0020645759 -1.5259694 -55.614831 87.342744 
9 -53.127995 81.408887 -0.0021839883 -1.6152072 -0.0021839883 -1.6152072 -55.032457 87.636165 
9.5 -52.659588 81.254111 -0.0023071619 -1.7044183 -0.0023071619 -1.7044183 -54.478724 87.897473 
10 -52.214953 81.084212 -0.0024335609 -1.7936083 -0.0024335609 -1.7936083 -53.951104 88.130948 
10.5 -51.791791 80.9014 -0.0025626281 -1.8827829 -0.0025626281 -1.8827829 -53.44743 88.340088 
11 -51.388123 80.70749 -0.0026937859 -1.9719479 -0.0026937859 -1.9719479 -52.965826 88.527785 
11.5 -51.002232 80.503987 -0.0028264388 -2.0611092 -0.0028264388 -2.0611092 -52.504661 88.696447 
12 -50.632615 80.292147 -0.0029599756 -2.1502727 -0.0029599756 -2.1502727 -52.062503 88.848103 
12.5 -50.277953 80.073028 -0.0030937708 -2.2394444 -0.0030937708 -2.2394444 -51.638091 88.984471 
13 -49.937082 79.847531 -0.0032271875 -2.3286304 -0.0032271875 -2.3286304 -51.230306 89.107017 
13.5 -49.608966 79.616424 -0.0033595792 -2.4178365 -0.0033595792 -2.4178365 -50.83815 89.217002 
14 -49.292683 79.38037 -0.0034902921 -2.5070688 -0.0034902921 -2.5070688 -50.46073 89.315517 
14.5 -48.987405 79.13994 -0.0036186673 -2.5963333 -0.0036186673 -2.5963333 -50.09724 89.403507 
15 -48.69239 78.895634 -0.0037440435 -2.6856358 -0.0037440435 -2.6856358 -49.74695 89.4818 
15.5 -48.406967 78.64789 -0.0038657588 -2.7749822 -0.0038657588 -2.7749822 -49.409199 89.551119 
16 -48.130527 78.397092 -0.0039831533 -2.8643782 -0.0039831533 -2.8643782 -49.083381 89.612104 
16.5 -47.86252 78.143581 -0.0040955716 -2.9538296 -0.0040955716 -2.9538296 -48.768942 89.665317 
17 -47.602441 77.88766 -0.0042023648 -3.0433418 -0.0042023648 -3.0433418 -48.465372 89.711257 
17.5 -47.349832 77.629599 -0.004302893 -3.1329204 -0.004302893 -3.1329204 -48.172199 89.750367 
18 -47.104269 77.369641 -0.0043965278 -3.2225705 -0.0043965278 -3.2225705 -47.888987 89.78304 
18.5 -46.865367 77.108004 -0.0044826541 -3.3122972 -0.0044826541 -3.3122972 -47.615327 89.809626 
19 -46.632768 76.844886 -0.004560673 -3.4021056 -0.004560673 -3.4021056 -47.350839 89.830439 
19.5 -46.406143 76.580468 -0.0046300035 -3.4920004 -0.0046300035 -3.4920004 -47.095167 89.845757 
20 -46.185187 76.314913 -0.0046900849 -3.5819861 -0.0046900849 -3.5819861 -46.847976 89.855828 
20.5 -45.969618 76.048371 -0.0047403787 -3.672067 -0.0047403787 -3.672067 -46.608947 89.860875 
21 -45.759173 75.780981 -0.0047803709 -3.7622473 -0.0047803709 -3.7622473 -46.377782 89.861094 
21.5 -45.553609 75.51287 -0.0048095741 -3.8525309 -0.0048095741 -3.8525309 -46.154194 89.856662 
22 -45.352698 75.244155 -0.0048275288 -3.9429213 -0.0048275288 -3.9429213 -45.937913 89.847734 
22.5 -45.156226 74.974948 -0.0048338059 -4.0334219 -0.0048338059 -4.0334219 -45.728677 89.834448 
23 -44.963995 74.705348 -0.0048280078 -4.1240359 -0.0048280078 -4.1240359 -45.526239 89.816924 
23.5 -44.77582 74.435453 -0.0048097706 -4.214766 -0.0048097706 -4.214766 -45.330356 89.795269 
24 -44.591524 74.165352 -0.0047787653 -4.3056148 -0.0047787653 -4.3056148 -45.1408 89.769576 
24.5 -44.410943 73.89513 -0.0047346992 -4.3965847 -0.0047346992 -4.3965847 -44.957344 89.739922 
25 -44.233924 73.624866 -0.0046773174 -4.4876775 -0.0046773174 -4.4876775 -44.779772 89.706377 
25.5 -44.06032 73.354635 -0.0046064037 -4.5788949 -0.0046064037 -4.5788949 -44.607874 89.668998 
26 -43.889993 73.084509 -0.004521782 -4.6702384 -0.004521782 -4.6702384 -44.441443 89.62783 
26.5 -43.722815 72.814557 -0.004423317 -4.761709 -0.004423317 -4.761709 -44.280278 89.582912 
27 -43.558663 72.544844 -0.0043109151 -4.8533076 -0.0043109151 -4.8533076 -44.124182 89.534274 
27.5 -43.39742 72.27543 -0.0041845249 -4.9450345 -0.0041845249 -4.9450345 -43.972963 89.481936 
28 -43.238936 72.005294 -0.0040503041 -5.0368723 -0.0040503041 -5.0368723 -43.826219 89.430422 
28.5 -43.083024 71.732366 -0.0039210065 -5.1287847 -0.0039210065 -5.1287847 -43.683343 89.388624 
29 -42.929582 71.456829 -0.0037970567 -5.2207713 -0.0037970567 -5.2207713 -43.544163 89.356084 
29.5 -42.778516 71.17893 -0.0036784746 -5.3128323 -0.0036784746 -5.3128323 -43.408522 89.332067 
30 -42.629738 70.898915 -0.0035652609 -5.4049682 -0.0035652609 -5.4049682 -43.276264 89.315848 
30.5 -42.483164 70.617022 -0.0034573967 -5.4971789 -0.0034573967 -5.4971789 -43.147234 89.30671 
31 -42.338714 70.333489 -0.0033548446 -5.5894646 -0.0033548446 -5.5894646 -43.021281 89.303944 
31.5 -42.196314 70.048546 -0.0032575487 -5.6818253 -0.0032575487 -5.6818253 -42.898252 89.306848 
32 -42.055891 69.762421 -0.0031654351 -5.7742606 -0.0031654351 -5.7742606 -42.778 89.314724 
32.5 -41.917378 69.47534 -0.0030784126 -5.8667704 -0.0030784126 -5.8667704 -42.660376 89.32688 
33 -41.780712 69.187521 -0.0029963729 -5.9593543 -0.0029963729 -5.9593543 -42.545236 89.342627 
33.5 -41.645833 68.89918 -0.0029191919 -6.0520116 -0.0029191919 -6.0520116 -42.432436 89.361281 
34 -41.512683 68.610528 -0.0028467294 -6.1447418 -0.0028467294 -6.1447418 -42.321835 89.382164 
34.5 -41.381209 68.321772 -0.002778831 -6.2375442 -0.002778831 -6.2375442 -42.213293 89.404601 
35 -41.251358 68.033113 -0.0027153278 -6.3304179 -0.0027153278 -6.3304179 -42.106674 89.427922 
35.5 -41.123083 67.744747 -0.0026560379 -6.423362 -0.0026560379 -6.423362 -42.001844 89.451463 
36 -40.996338 67.456866 -0.002600767 -6.5163755 -0.002600767 -6.5163755 -41.898671 89.474566 
36.5 -40.871079 67.169656 -0.0025493096 -6.6094573 -0.0025493096 -6.6094573 -41.797026 89.496582 
37 -40.747266 66.883298 -0.0025014493 -6.7026061 -0.0025014493 -6.7026061 -41.696782 89.516869 
37.5 -40.62486 66.597967 -0.0024569606 -6.7958207 -0.0024569606 -6.7958207 -41.597815 89.534793 
38 -40.503824 66.313831 -0.0024156092 -6.8890997 -0.0024156092 -6.8890997 -41.500007 89.549735 
38.5 -40.384122 66.031052 -0.0023771533 -6.9824418 -0.0023771533 -6.9824418 -41.403238 89.561085 
39 -40.265723 65.749789 -0.0023413448 -7.0758453 -0.0023413448 -7.0758453 -41.307395 89.568248 
39.5 -40.148594 65.470189 -0.0023079302 -7.1693088 -0.0023079302 -7.1693088 -41.212367 89.570644 
40 -40.032706 65.192398 -0.0022766514 -7.2628307 -0.0022766514 -7.2628307 -41.118046 89.567713 
40.5 -39.918031 64.916551 -0.0022472473 -7.3564093 -0.0022472473 -7.3564093 -41.02433 89.558911 
41 -39.804542 64.642779 -0.0022194546 -7.4500428 -0.0022194546 -7.4500428 -40.931116 89.543714 
41.5 -39.692214 64.371204 -0.002193009 -7.5437296 -0.002193009 -7.5437296 -40.83831 89.521625 
42 -39.581023 64.101942 -0.0021676462 -7.637468 -0.0021676462 -7.637468 -40.745818 89.492166 
42.5 -39.470944 63.835103 -0.0021431028 -7.731256 -0.0021431028 -7.731256 -40.65355 89.454888 
43 -39.361957 63.570787 -0.0021191178 -7.8250919 -0.0021191178 -7.8250919 -40.561423 89.40937 
43.5 -39.254041 63.309089 -0.0020954336 -7.9189739 -0.0020954336 -7.9189739 -40.469356 89.355219 
44 -39.147174 63.050096 -0.0020717966 -8.0129002 -0.0020717966 -8.0129002 -40.37727 89.292074 
44.5 -39.041338 62.793888 -0.0020479588 -8.106869 -0.0020479588 -8.106869 -40.285094 89.219603 
45 -38.936514 62.540537 -0.0020236783 -8.2008784 -0.0020236783 -8.2008784 -40.192758 89.137512 
45.5 -38.832684 62.290108 -0.0019987208 -8.2949267 -0.0019987208 -8.2949267 -40.100199 89.04554 
46 -38.729831 62.042661 -0.0019728601 -8.3890121 -0.0019728601 -8.3890121 -40.007357 88.943459 
46.5 -38.627938 61.798245 -0.0019458792 -8.4831329 -0.0019458792 -8.4831329 -39.914175 88.831081 
47 -38.526988 61.556904 -0.0019175713 -8.5772874 -0.0019175713 -8.5772874 -39.820602 88.708253 
47.5 -38.426967 61.318675 -0.0018877405 -8.6714739 -0.0018877405 -8.6714739 -39.726591 88.574861 
48 -38.327857 61.083588 -0.0018562025 -8.7656908 -0.0018562025 -8.7656908 -39.632099 88.430828 
48.5 -38.229645 60.851666 -0.0018227856 -8.8599367 -0.0018227856 -8.8599367 -39.537088 88.276113 
49 -38.132315 60.622926 -0.0017873314 -8.9542099 -0.0017873314 -8.9542099 -39.441525 88.110716 
49.5 -38.035852 60.397376 -0.0017496952 -9.0485091 -0.0017496952 -9.0485091 -39.345381 87.934671 
50 -37.940243 60.17502 -0.0017097467 -9.142833 -0.0017097467 -9.142833 -39.248629 87.748051 
50.5 -37.845473 59.955856 -0.001667371 -9.2371803 -0.001667371 -9.2371803 -39.151251 87.550963 
51 -37.751528 59.739873 -0.0016224685 -9.3315497 -0.0016224685 -9.3315497 -39.05323 87.34355 
51.5 -37.658394 59.527058 -0.0015749555 -9.4259403 -0.0015749555 -9.4259403 -38.954555 87.125988 
52 -37.566057 59.31739 -0.0015247649 -9.520351 -0.0015247649 -9.520351 -38.855218 86.898484 
52.5 -37.474503 59.110841 -0.0014718462 -9.6147809 -0.0014718462 -9.6147809 -38.755218 86.661276 
53 -37.383718 58.907381 -0.001416166 -9.7092292 -0.001416166 -9.7092292 -38.654557 86.414634 
53.5 -37.29369 58.706972 -0.001357708 -9.8036952 -0.001357708 -9.8036952 -38.553239 86.158849 
54 -37.204403 58.509574 -0.0012964733 -9.8981783 -0.0012964733 -9.8981783 -38.451276 85.894242 
54.5 -37.115844 58.31514 -0.0012324804 -9.9926782 -0.0012324804 -9.9926782 -38.348682 85.621154 
55 -37.028 58.123618 -0.0011657654 -10.087194 -0.0011657654 -10.087194 -38.245476 85.339947 
55.5 -36.940925 57.935487 -0.0010946315 -10.181838 -0.0010946315 -10.181838 -38.143133 85.055005 
56 -36.854672 57.751192 -0.0010172903 -10.27672 -0.0010172903 -10.27672 -38.043071 84.770392 
56.5 -36.769225 57.570625 -0.00093367529 -10.37184 -0.00093367529 -10.37184 -37.945223 84.48601 
57 -36.684566 57.393676 -0.00084374959 -10.467195 -0.00084374959 -10.467195 -37.84952 84.20176 
57.5 -36.600676 57.220229 -0.00074750634 -10.562783 -0.00074750634 -10.562783 -37.755891 83.91755 
58 -36.517539 57.050163 -0.0006449693 -10.658601 -0.0006449693 -10.658601 -37.664262 83.633286 
58.5 -36.435134 56.883356 -0.00053619313 -10.754645 -0.00053619313 -10.754645 -37.57456 83.348882 
59 -36.353444 56.71968 -0.00042126369 -10.850912 -0.00042126369 -10.850912 -37.486708 83.064251 
59.5 -36.272449 56.559006 -0.00030029823 -10.947396 -0.00030029823 -10.947396 -37.400631 82.779312 
60 -36.192129 56.401201 -0.00017344535 -11.044092 -0.00017344535 -11.044092 -37.316249 82.493986 
60.5 -36.112465 56.246131 -4.0885033e-05 -11.140995 -4.0885033e-05 -11.140995 -37.233484 82.208198 
61 -36.033436 56.09366 9.7171617e-05 -11.238098 9.7171617e-05 -11.238098 -37.152255 81.921877 
61.5 -35.955022 55.94365 0.00024048262 -11.335394 0.00024048262 -11.335394 -37.072482 81.634954 
62 -35.877202 55.795962 0.00038877556 -11.432876 0.00038877556 -11.432876 -36.994083 81.347367 
62.5 -35.799956 55.650458 0.00054174805 -11.530537 0.00054174805 -11.530537 -36.916976 81.059056 
63 -35.723264 55.506998 0.00069906843 -11.628368 0.00069906843 -11.628368 -36.841078 80.769965 
63.5 -35.647104 55.365442 0.00086037647 -11.726361 0.00086037647 -11.726361 -36.766308 80.480044 
64 -35.571455 55.225652 0.0010252842 -11.824507 0.0010252842 -11.824507 -36.692582 80.189246 
64.5 -35.496298 55.08749 0.001193377 -11.922798 0.001193377 -11.922798 -36.619817 79.897529 
65 -35.42161 54.950819 0.0013642145 -12.021223 0.0013642145 -12.021223 -36.547932 79.604856 
65.5 -35.347371 54.815504 0.0015373318 -12.119774 0.0015373318 -12.119774 -36.476844 79.311195 
66 -35.273562 54.681412 0.0017122408 -12.21844 0.0017122408 -12.21844 -36.406473 79.016518 
66.5 -35.200161 54.548412 0.0018884316 -12.317211 0.0018884316 -12.317211 -36.336738 78.720804 
67 -35.127148 54.416376 0.0020653738 -12.416078 0.0020653738 -12.416078 -36.267559 78.424034 
67.5 -35.054503 54.285178 0.0022425182 -12.515029 0.0022425182 -12.515029 -36.198858 78.126196 
68 -34.982207 54.154695 0.0024192983 -12.614056 0.0024192983 -12.614056 -36.130558 77.827284 
68.5 -34.910241 54.02481 0.0025951322 -12.713146 0.0025951322 -12.713146 -36.062585 77.527296 
69 -34.838584 53.895407 0.0027694242 -12.81229 0.0027694242 -12.81229 -35.994863 77.226234 
69.5 -34.767219 53.766375 0.0029415669 -12.911478 0.0029415669 -12.911478 -35.927321 76.924107 
70 -34.696128 53.637608 0.0031109426 -13.010698 0.0031109426 -13.010698 -35.85989 76.620928 
70.5 -34.625292 53.509004 0.0032769259 -13.109941 0.0032769259 -13.109941 -35.792502 76.316717 
71 -34.554694 53.380464 0.0034388854 -13.209197 0.0034388854 -13.209197 -35.725093 76.011495 
71.5 -34.484318 53.251898 0.0035961857 -13.308455 0.0035961857 -13.308455 -35.657598 75.705292 
72 -34.414147 53.123218 0.0037481897 -13.407707 0.0037481897 -13.407707 -35.58996 75.39814 
72.5 -34.344165 52.994341 0.0038942605 -13.506941 0.0038942605 -13.506941 -35.52212 75.090076 
73 -34.274357 52.865193 0.0040337636 -13.606149 0.0040337636 -13.606149 -35.454026 74.78114 
73.5 -34.204709 52.735702 0.0041660694 -13.705323 0.0041660694 -13.705323 -35.385627 74.47138 
74 -34.135206 52.605803 0.0042905546 -13.804452 0.0042905546 -13.804452 -35.316875 74.160843 
74.5 -34.065836 52.475438 0.0044066052 -13.903529 0.0044066052 -13.903529 -35.247727 73.849582 
75 -33.996586 52.344553 0.004513618 -14.002546 0.004513618 -14.002546 -35.178143 73.537653 
75.5 -33.927444 52.213101 0.0046110032 -14.101496 0.0046110032 -14.101496 -35.108085 73.225114 
76 -33.858398 52.081042 0.0046981861 -14.20037 0.0046981861 -14.20037 -35.037522 72.912026 
76.5 -33.789438 51.94834 0.0047746094 -14.299162 0.0047746094 -14.299162 -34.966423 72.598452 
77 -33.720554 51.814966 0.0048397351 -14.397866 0.0048397351 -14.397866 -34.894764 72.284458 
77.5 -33.651738 51.680898 0.0048930465 -14.496477 0.0048930465 -14.496477 -34.822522 71.970108 
78 -33.58298 51.546119 0.0049340503 -14.594988 0.0049340503 -14.594988 -34.74968 71.655471 
78.5 -33.514273 51.410617 0.0049622779 -14.693395 0.0049622779 -14.693395 -34.676225 71.340615 
79 -33.445611 51.274387 0.0049772879 -14.791694 0.0049772879 -14.791694 -34.602146 71.025607 
79.5 -33.376987 51.13743 0.0049786673 -14.889881 0.0049786673 -14.889881 -34.527437 70.710516 
80 -33.308396 50.999752 0.0049660331 -14.987954 0.0049660331 -14.987954 -34.452096 70.395408 
80.5 -33.239833 50.861365 0.0049390341 -15.085908 0.0049390341 -15.085908 -34.376123 70.08035 
81 -33.171295 50.722285 0.0048973522 -15.183743 0.0048973522 -15.183743 -34.299524 69.765407 
81.5 -33.102778 50.582535 0.0048407036 -15.281457 0.0048407036 -15.281457 -34.222306 69.450643 
82 -33.034279 50.44214 0.0047688399 -15.37905 0.0047688399 -15.37905 -34.144481 69.136119 
82.5 -32.965798 50.301134 0.0046815496 -15.47652 0.0046815496 -15.47652 -34.066065 68.821894 
83 -32.897362 50.159791 0.0045854001 -15.573869 0.0045854001 -15.573869 -33.986983 68.505901 
83.5 -32.828998 50.01838 0.0044869779 -15.671097 0.0044869779 -15.671097 -33.907166 68.186172 
84 -32.760705 49.876929 0.0043861249 -15.768205 0.0043861249 -15.768205 -33.826635 67.862917 
84.5 -32.692483 49.735469 0.0042826787 -15.865196 0.0042826787 -15.865196 -33.745417 67.536354 
85 -32.624333 49.594035 0.0041764738 -15.962071 0.0041764738 -15.962071 -33.663541 67.206708 
85.5 -32.556255 49.452662 0.0040673421 -16.058833 0.0040673421 -16.058833 -33.581039 66.874209 
86 -32.488251 49.311387 0.003955114 -16.155485 0.003955114 -16.155485 -33.497949 66.539093 
86.5 -32.420322 49.170252 0.0038396188 -16.252031 0.0038396188 -16.252031 -33.414306 66.201597 
87 -32.352471 49.029296 0.0037206859 -16.348476 0.0037206859 -16.348476 -33.330154 65.861961 
87.5 -32.284698 48.888564 0.0035981453 -16.444825 0.0035981453 -16.444825 -33.245534 65.520425 
88 -32.217009 48.7481 0.0034718286 -16.541083 0.0034718286 -16.541083 -33.160493 65.177228 
88.5 -32.149404 48.607949 0.0033415695 -16.637256 0.0033415695 -16.637256 -33.075077 64.832609 
89 -32.081888 48.468156 0.0032072048 -16.733351 0.0032072048 -16.733351 -32.989337 64.486801 
89.5 -32.014465 48.328771 0.003068575 -16.829375 0.003068575 -16.829375 -32.903321 64.140038 
90 -31.947138 48.189839 0.0029255252 -16.925334 0.0029255252 -16.925334 -32.817083 63.792544 
90.5 -31.879912 48.051409 0.0027779054 -17.021237 0.0027779054 -17.021237 -32.730675 63.444541 
91 -31.812791 47.913528 0.0026255714 -17.117093 0.0026255714 -17.117093 -32.644151 63.096243 
91.5 -31.745779 47.776245 0.0024683855 -17.212908 0.0024683855 -17.212908 -32.557564 62.747859 
92 -31.678882 47.639608 0.0023062169 -17.308693 0.0023062169 -17.308693 -32.47097 62.399587 
92.5 -31.612104 47.503663 0.0021389423 -17.404457 0.0021389423 -17.404457 -32.384422 62.051619 
93 -31.54545 47.368458 0.0019664466 -17.500208 0.0019664466 -17.500208 -32.297977 61.704138 
93.5 -31.478925 47.234039 0.001788623 -17.595957 0.001788623 -17.595957 -32.211687 61.357317 
94 -31.412535 47.10045 0.0016053739 -17.691714 0.0016053739 -17.691714 -32.125606 61.01132 
94.5 -31.346284 46.967736 0.0014166107 -17.787488 0.0014166107 -17.787488 -32.039789 60.666301 
95 -31.280178 46.835939 0.001222255 -17.88329 0.001222255 -17.88329 -31.954287 60.322405 
95.5 -31.214222 46.705102 0.0010222378 -17.97913 0.0010222378 -17.97913 -31.869151 59.979764 
96 -31.148421 46.575264 0.00081650098 -18.075019 0.00081650098 -18.075019 -31.784431 59.638504 
96.5 -31.08278 46.446465 0.00060499637 -18.170967 0.00060499637 -18.170967 -31.700177 59.298737 
97 -31.017305 46.31874 0.0003876867 -18.266985 0.0003876867 -18.266985 -31.616434 58.960567 
97.5 -30.951999 46.192126 0.00016454533 -18.363083 0.00016454533 -18.363083 -31.53325 58.624087 
98 -30.886868 46.066655 -6.4443549e-05 -18.459272 -6.4443549e-05 -18.459272 -31.450667 58.28938 
98.5 -30.821917 45.942358 -0.00029928495 -18.555562 -0.00029928495 -18.555562 -31.368728 57.956518 
99 -30.75715 45.819265 -0.00053997312 -18.651963 -0.00053997312 -18.651963 -31.287473 57.625567 
99.5 -30.69257 45.697404 -0.00078649164 -18.748486 -0.00078649164 -18.748486 -31.206939 57.296578 
100 -30.628183 45.576798 -0.0010388135 -18.84514 -0.0010388135 -18.84514 -31.127163 56.969599 
100.5 -30.563991 45.45747 -0.0012969015 -18.941935 -0.0012969015 -18.941935 -31.048178 56.644663 
101 -30.5 45.339442 -0.0015607081 -19.038881 -0.0015607081 -19.038881 -30.970015 56.321799 
101.5 -30.43621 45.222731 -0.001830176 -19.135987 -0.001830176 -19.135987 -30.892703 56.001026 
102 -30.372627 45.107352 -0.0021052386 -19.233262 -0.0021052386 -19.233262 -30.816268 55.682354 
