! AWR Design Environment (9307) Mon Sep  2 17:34:05 2019
! Document = 'Gate EM Export'
! nPorts: 2, nXvals: 220

# GHz S DB R 50
!Freq DBS11 AngS11 DBS21 AngS21 DBS12 AngS12 DBS22 AngS22 
0.5 -61.084079 2.8073347 -0.0076651454 -0.098510737 -0.0076651454 -0.098510737 -61.042551 5.8585333 
1 -61.058168 4.6087825 -0.007686359 -0.19664103 -0.007686359 -0.19664103 -60.897759 11.03084 
1.5 -61.017241 6.5361789 -0.0077224113 -0.29467423 -0.0077224113 -0.29467423 -60.672901 15.951566 
2 -60.96125 8.5726573 -0.0077719116 -0.39260477 -0.0077719116 -0.39260477 -60.381972 20.539205 
2.5 -60.890437 10.705185 -0.0078332561 -0.49043092 -0.0078332561 -0.49043092 -60.040256 24.749409 
3 -60.805002 12.924183 -0.0079048427 -0.58815452 -0.0079048427 -0.58815452 -59.662176 28.569672 
3.5 -60.704879 15.22223 -0.0079852223 -0.68578021 -0.0079852223 -0.68578021 -59.260067 32.010247 
4 -60.589664 17.592463 -0.0080731741 -0.7833146 -0.0080731741 -0.7833146 -58.84377 35.095071 
4.5 -60.458659 20.027153 -0.0081677193 -0.88076536 -0.0081677193 -0.88076536 -58.420761 37.854645 
5 -60.311001 22.516735 -0.0082680945 -0.97814064 -0.0082680945 -0.97814064 -57.996519 40.321283 
5.5 -60.145822 25.049364 -0.0083737065 -1.0754486 -0.0083737065 -1.0754486 -57.57495 42.526342 
6 -59.962406 27.610964 -0.0084840829 -1.1726971 -0.0084840829 -1.1726971 -57.158775 44.498832 
6.5 -59.760326 30.185639 -0.0085988282 -1.2698937 -0.0085988282 -1.2698937 -56.749841 46.264872 
7 -59.539531 32.756353 -0.0087175883 -1.3670456 -0.0087175883 -1.3670456 -56.349365 47.847623 
7.5 -59.300398 35.305712 -0.0088400231 -1.4641596 -0.0088400231 -1.4641596 -55.958105 49.267457 
8 -59.043732 37.816775 -0.0089657881 -1.5612423 -0.0089657881 -1.5612423 -55.576495 50.542222 
8.5 -58.770735 40.27377 -0.0090945218 -1.6582999 -0.0090945218 -1.6582999 -55.204737 51.687538 
9 -58.48294 42.662676 -0.009225838 -1.7553385 -0.009225838 -1.7553385 -54.842867 52.717076 
9.5 -58.182137 44.971619 -0.0093593219 -1.8523639 -0.0093593219 -1.8523639 -54.490803 53.642822 
10 -57.87028 47.191082 -0.0094945282 -1.949382 -0.0094945282 -1.949382 -54.148383 54.475299 
10.5 -57.549408 49.313953 -0.0096309817 -2.0463984 -0.0096309817 -2.0463984 -53.815387 55.223769 
11 -57.221564 51.335423 -0.009768178 -2.1434187 -0.009768178 -2.1434187 -53.49156 55.896399 
11.5 -56.888734 53.252788 -0.009905586 -2.2404485 -0.009905586 -2.2404485 -53.176621 56.500413 
12 -56.552801 55.065186 -0.01004265 -2.3374933 -0.01004265 -2.3374933 -52.870278 57.042208 
12.5 -56.215505 56.7733 -0.010178794 -2.4345584 -0.010178794 -2.4345584 -52.572232 57.527472 
13 -55.87843 58.379065 -0.010313421 -2.5316494 -0.010313421 -2.5316494 -52.282181 57.961265 
13.5 -55.542989 59.885383 -0.010445921 -2.6287714 -0.010445921 -2.6287714 -51.999829 58.348105 
14 -55.210421 61.295872 -0.010575669 -2.7259298 -0.010575669 -2.7259298 -51.724885 58.692031 
14.5 -54.881803 62.61464 -0.010702034 -2.8231298 -0.010702034 -2.8231298 -51.457064 58.996666 
15 -54.558053 63.846108 -0.010824375 -2.9203764 -0.010824375 -2.9203764 -51.196093 59.26526 
15.5 -54.239946 64.994852 -0.01094205 -3.0176748 -0.01094205 -3.0176748 -50.941704 59.500744 
16 -53.928126 66.065493 -0.011054417 -3.1150298 -0.011054417 -3.1150298 -50.693644 59.705757 
16.5 -53.623117 67.0626 -0.011160835 -3.2124463 -0.011160835 -3.2124463 -50.451666 59.882687 
17 -53.325344 67.990626 -0.011260669 -3.3099289 -0.011260669 -3.3099289 -50.215537 60.033695 
17.5 -53.035138 68.853857 -0.011353294 -3.4074823 -0.011353294 -3.4074823 -49.985031 60.160743 
18 -52.752752 69.656385 -0.011438093 -3.5051109 -0.011438093 -3.5051109 -49.759933 60.265611 
18.5 -52.47837 70.402081 -0.011514464 -3.602819 -0.011514464 -3.602819 -49.540038 60.349924 
19 -52.212119 71.094589 -0.011581823 -3.7006107 -0.011581823 -3.7006107 -49.325149 60.415162 
19.5 -51.954075 71.737322 -0.011639602 -3.7984899 -0.011639602 -3.7984899 -49.115079 60.462679 
20 -51.704269 72.333461 -0.011687256 -3.8964604 -0.011687256 -3.8964604 -48.909647 60.493712 
20.5 -51.4627 72.885962 -0.011724262 -3.9945258 -0.011724262 -3.9945258 -48.708684 60.509399 
21 -51.22933 73.397567 -0.011750124 -4.0926895 -0.011750124 -4.0926895 -48.512024 60.510782 
21.5 -51.004101 73.87081 -0.011764374 -4.1909546 -0.011764374 -4.1909546 -48.31951 60.498821 
22 -50.786927 74.308027 -0.011766571 -4.289324 -0.011766571 -4.289324 -48.130994 60.474402 
22.5 -50.577706 74.711371 -0.01175631 -4.3878006 -0.01175631 -4.3878006 -47.94633 60.438341 
23 -50.376318 75.082824 -0.011733216 -4.4863868 -0.011733216 -4.4863868 -47.765381 60.391392 
23.5 -50.182632 75.424203 -0.011696952 -4.5850849 -0.011696952 -4.5850849 -47.588015 60.334257 
24 -49.9965 75.737176 -0.011647217 -4.6838969 -0.011647217 -4.6838969 -47.414104 60.267583 
24.5 -49.817768 76.023272 -0.011583746 -4.7828246 -0.011583746 -4.7828246 -47.243529 60.191973 
25 -49.646271 76.283888 -0.011506317 -4.8818695 -0.011506317 -4.8818695 -47.07617 60.107989 
25.5 -49.481836 76.520303 -0.011414748 -4.981033 -0.011414748 -4.981033 -46.911916 60.016153 
26 -49.324282 76.733683 -0.011308898 -5.0803161 -0.011308898 -5.0803161 -46.750659 59.916954 
26.5 -49.173423 76.925093 -0.011188668 -5.1797196 -0.011188668 -5.1797196 -46.592295 59.810847 
27 -49.029066 77.095502 -0.011054004 -5.279244 -0.011054004 -5.279244 -46.436722 59.698262 
27.5 -48.891013 77.245791 -0.010904896 -5.3788896 -0.010904896 -5.3788896 -46.283845 59.579599 
28 -48.758865 77.385625 -0.010747565 -5.4786395 -0.010747565 -5.4786395 -46.13346 59.453383 
28.5 -48.631993 77.533261 -0.010594851 -5.578459 -0.010594851 -5.578459 -45.985254 59.31632 
29 -48.510135 77.688575 -0.01044723 -5.6783473 -0.01044723 -5.6783473 -45.839146 59.168949 
29.5 -48.393039 77.85086 -0.010304773 -5.7783052 -0.010304773 -5.7783052 -45.695063 59.011904 
30 -48.280454 78.019398 -0.010167532 -5.8783331 -0.010167532 -5.8783331 -45.552935 58.845803 
30.5 -48.17213 78.193449 -0.01003554 -5.9784313 -0.01003554 -5.9784313 -45.412695 58.671246 
31 -48.067816 78.372252 -0.0099088149 -6.0786001 -0.0099088149 -6.0786001 -45.274279 58.488818 
31.5 -47.96726 78.555023 -0.0097873535 -6.1788397 -0.0097873535 -6.1788397 -45.137626 58.299088 
32 -47.870212 78.740953 -0.0096711367 -6.2791504 -0.0096711367 -6.2791504 -45.002676 58.10261 
32.5 -47.776421 78.929205 -0.009560128 -6.3795322 -0.009560128 -6.3795322 -44.869372 57.899925 
33 -47.685638 79.118919 -0.009454274 -6.4799851 -0.009454274 -6.4799851 -44.737661 57.691557 
33.5 -47.597612 79.309202 -0.0093535055 -6.5805091 -0.0093535055 -6.5805091 -44.607492 57.478019 
34 -47.512097 79.499138 -0.0092577371 -6.681104 -0.0092577371 -6.681104 -44.478815 57.25981 
34.5 -47.428844 79.687783 -0.0091668687 -6.7817697 -0.0091668687 -6.7817697 -44.351584 57.037415 
35 -47.347609 79.874167 -0.0090807856 -6.8825058 -0.0090807856 -6.8825058 -44.225755 56.811305 
35.5 -47.268148 80.057297 -0.008999359 -6.9833121 -0.008999359 -6.9833121 -44.101286 56.581938 
36 -47.190219 80.236157 -0.0089224474 -7.0841881 -0.0089224474 -7.0841881 -43.978137 56.349761 
36.5 -47.113586 80.409714 -0.0088498968 -7.1851334 -0.0088498968 -7.1851334 -43.856271 56.115205 
37 -47.038011 80.576918 -0.0087815414 -7.2861475 -0.0087815414 -7.2861475 -43.735651 55.878687 
37.5 -46.963264 80.736708 -0.0087172051 -7.3872297 -0.0087172051 -7.3872297 -43.616246 55.640613 
38 -46.889116 80.888017 -0.0086567015 -7.4883794 -0.0086567015 -7.4883794 -43.498022 55.401374 
38.5 -46.815343 81.029773 -0.0085998353 -7.589596 -0.0085998353 -7.589596 -43.380951 55.161345 
39 -46.741728 81.16091 -0.0085464034 -7.6908787 -0.0085464034 -7.6908787 -43.265004 54.920892 
39.5 -46.668056 81.280369 -0.008496195 -7.7922266 -0.008496195 -7.7922266 -43.150156 54.680361 
40 -46.594119 81.387109 -0.0084489935 -7.8936389 -0.0084489935 -7.8936389 -43.036381 54.440088 
40.5 -46.519714 81.480108 -0.008404577 -7.9951147 -0.008404577 -7.9951147 -42.923657 54.200394 
41 -46.444647 81.558374 -0.0083627191 -8.0966532 -0.0083627191 -8.0966532 -42.811961 53.961583 
41.5 -46.368728 81.620953 -0.0083231902 -8.1982532 -0.0083231902 -8.1982532 -42.701273 53.723946 
42 -46.291775 81.66693 -0.0082857586 -8.2999138 -0.0082857586 -8.2999138 -42.591575 53.487761 
42.5 -46.213613 81.695443 -0.0082501911 -8.401634 -0.0082501911 -8.401634 -42.482848 53.253288 
43 -46.134076 81.705686 -0.0082162542 -8.5034127 -0.0082162542 -8.5034127 -42.375075 53.020774 
43.5 -46.053004 81.696919 -0.0081837152 -8.6052488 -0.0081837152 -8.6052488 -42.26824 52.790452 
44 -45.970248 81.668469 -0.008152343 -8.7071412 -0.008152343 -8.7071412 -42.162328 52.562538 
44.5 -45.885666 81.619744 -0.0081219091 -8.8090888 -0.0081219091 -8.8090888 -42.057326 52.337234 
45 -45.799126 81.550231 -0.0080921888 -8.9110904 -0.0080921888 -8.9110904 -41.953219 52.114728 
45.5 -45.710503 81.459506 -0.0080629618 -9.013145 -0.0080629618 -9.013145 -41.849995 51.895193 
46 -45.619685 81.347237 -0.0080340132 -9.1152513 -0.0080340132 -9.1152513 -41.747641 51.678787 
46.5 -45.526569 81.213188 -0.0080051345 -9.2174082 -0.0080051345 -9.2174082 -41.646146 51.465653 
47 -45.431059 81.057219 -0.0079761246 -9.3196146 -0.0079761246 -9.3196146 -41.545498 51.255921 
47.5 -45.333075 80.879292 -0.0079467903 -9.4218693 -0.0079467903 -9.4218693 -41.445687 51.049707 
48 -45.232543 80.679469 -0.0079169472 -9.5241713 -0.0079169472 -9.5241713 -41.346702 50.847112 
48.5 -45.129404 80.457914 -0.0078864209 -9.6265195 -0.0078864209 -9.6265195 -41.248532 50.648222 
49 -45.023606 80.21489 -0.0078550469 -9.7289127 -0.0078550469 -9.7289127 -41.151167 50.453114 
49.5 -44.915113 79.950756 -0.0078226722 -9.83135 -0.0078226722 -9.83135 -41.054598 50.261846 
50 -44.803898 79.665969 -0.0077891553 -9.9338302 -0.0077891553 -9.9338302 -40.958813 50.074469 
50.5 -44.689947 79.361073 -0.007754367 -10.036352 -0.007754367 -10.036352 -40.863805 49.891016 
51 -44.573258 79.036699 -0.0077181911 -10.138916 -0.0077181911 -10.138916 -40.769561 49.711512 
51.5 -44.453841 78.693558 -0.0076805248 -10.241519 -0.0076805248 -10.241519 -40.676073 49.535967 
52 -44.331718 78.332433 -0.007641279 -10.344162 -0.007641279 -10.344162 -40.583331 49.364381 
52.5 -44.206924 77.954174 -0.007600379 -10.446844 -0.007600379 -10.446844 -40.491324 49.196744 
53 -44.079505 77.559687 -0.0075577647 -10.549563 -0.0075577647 -10.549563 -40.400042 49.033031 
53.5 -43.94952 77.14993 -0.0075133909 -10.652319 -0.0075133909 -10.652319 -40.309475 48.873212 
54 -43.817038 76.7259 -0.0074672274 -10.755111 -0.0074672274 -10.755111 -40.219613 48.717243 
54.5 -43.68214 76.28863 -0.0074192596 -10.857939 -0.0074192596 -10.857939 -40.130444 48.565072 
55 -43.544918 75.839173 -0.0073694881 -10.960803 -0.0073694881 -10.960803 -40.041958 48.416637 
55.5 -43.408801 75.384777 -0.0073149134 -11.063796 -0.0073149134 -11.063796 -39.954391 48.27278 
56 -43.277039 74.931737 -0.0072524593 -11.167013 -0.0072524593 -11.167013 -39.86797 48.134277 
56.5 -43.149464 74.47971 -0.00718205 -11.270452 -0.00718205 -11.270452 -39.782669 48.00096 
57 -43.025907 74.028371 -0.0071036457 -11.374111 -0.0071036457 -11.374111 -39.698461 47.872651 
57.5 -42.906199 73.577414 -0.0070172434 -11.477988 -0.0070172434 -11.477988 -39.615317 47.749165 
58 -42.79017 73.126553 -0.0069228771 -11.582079 -0.0069228771 -11.582079 -39.533207 47.630312 
58.5 -42.677647 72.675519 -0.0068206184 -11.68638 -0.0068206184 -11.68638 -39.4521 47.515892 
59 -42.56846 72.224062 -0.0067105759 -11.790888 -0.0067105759 -11.790888 -39.371965 47.405702 
59.5 -42.462436 71.771951 -0.006592896 -11.895597 -0.006592896 -11.895597 -39.292768 47.299533 
60 -42.3594 71.318974 -0.0064677624 -12.000502 -0.0064677624 -12.000502 -39.214476 47.197172 
60.5 -42.259179 70.864935 -0.0063353957 -12.105598 -0.0063353957 -12.105598 -39.137055 47.0984 
61 -42.161599 70.409659 -0.0061960532 -12.210878 -0.0061960532 -12.210878 -39.060468 47.002996 
61.5 -42.066482 69.952989 -0.0060500284 -12.316337 -0.0060500284 -12.316337 -38.984681 46.910737 
62 -41.973655 69.494788 -0.0058976501 -12.421966 -0.0058976501 -12.421966 -38.909656 46.821395 
62.5 -41.882941 69.034937 -0.0057392818 -12.527759 -0.0057392818 -12.527759 -38.835358 46.734743 
63 -41.794164 68.573337 -0.0055753205 -12.633708 -0.0055753205 -12.633708 -38.761749 46.650552 
63.5 -41.707149 68.109912 -0.0054061961 -12.739806 -0.0054061961 -12.739806 -38.688791 46.568591 
64 -41.62172 67.644601 -0.0052323697 -12.846043 -0.0052323697 -12.846043 -38.616448 46.488632 
64.5 -41.537703 67.177368 -0.0050543325 -12.952412 -0.0050543325 -12.952412 -38.544681 46.410445 
65 -41.454925 66.708196 -0.0048726045 -13.058903 -0.0048726045 -13.058903 -38.473453 46.333802 
65.5 -41.373214 66.237088 -0.0046877325 -13.165509 -0.0046877325 -13.165509 -38.402726 46.258478 
66 -41.292398 65.764071 -0.0045002891 -13.272218 -0.0045002891 -13.272218 -38.332464 46.18425 
66.5 -41.212311 65.289189 -0.0043108702 -13.379023 -0.0043108702 -13.379023 -38.26263 46.110896 
67 -41.132786 64.812511 -0.0041200939 -13.485915 -0.0041200939 -13.485915 -38.193186 46.038201 
67.5 -41.053661 64.334125 -0.0039285977 -13.592882 -0.0039285977 -13.592882 -38.124097 45.965952 
68 -40.974777 63.854138 -0.0037370372 -13.699917 -0.0037370372 -13.699917 -38.055328 45.893942 
68.5 -40.895977 63.372679 -0.0035460835 -13.807009 -0.0035460835 -13.807009 -37.986843 45.821969 
69 -40.81711 62.889896 -0.0033564211 -13.914149 -0.0033564211 -13.914149 -37.918608 45.749835 
69.5 -40.738031 62.405956 -0.0031687457 -14.021327 -0.0031687457 -14.021327 -37.85059 45.677353 
70 -40.658598 61.921044 -0.0029837619 -14.128534 -0.0029837619 -14.128534 -37.782756 45.604338 
70.5 -40.578675 61.435362 -0.0028021805 -14.235761 -0.0028021805 -14.235761 -37.715075 45.530616 
71 -40.498132 60.949125 -0.0026247166 -14.342999 -0.0026247166 -14.342999 -37.647516 45.456019 
71.5 -40.416847 60.462568 -0.0024520866 -14.450238 -0.0024520866 -14.450238 -37.58005 45.38039 
72 -40.334704 59.975933 -0.0022850059 -14.557469 -0.0022850059 -14.557469 -37.512647 45.303577 
72.5 -40.251594 59.489478 -0.0021241867 -14.664685 -0.0021241867 -14.664685 -37.445282 45.22544 
73 -40.167417 59.003469 -0.0019703348 -14.771877 -0.0019703348 -14.771877 -37.377927 45.145849 
73.5 -40.08208 58.518179 -0.0018241478 -14.879036 -0.0018241478 -14.879036 -37.310559 45.064682 
74 -39.995498 58.033887 -0.0016863121 -14.986155 -0.0016863121 -14.986155 -37.243154 44.981828 
74.5 -39.907597 57.550878 -0.0015575006 -15.093226 -0.0015575006 -15.093226 -37.175689 44.897187 
75 -39.818309 57.069437 -0.0014383701 -15.200242 -0.0014383701 -15.200242 -37.108144 44.810669 
75.5 -39.727577 56.58985 -0.0013295592 -15.307197 -0.0013295592 -15.307197 -37.040501 44.722196 
76 -39.635352 56.112398 -0.0012316853 -15.414085 -0.0012316853 -15.414085 -36.972741 44.6317 
76.5 -39.541596 55.637362 -0.0011453428 -15.520898 -0.0011453428 -15.520898 -36.904848 44.539124 
77 -39.446278 55.165013 -0.0010711007 -15.627632 -0.0010711007 -15.627632 -36.836807 44.444423 
77.5 -39.349378 54.695615 -0.0010095002 -15.734282 -0.0010095002 -15.734282 -36.768606 44.347564 
78 -39.250884 54.229422 -0.00096105273 -15.840843 -0.00096105273 -15.840843 -36.700233 44.248521 
78.5 -39.150794 53.766675 -0.00092623789 -15.947311 -0.00092623789 -15.947311 -36.631678 44.147285 
79 -39.049113 53.307602 -0.00090550145 -16.053682 -0.00090550145 -16.053682 -36.562932 44.043853 
79.5 -38.945856 52.852416 -0.00089925353 -16.159953 -0.00089925353 -16.159953 -36.493989 43.938235 
80 -38.841047 52.401312 -0.00090786683 -16.266121 -0.00090786683 -16.266121 -36.424843 43.830451 
80.5 -38.734716 51.954469 -0.00093167503 -16.372185 -0.00093167503 -16.372185 -36.355491 43.720531 
81 -38.626901 51.512047 -0.00097097128 -16.478143 -0.00097097128 -16.478143 -36.28593 43.608516 
81.5 -38.517648 51.074184 -0.0010260068 -16.583993 -0.0010260068 -16.583993 -36.216159 43.494455 
82 -38.40701 50.641002 -0.0010969896 -16.689735 -0.0010969896 -16.689735 -36.14618 43.378408 
82.5 -38.295044 50.212598 -0.0011840834 -16.795369 -0.0011840834 -16.795369 -36.075995 43.260443 
83 -38.181497 49.785686 -0.0012810403 -16.900895 -0.0012810403 -16.900895 -36.005641 43.140998 
83.5 -38.066129 49.357203 -0.0013815823 -17.006316 -0.0013815823 -17.006316 -35.935157 43.020508 
84 -37.94903 48.927567 -0.0014857909 -17.111632 -0.0014857909 -17.111632 -35.864548 42.89904 
84.5 -37.830295 48.497184 -0.0015937414 -17.216844 -0.0015937414 -17.216844 -35.793821 42.776667 
85 -37.710027 48.066454 -0.0017055029 -17.321955 -0.0017055029 -17.321955 -35.722982 42.653468 
85.5 -37.588334 47.63576 -0.0018211371 -17.426966 -0.0018211371 -17.426966 -35.652041 42.529524 
86 -37.46533 47.205473 -0.0019406982 -17.531882 -0.0019406982 -17.531882 -35.581007 42.404923 
86.5 -37.341131 46.775944 -0.0020642317 -17.636704 -0.0020642317 -17.636704 -35.509889 42.279753 
87 -37.21586 46.347509 -0.0021917746 -17.741438 -0.0021917746 -17.741438 -35.438699 42.154107 
87.5 -37.089642 45.92048 -0.0023233542 -17.846088 -0.0023233542 -17.846088 -35.367449 42.02808 
88 -36.962601 45.495152 -0.0024589879 -17.950657 -0.0024589879 -17.950657 -35.296152 41.90177 
88.5 -36.834867 45.071794 -0.0025986828 -18.055153 -0.0025986828 -18.055153 -35.22482 41.775275 
89 -36.706568 44.650656 -0.0027424351 -18.159579 -0.0027424351 -18.159579 -35.153469 41.648696 
89.5 -36.577834 44.231963 -0.0028902301 -18.263943 -0.0028902301 -18.263943 -35.082112 41.522134 
90 -36.448792 43.815919 -0.0030420414 -18.368251 -0.0030420414 -18.368251 -35.010764 41.395692 
90.5 -36.319572 43.402703 -0.003197831 -18.472509 -0.003197831 -18.472509 -34.939441 41.269471 
91 -36.190298 42.992474 -0.003357549 -18.576724 -0.003357549 -18.576724 -34.868159 41.143573 
91.5 -36.061096 42.585367 -0.0035211334 -18.680904 -0.0035211334 -18.680904 -34.796934 41.0181 
92 -35.932088 42.181496 -0.0036885097 -18.785057 -0.0036885097 -18.785057 -34.725782 40.893152 
92.5 -35.803392 41.780954 -0.0038595914 -18.88919 -0.0038595914 -18.88919 -34.65472 40.768828 
93 -35.675125 41.383814 -0.0040342796 -18.993311 -0.0040342796 -18.993311 -34.583764 40.645226 
93.5 -35.5474 40.99013 -0.0042124629 -19.097429 -0.0042124629 -19.097429 -34.512931 40.522442 
94 -35.420325 40.599937 -0.004394018 -19.201553 -0.004394018 -19.201553 -34.442239 40.400568 
94.5 -35.294004 40.213254 -0.0045788092 -19.30569 -0.0045788092 -19.30569 -34.371703 40.279696 
95 -35.16854 39.830082 -0.0047666892 -19.409849 -0.0047666892 -19.409849 -34.301339 40.159914 
95.5 -35.044026 39.450409 -0.0049574989 -19.51404 -0.0049574989 -19.51404 -34.231165 40.041308 
96 -34.920556 39.074206 -0.0051510678 -19.618272 -0.0051510678 -19.618272 -34.161196 39.923959 
96.5 -34.798216 38.701434 -0.0053472143 -19.722552 -0.0053472143 -19.722552 -34.091448 39.807948 
97 -34.677088 38.33204 -0.0055457465 -19.826891 -0.0055457465 -19.826891 -34.021936 39.693348 
97.5 -34.557248 37.96596 -0.0057464619 -19.931297 -0.0057464619 -19.931297 -33.952676 39.580231 
98 -34.438769 37.603122 -0.0059491485 -20.035778 -0.0059491485 -20.035778 -33.88368 39.468666 
98.5 -34.321719 37.243442 -0.0061535851 -20.140344 -0.0061535851 -20.140344 -33.814965 39.358716 
99 -34.206158 36.88683 -0.0063595417 -20.245003 -0.0063595417 -20.245003 -33.746542 39.250441 
99.5 -34.092146 36.533189 -0.0065667805 -20.349764 -0.0065667805 -20.349764 -33.678424 39.143895 
100 -33.979732 36.182415 -0.0067750563 -20.454635 -0.0067750563 -20.454635 -33.610625 39.03913 
100.5 -33.868966 35.834399 -0.0069841171 -20.559624 -0.0069841171 -20.559624 -33.543154 38.936193 
101 -33.759889 35.489028 -0.0071937051 -20.664739 -0.0071937051 -20.664739 -33.476023 38.835126 
101.5 -33.652539 35.146183 -0.0074035571 -20.769988 -0.0074035571 -20.769988 -33.409243 38.735967 
102 -33.546949 34.805743 -0.0076134058 -20.875377 -0.0076134058 -20.875377 -33.342821 38.638749 
