! AWR Design Environment (9307) Mon Sep  2 17:34:05 2019
! Document = 'Source EM Export'
! nPorts: 1, nXvals: 220

# GHz S DB R 50
!Freq DBS11 AngS11 
0.5 -0.0029412497 179.76619 
1 -0.0039706461 179.53522 
1.5 -0.0052546765 179.3081 
2 -0.0064997035 179.08425 
2.5 -0.0075725594 178.86252 
3 -0.0084499947 178.64198 
3.5 -0.0091559295 178.42201 
4 -0.0097258909 178.20224 
4.5 -0.01019284 177.9825 
5 -0.010583348 177.76269 
5.5 -0.010917672 177.54277 
6 -0.011210913 177.32272 
6.5 -0.01147426 177.10254 
7 -0.011716018 176.88223 
7.5 -0.011942383 176.66181 
8 -0.012158015 176.44128 
8.5 -0.012366445 176.22065 
9 -0.012570373 175.99994 
9.5 -0.012771872 175.77913 
10 -0.01297255 175.55825 
10.5 -0.013173656 175.33729 
11 -0.013376166 175.11627 
11.5 -0.013580841 174.89518 
12 -0.013788274 174.67403 
12.5 -0.013998927 174.45282 
13 -0.014213155 174.23155 
13.5 -0.014431226 174.01022 
14 -0.014653339 173.78884 
14.5 -0.014879636 173.5674 
15 -0.015110208 173.34592 
15.5 -0.015345109 173.12437 
16 -0.015584359 172.90278 
16.5 -0.015827946 172.68114 
17 -0.016075837 172.45944 
17.5 -0.016327974 172.23769 
18 -0.016584282 172.01588 
18.5 -0.016844669 171.79402 
19 -0.017109029 171.57211 
19.5 -0.01737724 171.35014 
20 -0.01764917 171.12812 
20.5 -0.017924677 170.90604 
21 -0.018203607 170.6839 
21.5 -0.018485799 170.46171 
22 -0.018771081 170.23945 
22.5 -0.019059276 170.01713 
23 -0.019350197 169.79475 
23.5 -0.019643652 169.57231 
24 -0.019939442 169.3498 
24.5 -0.020237362 169.12722 
25 -0.020537201 168.90458 
25.5 -0.020838742 168.68187 
26 -0.021141764 168.45908 
26.5 -0.021446041 168.23623 
27 -0.021751341 168.0133 
27.5 -0.022057429 167.79029 
28 -0.022364065 167.5672 
28.5 -0.022671006 167.34403 
29 -0.022978003 167.12079 
29.5 -0.023284806 166.89745 
30 -0.023591159 166.67404 
30.5 -0.023896804 166.45053 
31 -0.024201481 166.22693 
31.5 -0.024504926 166.00324 
32 -0.024806872 165.77946 
32.5 -0.025107049 165.55558 
33 -0.025405187 165.3316 
33.5 -0.025701013 165.10751 
34 -0.025994249 164.88333 
34.5 -0.02628462 164.65903 
35 -0.026571848 164.43463 
35.5 -0.026855651 164.21012 
36 -0.02713575 163.98549 
36.5 -0.027411863 163.76074 
37 -0.027683708 163.53588 
37.5 -0.027951002 163.31089 
38 -0.028213463 163.08577 
38.5 -0.028470808 162.86053 
39 -0.028722756 162.63515 
39.5 -0.028969026 162.40964 
40 -0.029209337 162.18399 
40.5 -0.029443412 161.9582 
41 -0.029670972 161.73226 
41.5 -0.029891743 161.50618 
42 -0.030105452 161.27994 
42.5 -0.030311829 161.05355 
43 -0.030510607 160.827 
43.5 -0.030701521 160.60029 
44 -0.030884312 160.37341 
44.5 -0.031058723 160.14636 
45 -0.031224502 159.91914 
45.5 -0.031381403 159.69174 
46 -0.031529184 159.46416 
46.5 -0.031667609 159.23639 
47 -0.031796447 159.00843 
47.5 -0.031915475 158.78028 
48 -0.032024478 158.55193 
48.5 -0.032123244 158.32338 
49 -0.032211575 158.09463 
49.5 -0.032289276 157.86566 
50 -0.032356163 157.63647 
50.5 -0.032412063 157.40707 
51 -0.03245681 157.17744 
51.5 -0.032490249 156.94758 
52 -0.032512238 156.71748 
52.5 -0.032522643 156.48715 
53 -0.032521346 156.25657 
53.5 -0.032508238 156.02574 
54 -0.032483225 155.79466 
54.5 -0.032446225 155.56332 
55 -0.032397173 155.33171 
55.5 -0.032336015 155.09984 
56 -0.032262716 154.86768 
56.5 -0.032177253 154.63525 
57 -0.032079624 154.40254 
57.5 -0.031969841 154.16953 
58 -0.031847933 153.93622 
58.5 -0.031713949 153.70261 
59 -0.031567957 153.4687 
59.5 -0.031410043 153.23447 
60 -0.031240314 152.99993 
60.5 -0.031058896 152.76505 
61 -0.030865936 152.52985 
61.5 -0.030661606 152.29432 
62 -0.030446094 152.05844 
62.5 -0.030219617 151.82222 
63 -0.02998241 151.58564 
63.5 -0.029734735 151.3487 
64 -0.029476874 151.1114 
64.5 -0.029209139 150.87373 
65 -0.028931861 150.63569 
65.5 -0.0286454 150.39727 
66 -0.028350142 150.15845 
66.5 -0.028046495 149.91925 
67 -0.027734897 149.67965 
67.5 -0.027415811 149.43965 
68 -0.027089727 149.19923 
68.5 -0.026757162 148.95841 
69 -0.02641866 148.71716 
69.5 -0.026074792 148.47549 
70 -0.025726157 148.2334 
70.5 -0.025373382 147.99086 
71 -0.025017119 147.74789 
71.5 -0.024658048 147.50448 
72 -0.024296878 147.26061 
72.5 -0.023934344 147.0163 
73 -0.023571206 146.77152 
73.5 -0.023208254 146.52629 
74 -0.0228463 146.28058 
74.5 -0.022486184 146.03441 
75 -0.022128773 145.78777 
75.5 -0.021774954 145.54064 
76 -0.021425643 145.29304 
76.5 -0.021081777 145.04495 
77 -0.020744316 144.79638 
77.5 -0.020414241 144.54731 
78 -0.020092556 144.29776 
78.5 -0.019780284 144.04771 
79 -0.019478468 143.79716 
79.5 -0.019188168 143.54611 
80 -0.018910462 143.29456 
80.5 -0.018646443 143.04252 
81 -0.018397218 142.78996 
81.5 -0.01816391 142.53691 
82 -0.01794765 142.28335 
82.5 -0.017749583 142.02929 
83 -0.017570859 141.77472 
83.5 -0.017412639 141.51965 
84 -0.017276087 141.26407 
84.5 -0.017162373 141.008 
85 -0.017072668 140.75142 
85.5 -0.017008145 140.49434 
86 -0.016969973 140.23676 
86.5 -0.016959321 139.97869 
87 -0.016977351 139.72013 
87.5 -0.01702522 139.46107 
88 -0.017104076 139.20153 
88.5 -0.017215054 138.9415 
89 -0.017359279 138.681 
89.5 -0.017537861 138.42001 
90 -0.017751894 138.15856 
90.5 -0.018002451 137.89664 
91 -0.018290588 137.63426 
91.5 -0.018617336 137.37143 
92 -0.018983705 137.10814 
92.5 -0.019390675 136.84441 
93 -0.019839201 136.58024 
93.5 -0.020330208 136.31564 
94 -0.020864589 136.05061 
94.5 -0.021443203 135.78517 
95 -0.022066875 135.51931 
95.5 -0.022736394 135.25306 
96 -0.02345251 134.98641 
96.5 -0.024215933 134.71937 
97 -0.025027335 134.45195 
97.5 -0.025887342 134.18417 
98 -0.026796538 133.91602 
98.5 -0.027755463 133.64753 
99 -0.028764611 133.37869 
99.5 -0.029824429 133.10951 
100 -0.030935314 132.84002 
100.5 -0.032097619 132.57021 
101 -0.033311644 132.30009 
101.5 -0.03457764 132.02968 
102 -0.03589581 131.75899 
102.5 -0.037266303 131.48802 
103 -0.038689219 131.21679 
103.5 -0.040164605 130.9453 
104 -0.041692458 130.67357 
104.5 -0.043272724 130.40161 
105 -0.044905296 130.12943 
105.5 -0.046590016 129.85703 
106 -0.048326678 129.58443 
106.5 -0.050115021 129.31164 
107 -0.051954738 129.03866 
107.5 -0.053845471 128.76552 
108 -0.055786812 128.49222 
108.5 -0.057778307 128.21876 
109 -0.059819454 127.94517 
109.5 -0.061909705 127.67144 
110 -0.064048465 127.3976 
