!File name = EG0520U_1010_6x60_2SDBCB2EV_1915934D06_RC2943_4Vd_45mA.s2p
!Base file name = EG0520U_1010_6x60_2SDBCB2EV_1915934D06_RC2943
!Date = 8/23/2019
!Time = 1:06 PM
!Test duration(min) = 0.15
!Test = S-Parameters
!MPTS version = 8.91.5
!State File = C:\Data\PNA\20190821205423\S-Parameters_2019-08-23.sta
!Cal File = 
!ComputerName = CMPE-LAB-6
!Comments = 
!Attenuation = 0
!Z0 = 50
!Input Power(dBm) = -13.00
!Device ID = EG0520U_1010_6x60_2SDBCB2EV
!Row = 29
!Column = 43
!Technology = QPHT09
!Lot/Wafer = 1915934D06
!Gate Size = 360
!Mask = EG0520
!Cal Standards = GaAs BCB
!Cal Kit = EG2306
!Job Number = 20190821205423
!Device Type = FET
!set_Vg(v) = -1.500
!set_Vd(v) = 4.000
!set_Vd(mA) = 45.000
!file_name = EG0520U_1010_6x60_2SDBCB2EV_1915934D06_RC2943_4Vd_45mA.s2p
!Vd(V) = 4.000
!Vd(mA) = 45.025
!Vg(V) = -0.495
!Vg(mA) = -0.003
# GHz   S   DB   R   50
!%	Freq(GHz)	     s11(dB)	    s11(deg)	     s21(dB)	    s21(deg)	     s12(dB)	    s12(deg)	     s22(dB)	    s22(deg)
	0.500000000	      -0.070	     -14.993	      22.255	     170.791	     -39.264	      80.745	      -8.418	     -14.777
	1.000000000	      -0.157	     -29.599	      21.801	     162.221	     -33.497	      73.197	      -8.489	     -28.139
	1.500000000	      -0.199	     -43.345	      21.425	     154.611	     -30.363	      65.812	      -8.500	     -41.009
	2.000000000	      -0.340	     -55.728	      21.157	     147.230	     -28.366	      58.999	      -8.573	     -53.562
	2.500000000	      -0.440	     -67.215	      20.692	     140.712	     -27.000	      53.150	      -8.737	     -63.749
	3.000000000	      -0.829	     -74.902	      19.995	     135.495	     -26.204	      48.747	      -9.150	     -67.852
	3.500000000	      -0.945	     -83.736	      19.420	     130.379	     -25.462	      44.325	      -9.260	     -75.644
	4.000000000	      -1.040	     -91.518	      18.845	     125.846	     -24.904	      40.425	      -9.353	     -82.514
	4.500000000	      -1.141	     -98.398	      18.275	     121.691	     -24.479	      36.928	      -9.431	     -88.791
	5.000000000	      -1.212	    -104.517	      17.711	     118.017	     -24.145	      33.892	      -9.506	     -94.103
	5.500000000	      -1.279	    -109.991	      17.171	     114.628	     -23.886	      31.235	      -9.575	     -98.801
	6.000000000	      -1.336	    -114.879	      16.637	     111.577	     -23.679	      28.848	      -9.604	    -102.895
	6.500000000	      -1.381	    -119.210	      16.129	     108.803	     -23.511	      26.672	      -9.626	    -106.526
	7.000000000	      -1.421	    -123.122	      15.638	     106.209	     -23.377	      24.736	      -9.636	    -109.742
	7.500000000	      -1.450	    -126.663	      15.161	     103.822	     -23.272	      23.008	      -9.636	    -112.587
	8.000000000	      -1.460	    -129.627	      14.725	     101.729	     -23.156	      21.620	      -9.652	    -114.411
	8.500000000	      -1.487	    -132.603	      14.285	      99.648	     -23.081	      20.109	      -9.643	    -116.721
	9.000000000	      -1.514	    -135.274	      13.858	      97.700	     -23.016	      18.698	      -9.620	    -118.750
	9.500000000	      -1.531	    -137.761	      13.457	      95.807	     -22.969	      17.375	      -9.593	    -120.590
	10.000000000	      -1.544	    -140.066	      13.067	      94.026	     -22.943	      16.151	      -9.563	    -122.328
	10.500000000	      -1.562	    -142.219	      12.691	      92.300	     -22.925	      15.068	      -9.533	    -123.864
	11.000000000	      -1.574	    -144.188	      12.329	      90.686	     -22.910	      14.056	      -9.494	    -125.238
	11.500000000	      -1.592	    -146.049	      11.975	      89.111	     -22.914	      13.087	      -9.456	    -126.467
	12.000000000	      -1.606	    -147.769	      11.637	      87.625	     -22.917	      12.247	      -9.405	    -127.586
	12.500000000	      -1.612	    -149.363	      11.308	      86.180	     -22.916	      11.453	      -9.349	    -128.716
	13.000000000	      -1.623	    -150.862	      10.989	      84.769	     -22.929	      10.695	      -9.296	    -129.718
	13.500000000	      -1.630	    -152.279	      10.682	      83.431	     -22.937	       9.949	      -9.229	    -130.542
	14.000000000	      -1.638	    -153.641	      10.383	      82.113	     -22.963	       9.269	      -9.167	    -131.401
	14.500000000	      -1.640	    -154.886	      10.093	      80.822	     -22.984	       8.604	      -9.107	    -132.200
	15.000000000	      -1.645	    -156.005	       9.808	      79.582	     -23.012	       8.079	      -9.051	    -132.960
	15.500000000	      -1.653	    -157.113	       9.532	      78.361	     -23.041	       7.567	      -8.986	    -133.577
	16.000000000	      -1.656	    -158.206	       9.264	      77.165	     -23.048	       7.023	      -8.909	    -134.177
	16.500000000	      -1.659	    -159.259	       9.003	      75.989	     -23.086	       6.484	      -8.839	    -134.768
	17.000000000	      -1.661	    -160.249	       8.750	      74.849	     -23.126	       5.971	      -8.774	    -135.283
	17.500000000	      -1.667	    -161.140	       8.499	      73.726	     -23.148	       5.594	      -8.697	    -135.891
	18.000000000	      -1.677	    -162.014	       8.258	      72.632	     -23.200	       5.081	      -8.623	    -136.463
	18.500000000	      -1.676	    -162.883	       8.023	      71.551	     -23.210	       4.610	      -8.538	    -136.934
	19.000000000	      -1.676	    -163.717	       7.790	      70.476	     -23.269	       4.124	      -8.463	    -137.413
	19.500000000	      -1.675	    -164.494	       7.564	      69.445	     -23.340	       3.782	      -8.398	    -137.873
	20.000000000	      -1.681	    -165.216	       7.345	      68.436	     -23.413	       3.653	      -8.334	    -138.238
	20.500000000	      -1.682	    -165.913	       7.134	      67.415	     -23.438	       3.612	      -8.249	    -138.611
	21.000000000	      -1.683	    -166.598	       6.923	      66.407	     -23.441	       3.287	      -8.159	    -139.052
	21.500000000	      -1.675	    -167.325	       6.715	      65.399	     -23.493	       2.945	      -8.078	    -139.422
	22.000000000	      -1.672	    -167.900	       6.512	      64.430	     -23.523	       2.557	      -7.994	    -139.797
	22.500000000	      -1.671	    -168.513	       6.311	      63.437	     -23.574	       2.156	      -7.921	    -140.225
	23.000000000	      -1.673	    -169.141	       6.111	      62.480	     -23.629	       1.729	      -7.843	    -140.724
	23.500000000	      -1.674	    -169.719	       5.917	      61.583	     -23.761	       1.553	      -7.776	    -141.183
	24.000000000	      -1.673	    -170.284	       5.734	      60.683	     -23.836	       1.814	      -7.704	    -141.461
	24.500000000	      -1.663	    -170.734	       5.556	      59.749	     -23.829	       1.869	      -7.625	    -141.664
	25.000000000	      -1.646	    -171.233	       5.376	      58.784	     -23.821	       1.562	      -7.543	    -141.947
	25.500000000	      -1.640	    -171.754	       5.197	      57.868	     -23.874	       1.383	      -7.456	    -142.329
	26.000000000	      -1.640	    -172.385	       5.016	      56.961	     -23.938	       0.939	      -7.363	    -142.782
	26.500000000	      -1.638	    -172.868	       4.841	      56.073	     -23.994	       0.701	      -7.274	    -143.127
	27.000000000	      -1.631	    -173.230	       4.672	      55.209	     -24.063	       0.407	      -7.204	    -143.500
	27.500000000	      -1.626	    -173.594	       4.510	      54.408	     -24.199	       0.828	      -7.142	    -143.622
	28.000000000	      -1.614	    -174.112	       4.357	      53.523	     -24.264	       1.104	      -7.058	    -144.062
	28.500000000	      -1.602	    -174.637	       4.199	      52.548	     -24.224	       1.114	      -6.963	    -144.433
	29.000000000	      -1.595	    -175.051	       4.033	      51.641	     -24.221	       0.886	      -6.879	    -144.848
	29.500000000	      -1.588	    -175.466	       3.872	      50.782	     -24.317	       0.524	      -6.807	    -145.236
	30.000000000	      -1.579	    -175.844	       3.716	      49.978	     -24.391	       0.441	      -6.738	    -145.515
	30.500000000	      -1.575	    -176.312	       3.563	      49.106	     -24.423	       0.071	      -6.668	    -145.887
	31.000000000	      -1.561	    -176.737	       3.409	      48.286	     -24.474	       0.144	      -6.604	    -146.221
	31.500000000	      -1.552	    -177.176	       3.267	      47.481	     -24.642	       0.464	      -6.542	    -146.536
	32.000000000	      -1.547	    -177.501	       3.120	      46.587	     -24.648	       0.712	      -6.462	    -146.825
	32.500000000	      -1.557	    -177.961	       2.972	      45.715	     -24.633	       0.532	      -6.377	    -147.086
	33.000000000	      -1.557	    -178.347	       2.825	      44.918	     -24.714	       0.507	      -6.302	    -147.415
	33.500000000	      -1.537	    -178.720	       2.675	      44.114	     -24.789	       0.291	      -6.233	    -147.808
	34.000000000	      -1.526	    -179.068	       2.531	      43.284	     -24.840	       0.612	      -6.151	    -148.271
	34.500000000	      -1.523	    -179.475	       2.379	      42.429	     -24.846	       0.220	      -6.070	    -148.566
	35.000000000	      -1.521	    -179.851	       2.237	      41.658	     -24.994	       0.492	      -6.007	    -149.009
	35.500000000	      -1.519	     179.757	       2.108	      40.877	     -25.034	       1.093	      -5.945	    -149.249
	36.000000000	      -1.510	     179.401	       1.971	      40.018	     -25.010	       1.208	      -5.865	    -149.589
	36.500000000	      -1.504	     179.127	       1.833	      39.200	     -25.005	       1.067	      -5.788	    -149.954
	37.000000000	      -1.495	     178.843	       1.694	      38.442	     -25.121	       0.808	      -5.727	    -150.311
	37.500000000	      -1.502	     178.458	       1.553	      37.665	     -25.142	       0.592	      -5.671	    -150.698
	38.000000000	      -1.500	     178.157	       1.419	      36.931	     -25.258	       0.844	      -5.599	    -150.960
	38.500000000	      -1.480	     177.769	       1.278	      36.181	     -25.299	       0.512	      -5.533	    -151.392
	39.000000000	      -1.479	     177.448	       1.144	      35.462	     -25.432	       0.528	      -5.472	    -151.759
	39.500000000	      -1.493	     177.202	       1.011	      34.803	     -25.474	       0.989	      -5.398	    -152.149
	40.000000000	      -1.496	     176.874	       0.892	      34.085	     -25.610	       1.354	      -5.325	    -152.412
	40.500000000	      -1.497	     176.515	       0.769	      33.353	     -25.550	       1.697	      -5.248	    -152.808
	41.000000000	      -1.478	     176.237	       0.648	      32.580	     -25.584	       2.062	      -5.188	    -153.194
	41.500000000	      -1.469	     176.074	       0.528	      31.865	     -25.621	       2.016	      -5.135	    -153.492
	42.000000000	      -1.470	     175.813	       0.401	      31.136	     -25.687	       1.213	      -5.074	    -153.758
	42.500000000	      -1.482	     175.428	       0.275	      30.436	     -25.745	       1.700	      -5.009	    -153.942
	43.000000000	      -1.492	     175.217	       0.166	      29.832	     -25.874	       2.398	      -4.944	    -154.290
	43.500000000	      -1.462	     175.062	       0.052	      28.994	     -25.866	       2.435	      -4.886	    -154.730
	44.000000000	      -1.469	     174.796	      -0.064	      28.283	     -25.899	       2.858	      -4.814	    -155.107
	44.500000000	      -1.476	     174.408	      -0.196	      27.541	     -25.927	       3.582	      -4.746	    -155.514
	45.000000000	      -1.486	     174.115	      -0.312	      26.824	     -25.909	       3.005	      -4.684	    -155.917
	45.500000000	      -1.433	     173.797	      -0.597	      26.239	     -26.141	       2.669	      -4.547	    -156.900
	46.000000000	      -1.417	     173.533	      -0.720	      25.585	     -26.317	       2.569	      -4.500	    -157.295
	46.500000000	      -1.405	     173.202	      -0.830	      24.989	     -26.394	       2.690	      -4.421	    -157.487
	47.000000000	      -1.404	     172.876	      -0.933	      24.302	     -26.436	       4.193	      -4.354	    -157.788
	47.500000000	      -1.398	     172.604	      -1.051	      23.613	     -26.453	       4.448	      -4.314	    -158.079
	48.000000000	      -1.382	     172.343	      -1.175	      22.857	     -26.325	       5.577	      -4.260	    -158.391
	48.500000000	      -1.383	     172.048	      -1.289	      22.209	     -26.379	       4.447	      -4.204	    -158.722
	49.000000000	      -1.387	     171.857	      -1.409	      21.525	     -26.536	       4.555	      -4.129	    -159.022
	49.500000000	      -1.403	     171.610	      -1.518	      21.001	     -26.551	       3.772	      -4.079	    -159.432
	50.000000000	      -1.389	     171.365	      -1.646	      20.417	     -26.605	       5.875	      -4.049	    -159.811
	50.500000000	      -1.376	     171.111	      -1.738	      19.714	     -26.704	       6.273	      -4.007	    -160.239
	51.000000000	      -1.367	     170.842	      -1.863	      19.181	     -26.687	       6.766	      -3.998	    -160.712
	51.500000000	      -1.354	     170.651	      -1.958	      18.521	     -26.524	       6.970	      -3.933	    -160.966
	52.000000000	      -1.333	     170.487	      -2.072	      17.808	     -26.691	       6.628	      -3.889	    -161.231
	52.500000000	      -1.339	     170.114	      -2.178	      17.232	     -26.707	       6.302	      -3.844	    -161.448
	53.000000000	      -1.333	     169.799	      -2.292	      16.610	     -26.618	       7.142	      -3.798	    -161.582
	53.500000000	      -1.331	     169.624	      -2.391	      16.098	     -26.734	       6.642	      -3.737	    -161.955
	54.000000000	      -1.318	     169.409	      -2.487	      15.495	     -26.706	       7.545	      -3.670	    -162.322
	54.500000000	      -1.324	     169.015	      -2.587	      14.901	     -26.910	       6.710	      -3.613	    -162.482
	55.000000000	      -1.327	     168.712	      -2.679	      14.235	     -26.747	       7.993	      -3.569	    -162.691
	55.500000000	      -1.322	     168.389	      -2.773	      13.551	     -26.857	       7.971	      -3.516	    -163.122
	56.000000000	      -1.311	     168.108	      -2.862	      13.002	     -26.686	       6.823	      -3.488	    -163.602
	56.500000000	      -1.305	     167.958	      -2.973	      12.234	     -26.480	       6.011	      -3.445	    -164.147
	57.000000000	      -1.307	     167.714	      -3.068	      11.613	     -26.754	       6.762	      -3.461	    -164.283
	57.500000000	      -1.313	     167.618	      -3.191	      11.071	     -27.020	       6.409	      -3.400	    -164.724
	58.000000000	      -1.288	     167.466	      -3.278	      10.479	     -27.338	       7.038	      -3.353	    -165.037
	58.500000000	      -1.259	     167.232	      -3.366	       9.949	     -26.864	       7.574	      -3.318	    -165.261
	59.000000000	      -1.263	     166.891	      -3.449	       9.168	     -27.134	       6.727	      -3.274	    -165.520
	59.500000000	      -1.265	     166.807	      -3.540	       8.467	     -27.136	       7.168	      -3.225	    -165.815
	60.000000000	      -1.254	     166.551	      -3.646	       7.804	     -27.044	       8.725	      -3.243	    -166.194
	60.500000000	      -1.230	     166.430	      -3.762	       7.189	     -27.016	       8.380	      -3.214	    -166.264
	61.000000000	      -1.196	     166.018	      -3.853	       6.715	     -27.304	       9.122	      -3.182	    -166.464
	61.500000000	      -1.195	     165.802	      -3.955	       6.215	     -27.292	       9.633	      -3.147	    -166.761
	62.000000000	      -1.170	     165.515	      -4.032	       5.622	     -27.423	      10.001	      -3.137	    -167.015
	62.500000000	      -1.193	     165.209	      -4.121	       4.983	     -27.518	      11.804	      -3.109	    -166.987
	63.000000000	      -1.173	     164.746	      -4.197	       4.285	     -27.212	      12.029	      -3.032	    -167.228
	63.500000000	      -1.159	     164.684	      -4.283	       3.469	     -27.260	      11.705	      -2.977	    -167.603
	64.000000000	      -1.158	     164.798	      -4.360	       2.634	     -27.110	      10.102	      -2.926	    -167.541
	64.500000000	      -1.138	     164.615	      -4.436	       1.852	     -26.990	      10.282	      -2.889	    -167.496
	65.000000000	      -1.131	     164.153	      -4.573	       1.164	     -27.028	      10.136	      -2.842	    -167.959
	65.500000000	      -1.147	     163.718	      -4.700	       0.450	     -27.162	      10.626	      -2.805	    -168.557
	66.000000000	      -1.144	     163.454	      -4.806	      -0.343	     -27.040	      10.816	      -2.765	    -169.065
	66.500000000	      -1.168	     163.257	      -4.925	      -1.274	     -26.621	      11.722	      -2.712	    -168.965
	67.000000000	      -1.194	     162.932	      -5.042	      -1.833	     -27.172	      12.699	      -2.713	    -168.951
	67.500000000	      -1.195	     162.254	      -5.182	      -2.533	     -26.956	      10.759	      -2.708	    -169.593
	68.000000000	      -1.230	     162.091	      -5.293	      -3.138	     -26.942	      10.400	      -2.739	    -169.933
	68.500000000	      -1.262	     161.861	      -5.383	      -3.768	     -26.965	      10.408	      -2.698	    -170.073
	69.000000000	      -1.287	     161.695	      -5.534	      -4.242	     -26.971	       9.340	      -2.636	    -170.333
	69.500000000	      -1.282	     161.485	      -5.656	      -4.624	     -27.122	       9.515	      -2.612	    -170.502
	70.000000000	      -1.266	     161.328	      -5.754	      -5.105	     -27.136	      10.367	      -2.584	    -170.581
	70.500000000	      -1.249	     161.165	      -5.862	      -5.545	     -27.052	      10.613	      -2.547	    -170.734
	71.000000000	      -1.244	     160.948	      -5.954	      -6.016	     -27.022	      10.433	      -2.509	    -170.942
	71.500000000	      -1.208	     160.878	      -6.074	      -6.325	     -26.995	       9.937	      -2.433	    -171.215
	72.000000000	      -1.202	     160.546	      -6.165	      -6.954	     -26.995	       9.382	      -2.450	    -171.431
	72.500000000	      -1.219	     160.147	      -6.270	      -7.579	     -27.050	       8.903	      -2.424	    -171.742
	73.000000000	      -1.246	     159.951	      -6.368	      -8.182	     -27.154	       8.326	      -2.381	    -171.913
	73.500000000	      -1.260	     159.854	      -6.484	      -8.746	     -27.315	       8.487	      -2.306	    -172.223
	74.000000000	      -1.265	     159.616	      -6.587	      -9.213	     -27.364	       9.003	      -2.304	    -172.769
	74.500000000	      -1.292	     159.388	      -6.679	      -9.665	     -27.351	       9.210	      -2.318	    -172.994
	75.000000000	      -1.321	     159.325	      -6.777	     -10.220	     -27.402	       9.129	      -2.303	    -173.237
	75.500000000	      -1.345	     159.348	      -6.904	     -10.846	     -27.564	       9.209	      -2.291	    -173.360
	76.000000000	      -1.350	     159.397	      -7.032	     -11.396	     -27.833	       9.938	      -2.292	    -173.506
	76.500000000	      -1.338	     159.424	      -7.187	     -11.764	     -28.086	      12.610	      -2.290	    -173.498
	77.000000000	      -1.318	     159.478	      -7.323	     -11.835	     -27.975	      16.650	      -2.245	    -173.384
	77.500000000	      -1.263	     159.475	      -7.406	     -11.623	     -27.428	      19.652	      -2.174	    -173.460
	78.000000000	      -1.173	     159.371	      -7.435	     -11.560	     -26.795	      19.983	      -2.120	    -173.535
	78.500000000	      -1.109	     158.863	      -7.452	     -11.969	     -26.365	      18.712	      -2.078	    -173.868
	79.000000000	      -1.107	     158.296	      -7.495	     -12.560	     -26.057	      16.942	      -2.028	    -174.212
	79.500000000	      -1.111	     157.764	      -7.527	     -13.244	     -25.802	      15.259	      -1.988	    -174.470
