!File name = EG0520U_1010_6x60_2SDBCB2EV_1915934D06_RC4034_3Vd_54mA.s2p
!Base file name = EG0520U_1010_6x60_2SDBCB2EV_1915934D06_RC4034
!Date = 8/23/2019
!Time = 12:57 PM
!Test duration(min) = 0.15
!Test = S-Parameters
!MPTS version = 8.91.5
!State File = C:\Data\PNA\20190821205423\S-Parameters_2019-08-23.sta
!Cal File = 
!ComputerName = CMPE-LAB-6
!Comments = 
!Attenuation = 0
!Z0 = 50
!Input Power(dBm) = -13.00
!Device ID = EG0520U_1010_6x60_2SDBCB2EV
!Row = 40
!Column = 34
!Technology = QPHT09
!Lot/Wafer = 1915934D06
!Gate Size = 360
!Mask = EG0520
!Cal Standards = GaAs BCB
!Cal Kit = EG2306
!Job Number = 20190821205423
!Device Type = FET
!set_Vg(v) = -1.500
!set_Vd(v) = 3.000
!set_Vd(mA) = 54.000
!file_name = EG0520U_1010_6x60_2SDBCB2EV_1915934D06_RC4034_3Vd_54mA.s2p
!Vd(V) = 3.000
!Vd(mA) = 54.059
!Vg(V) = -0.440
!Vg(mA) = -0.001
# GHz   S   DB   R   50
!%	Freq(GHz)	     s11(dB)	    s11(deg)	     s21(dB)	    s21(deg)	     s12(dB)	    s12(deg)	     s22(dB)	    s22(deg)
	0.500000000	      -0.036	     -15.122	      22.553	     170.799	     -39.384	      81.374	     -10.051	     -17.767
	1.000000000	      -0.121	     -29.885	      22.087	     162.143	     -33.618	      73.403	      -9.970	     -33.747
	1.500000000	      -0.163	     -43.733	      21.711	     154.606	     -30.485	      65.883	      -9.739	     -48.686
	2.000000000	      -0.309	     -56.244	      21.436	     147.196	     -28.498	      59.014	      -9.531	     -62.893
	2.500000000	      -0.406	     -67.787	      20.979	     140.714	     -27.139	      53.143	      -9.463	     -74.087
	3.000000000	      -0.801	     -75.529	      20.280	     135.625	     -26.341	      48.789	      -9.796	     -78.813
	3.500000000	      -0.919	     -84.385	      19.700	     130.532	     -25.604	      44.395	      -9.701	     -87.049
	4.000000000	      -1.013	     -92.162	      19.119	     126.086	     -25.048	      40.517	      -9.610	     -94.144
	4.500000000	      -1.113	     -99.057	      18.544	     121.974	     -24.634	      37.063	      -9.526	    -100.499
	5.000000000	      -1.183	    -105.139	      17.978	     118.393	     -24.302	      34.069	      -9.467	    -105.788
	5.500000000	      -1.249	    -110.618	      17.433	     115.062	     -24.050	      31.443	      -9.422	    -110.421
	6.000000000	      -1.305	    -115.474	      16.900	     112.082	     -23.837	      29.091	      -9.356	    -114.352
	6.500000000	      -1.350	    -119.794	      16.387	     109.381	     -23.672	      26.974	      -9.300	    -117.819
	7.000000000	      -1.389	    -123.694	      15.895	     106.852	     -23.540	      25.108	      -9.244	    -120.868
	7.500000000	      -1.417	    -127.192	      15.418	     104.541	     -23.435	      23.422	      -9.190	    -123.504
	8.000000000	      -1.425	    -130.151	      14.982	     102.509	     -23.314	      22.017	      -9.178	    -125.282
	8.500000000	      -1.453	    -133.104	      14.541	     100.502	     -23.238	      20.570	      -9.135	    -127.423
	9.000000000	      -1.479	    -135.761	      14.113	      98.621	     -23.179	      19.185	      -9.086	    -129.293
	9.500000000	      -1.495	    -138.232	      13.712	      96.796	     -23.129	      17.936	      -9.036	    -130.967
	10.000000000	      -1.509	    -140.518	      13.322	      95.086	     -23.105	      16.731	      -8.990	    -132.568
	10.500000000	      -1.527	    -142.647	      12.946	      93.432	     -23.087	      15.733	      -8.948	    -133.963
	11.000000000	      -1.538	    -144.588	      12.584	      91.890	     -23.070	      14.782	      -8.901	    -135.183
	11.500000000	      -1.555	    -146.435	      12.231	      90.386	     -23.069	      13.838	      -8.857	    -136.281
	12.000000000	      -1.567	    -148.134	      11.894	      88.967	     -23.069	      13.065	      -8.804	    -137.260
	12.500000000	      -1.574	    -149.717	      11.566	      87.588	     -23.058	      12.288	      -8.748	    -138.293
	13.000000000	      -1.581	    -151.197	      11.250	      86.247	     -23.067	      11.554	      -8.696	    -139.169
	13.500000000	      -1.588	    -152.631	      10.943	      84.958	     -23.074	      10.801	      -8.638	    -139.952
	14.000000000	      -1.598	    -153.989	      10.645	      83.705	     -23.102	      10.215	      -8.581	    -140.604
	14.500000000	      -1.603	    -155.202	      10.355	      82.487	     -23.119	       9.628	      -8.531	    -141.345
	15.000000000	      -1.606	    -156.306	      10.073	      81.314	     -23.136	       9.134	      -8.484	    -141.997
	15.500000000	      -1.610	    -157.411	       9.799	      80.149	     -23.153	       8.665	      -8.428	    -142.541
	16.000000000	      -1.615	    -158.508	       9.533	      79.013	     -23.166	       8.084	      -8.365	    -143.053
	16.500000000	      -1.618	    -159.548	       9.273	      77.901	     -23.192	       7.559	      -8.307	    -143.499
	17.000000000	      -1.619	    -160.535	       9.022	      76.816	     -23.237	       7.088	      -8.253	    -144.033
	17.500000000	      -1.624	    -161.424	       8.773	      75.748	     -23.260	       6.762	      -8.194	    -144.508
	18.000000000	      -1.633	    -162.298	       8.534	      74.714	     -23.299	       6.250	      -8.133	    -145.005
	18.500000000	      -1.633	    -163.149	       8.300	      73.697	     -23.324	       5.795	      -8.067	    -145.372
	19.000000000	      -1.631	    -163.971	       8.069	      72.684	     -23.369	       5.383	      -8.007	    -145.735
	19.500000000	      -1.629	    -164.752	       7.847	      71.706	     -23.432	       5.042	      -7.954	    -146.126
	20.000000000	      -1.636	    -165.498	       7.629	      70.745	     -23.507	       4.933	      -7.908	    -146.459
	20.500000000	      -1.641	    -166.191	       7.418	      69.784	     -23.530	       4.889	      -7.843	    -146.725
	21.000000000	      -1.640	    -166.858	       7.211	      68.838	     -23.540	       4.740	      -7.773	    -147.047
	21.500000000	      -1.630	    -167.575	       7.007	      67.886	     -23.564	       4.503	      -7.705	    -147.312
	22.000000000	      -1.622	    -168.170	       6.807	      66.960	     -23.589	       4.097	      -7.638	    -147.614
	22.500000000	      -1.619	    -168.813	       6.607	      66.006	     -23.615	       3.680	      -7.580	    -147.934
	23.000000000	      -1.623	    -169.412	       6.410	      65.103	     -23.666	       3.324	      -7.518	    -148.334
	23.500000000	      -1.621	    -170.078	       6.217	      64.223	     -23.774	       3.007	      -7.460	    -148.760
	24.000000000	      -1.630	    -170.680	       6.029	      63.384	     -23.879	       3.195	      -7.417	    -148.975
	24.500000000	      -1.623	    -171.143	       5.853	      62.519	     -23.883	       3.427	      -7.356	    -149.041
	25.000000000	      -1.612	    -171.608	       5.675	      61.604	     -23.856	       3.221	      -7.286	    -149.203
	25.500000000	      -1.608	    -172.159	       5.496	      60.748	     -23.917	       2.933	      -7.217	    -149.520
	26.000000000	      -1.613	    -172.748	       5.317	      59.915	     -23.952	       2.647	      -7.134	    -149.869
	26.500000000	      -1.610	    -173.227	       5.146	      59.064	     -23.998	       2.427	      -7.063	    -150.129
	27.000000000	      -1.604	    -173.630	       4.977	      58.245	     -24.069	       2.115	      -7.004	    -150.396
	27.500000000	      -1.608	    -174.022	       4.813	      57.508	     -24.214	       2.319	      -6.969	    -150.501
	28.000000000	      -1.609	    -174.510	       4.657	      56.715	     -24.300	       2.720	      -6.908	    -150.766
	28.500000000	      -1.585	    -174.942	       4.512	      55.814	     -24.223	       3.112	      -6.815	    -150.968
	29.000000000	      -1.578	    -175.404	       4.346	      54.926	     -24.229	       2.913	      -6.745	    -151.326
	29.500000000	      -1.577	    -175.814	       4.185	      54.133	     -24.289	       2.442	      -6.686	    -151.612
	30.000000000	      -1.578	    -176.250	       4.029	      53.397	     -24.347	       2.379	      -6.631	    -151.820
	30.500000000	      -1.576	    -176.683	       3.877	      52.597	     -24.421	       2.182	      -6.572	    -152.088
	31.000000000	      -1.568	    -177.081	       3.726	      51.841	     -24.456	       2.291	      -6.520	    -152.362
	31.500000000	      -1.555	    -177.461	       3.595	      51.112	     -24.543	       2.600	      -6.460	    -152.593
	32.000000000	      -1.551	    -177.770	       3.452	      50.271	     -24.551	       2.809	      -6.393	    -152.786
	32.500000000	      -1.556	    -178.202	       3.307	      49.417	     -24.543	       2.697	      -6.312	    -152.968
	33.000000000	      -1.551	    -178.643	       3.162	      48.661	     -24.555	       2.637	      -6.257	    -153.240
	33.500000000	      -1.542	    -179.023	       3.016	      47.924	     -24.620	       2.453	      -6.199	    -153.539
	34.000000000	      -1.532	    -179.389	       2.871	      47.146	     -24.700	       2.301	      -6.137	    -153.908
	34.500000000	      -1.537	    -179.793	       2.721	      46.375	     -24.735	       2.124	      -6.063	    -154.100
	35.000000000	      -1.543	     179.885	       2.580	      45.700	     -24.846	       2.190	      -6.009	    -154.463
	35.500000000	      -1.534	     179.570	       2.463	      44.980	     -24.876	       2.988	      -5.961	    -154.579
	36.000000000	      -1.529	     179.225	       2.331	      44.217	     -24.881	       2.971	      -5.892	    -154.813
	36.500000000	      -1.519	     178.953	       2.201	      43.417	     -24.886	       2.817	      -5.825	    -155.082
	37.000000000	      -1.513	     178.695	       2.069	      42.696	     -24.904	       2.536	      -5.765	    -155.382
	37.500000000	      -1.516	     178.347	       1.934	      41.968	     -25.029	       2.456	      -5.718	    -155.648
	38.000000000	      -1.506	     178.011	       1.802	      41.285	     -25.075	       2.387	      -5.658	    -155.877
	38.500000000	      -1.498	     177.664	       1.669	      40.579	     -25.091	       2.028	      -5.596	    -156.225
	39.000000000	      -1.498	     177.430	       1.552	      39.945	     -25.224	       2.826	      -5.540	    -156.552
	39.500000000	      -1.490	     177.277	       1.436	      39.300	     -25.253	       3.095	      -5.482	    -156.830
	40.000000000	      -1.474	     176.879	       1.327	      38.502	     -25.228	       3.555	      -5.416	    -157.096
	40.500000000	      -1.468	     176.446	       1.199	      37.767	     -25.295	       3.141	      -5.349	    -157.376
	41.000000000	      -1.454	     176.090	       1.074	      37.002	     -25.282	       3.052	      -5.300	    -157.729
	41.500000000	      -1.453	     175.898	       0.955	      36.351	     -25.434	       3.108	      -5.273	    -157.887
	42.000000000	      -1.453	     175.610	       0.834	      35.692	     -25.440	       3.112	      -5.198	    -158.052
	42.500000000	      -1.465	     175.255	       0.714	      35.038	     -25.502	       3.290	      -5.141	    -158.176
	43.000000000	      -1.458	     175.035	       0.610	      34.408	     -25.575	       4.321	      -5.084	    -158.449
	43.500000000	      -1.443	     174.796	       0.496	      33.618	     -25.542	       4.047	      -5.038	    -158.828
	44.000000000	      -1.446	     174.445	       0.380	      32.897	     -25.492	       4.605	      -4.971	    -159.169
	44.500000000	      -1.460	     174.084	       0.249	      32.209	     -25.538	       4.575	      -4.907	    -159.411
	45.000000000	      -1.467	     173.797	       0.133	      31.552	     -25.606	       3.940	      -4.846	    -159.742
	45.500000000	      -1.427	     173.476	      -0.146	      31.055	     -25.851	       4.176	      -4.707	    -160.670
	46.000000000	      -1.413	     173.266	      -0.263	      30.450	     -25.911	       3.793	      -4.664	    -160.939
	46.500000000	      -1.400	     172.894	      -0.366	      29.867	     -26.023	       4.842	      -4.594	    -161.104
	47.000000000	      -1.402	     172.574	      -0.470	      29.183	     -25.994	       6.807	      -4.527	    -161.323
	47.500000000	      -1.389	     172.301	      -0.581	      28.469	     -26.107	       6.098	      -4.493	    -161.522
	48.000000000	      -1.371	     172.017	      -0.695	      27.828	     -25.991	       5.602	      -4.451	    -161.819
	48.500000000	      -1.369	     171.686	      -0.812	      27.241	     -26.109	       4.866	      -4.390	    -161.995
	49.000000000	      -1.379	     171.473	      -0.924	      26.588	     -26.032	       4.477	      -4.345	    -162.221
	49.500000000	      -1.388	     171.246	      -1.024	      26.035	     -26.139	       5.281	      -4.263	    -162.546
	50.000000000	      -1.370	     170.961	      -1.130	      25.451	     -26.280	       5.903	      -4.224	    -162.862
	50.500000000	      -1.365	     170.745	      -1.233	      24.915	     -26.354	       7.302	      -4.211	    -163.363
	51.000000000	      -1.363	     170.449	      -1.348	      24.298	     -26.319	       6.830	      -4.185	    -163.714
	51.500000000	      -1.356	     170.293	      -1.454	      23.589	     -26.233	       7.064	      -4.130	    -164.025
	52.000000000	      -1.333	     170.116	      -1.561	      23.028	     -26.189	       7.462	      -4.098	    -164.307
	52.500000000	      -1.335	     169.735	      -1.670	      22.515	     -26.274	       7.221	      -4.064	    -164.387
	53.000000000	      -1.334	     169.426	      -1.776	      21.895	     -26.304	       7.260	      -4.024	    -164.451
	53.500000000	      -1.323	     169.291	      -1.871	      21.427	     -26.265	       6.822	      -3.984	    -164.774
	54.000000000	      -1.315	     168.996	      -1.956	      20.811	     -26.243	       8.127	      -3.913	    -164.974
	54.500000000	      -1.316	     168.654	      -2.046	      20.251	     -26.350	       7.460	      -3.857	    -165.141
	55.000000000	      -1.322	     168.237	      -2.128	      19.632	     -26.191	       7.000	      -3.821	    -165.332
	55.500000000	      -1.313	     168.005	      -2.225	      18.990	     -26.250	       8.032	      -3.785	    -165.731
	56.000000000	      -1.309	     167.626	      -2.300	      18.386	     -26.229	       6.639	      -3.753	    -166.098
	56.500000000	      -1.305	     167.532	      -2.422	      17.642	     -26.307	       5.785	      -3.703	    -166.499
	57.000000000	      -1.307	     167.268	      -2.527	      17.212	     -26.508	       7.655	      -3.686	    -166.826
	57.500000000	      -1.313	     167.077	      -2.628	      16.541	     -26.726	       6.454	      -3.635	    -166.995
	58.000000000	      -1.285	     166.897	      -2.712	      15.942	     -26.475	       8.257	      -3.616	    -167.222
	58.500000000	      -1.286	     166.752	      -2.803	      15.463	     -26.804	       7.407	      -3.575	    -167.510
	59.000000000	      -1.285	     166.359	      -2.874	      14.678	     -26.658	       7.769	      -3.524	    -167.736
	59.500000000	      -1.283	     166.315	      -2.979	      13.976	     -26.511	       7.362	      -3.477	    -167.947
	60.000000000	      -1.276	     166.127	      -3.067	      13.453	     -26.387	       7.381	      -3.500	    -168.293
	60.500000000	      -1.242	     165.803	      -3.180	      12.806	     -26.517	       7.289	      -3.481	    -168.446
	61.000000000	      -1.227	     165.556	      -3.273	      12.402	     -26.529	       8.037	      -3.418	    -168.644
	61.500000000	      -1.219	     165.297	      -3.365	      11.860	     -26.823	       7.965	      -3.400	    -168.730
	62.000000000	      -1.200	     165.068	      -3.439	      11.257	     -26.713	       9.261	      -3.377	    -168.884
	62.500000000	      -1.212	     164.706	      -3.516	      10.621	     -26.543	      10.526	      -3.376	    -169.030
	63.000000000	      -1.182	     164.250	      -3.586	      10.091	     -26.597	      11.041	      -3.307	    -168.998
	63.500000000	      -1.182	     164.089	      -3.655	       9.307	     -26.659	      10.098	      -3.264	    -169.441
	64.000000000	      -1.193	     164.150	      -3.740	       8.504	     -26.508	      10.126	      -3.207	    -169.254
	64.500000000	      -1.161	     163.750	      -3.821	       7.815	     -26.389	      10.114	      -3.159	    -169.326
	65.000000000	      -1.177	     163.597	      -3.925	       7.050	     -26.738	       8.772	      -3.089	    -169.465
	65.500000000	      -1.170	     163.176	      -4.026	       6.327	     -26.725	       9.814	      -3.081	    -170.409
	66.000000000	      -1.170	     162.801	      -4.154	       5.457	     -26.523	      10.676	      -3.052	    -170.749
	66.500000000	      -1.189	     162.651	      -4.248	       4.936	     -26.502	       8.812	      -2.991	    -170.608
	67.000000000	      -1.217	     162.056	      -4.415	       4.183	     -26.473	       9.005	      -2.979	    -170.570
	67.500000000	      -1.215	     161.677	      -4.541	       3.478	     -26.559	       9.012	      -2.991	    -171.084
	68.000000000	      -1.245	     161.486	      -4.629	       2.856	     -26.514	       8.796	      -3.018	    -171.380
	68.500000000	      -1.269	     161.252	      -4.723	       2.358	     -26.537	       8.369	      -2.972	    -171.536
	69.000000000	      -1.293	     161.057	      -4.855	       1.804	     -26.544	       7.722	      -2.908	    -171.648
	69.500000000	      -1.294	     160.807	      -4.975	       1.429	     -26.701	       7.822	      -2.885	    -171.846
	70.000000000	      -1.282	     160.621	      -5.069	       0.984	     -26.678	       8.384	      -2.868	    -171.914
	70.500000000	      -1.272	     160.419	      -5.165	       0.460	     -26.627	       8.441	      -2.823	    -172.101
	71.000000000	      -1.276	     160.147	      -5.259	       0.008	     -26.625	       8.104	      -2.784	    -172.204
	71.500000000	      -1.264	     159.918	      -5.375	      -0.460	     -26.603	       7.572	      -2.708	    -172.430
	72.000000000	      -1.262	     159.622	      -5.458	      -0.970	     -26.598	       7.018	      -2.717	    -172.675
	72.500000000	      -1.273	     159.350	      -5.558	      -1.626	     -26.666	       6.155	      -2.693	    -172.918
	73.000000000	      -1.299	     159.159	      -5.667	      -2.221	     -26.820	       5.588	      -2.655	    -173.105
	73.500000000	      -1.320	     159.075	      -5.778	      -2.728	     -27.025	       5.864	      -2.591	    -173.393
	74.000000000	      -1.323	     158.860	      -5.881	      -3.185	     -27.113	       6.337	      -2.584	    -173.914
	74.500000000	      -1.354	     158.662	      -5.977	      -3.655	     -27.186	       6.647	      -2.600	    -174.158
	75.000000000	      -1.382	     158.554	      -6.078	      -4.220	     -27.251	       6.893	      -2.591	    -174.319
	75.500000000	      -1.411	     158.558	      -6.207	      -4.739	     -27.458	       7.645	      -2.586	    -174.388
	76.000000000	      -1.430	     158.598	      -6.335	      -5.126	     -27.701	       9.653	      -2.599	    -174.437
	76.500000000	      -1.415	     158.782	      -6.460	      -5.342	     -27.729	      13.620	      -2.585	    -174.293
	77.000000000	      -1.406	     158.877	      -6.561	      -5.426	     -27.290	      16.953	      -2.517	    -174.128
	77.500000000	      -1.330	     158.797	      -6.598	      -5.468	     -26.597	      17.857	      -2.431	    -174.246
	78.000000000	      -1.255	     158.443	      -6.625	      -5.784	     -26.072	      16.591	      -2.377	    -174.346
	78.500000000	      -1.195	     158.091	      -6.677	      -6.281	     -25.783	      14.790	      -2.341	    -174.676
	79.000000000	      -1.199	     157.463	      -6.738	      -6.830	     -25.606	      13.012	      -2.279	    -174.972
	79.500000000	      -1.218	     156.923	      -6.777	      -7.546	     -25.378	      11.193	      -2.228	    -175.189
