!File name = EG0520U_1010_6x60_2SDBCB2EV_1915934D06_RC7325_3Vd_36mA.s2p
!Base file name = EG0520U_1010_6x60_2SDBCB2EV_1915934D06_RC7325
!Date = 8/23/2019
!Time = 1:09 PM
!Test duration(min) = 0.15
!Test = S-Parameters
!MPTS version = 8.91.5
!State File = C:\Data\PNA\20190821205423\S-Parameters_2019-08-23.sta
!Cal File = 
!ComputerName = CMPE-LAB-6
!Comments = 
!Attenuation = 0
!Z0 = 50
!Input Power(dBm) = -13.00
!Device ID = EG0520U_1010_6x60_2SDBCB2EV
!Row = 73
!Column = 25
!Technology = QPHT09
!Lot/Wafer = 1915934D06
!Gate Size = 360
!Mask = EG0520
!Cal Standards = GaAs BCB
!Cal Kit = EG2306
!Job Number = 20190821205423
!Device Type = FET
!set_Vg(v) = -1.500
!set_Vd(v) = 3.000
!set_Vd(mA) = 36.000
!file_name = EG0520U_1010_6x60_2SDBCB2EV_1915934D06_RC7325_3Vd_36mA.s2p
!Vd(V) = 3.000
!Vd(mA) = 36.143
!Vg(V) = -0.542
!Vg(mA) = -0.002
# GHz   S   DB   R   50
!%	Freq(GHz)	     s11(dB)	    s11(deg)	     s21(dB)	    s21(deg)	     s12(dB)	    s12(deg)	     s22(dB)	    s22(deg)
	0.500000000	      -0.043	     -14.145	      21.593	     171.385	     -38.843	      81.510	      -9.473	     -16.108
	1.000000000	      -0.125	     -27.986	      21.203	     163.016	     -33.054	      74.094	      -9.428	     -30.833
	1.500000000	      -0.164	     -41.086	      20.873	     155.980	     -29.877	      66.891	      -9.261	     -44.807
	2.000000000	      -0.308	     -53.079	      20.608	     148.656	     -27.850	      60.171	      -9.119	     -58.279
	2.500000000	      -0.402	     -64.219	      20.192	     142.356	     -26.452	      54.447	      -9.110	     -69.100
	3.000000000	      -0.793	     -71.807	      19.520	     137.247	     -25.621	      50.138	      -9.436	     -73.634
	3.500000000	      -0.912	     -80.536	      18.988	     132.208	     -24.846	      45.736	      -9.382	     -81.760
	4.000000000	      -1.012	     -88.265	      18.442	     127.784	     -24.256	      41.841	      -9.326	     -88.838
	4.500000000	      -1.122	     -95.133	      17.891	     123.617	     -23.813	      38.303	      -9.269	     -95.267
	5.000000000	      -1.197	    -101.248	      17.352	     120.028	     -23.460	      35.249	      -9.236	    -100.673
	5.500000000	      -1.271	    -106.793	      16.829	     116.658	     -23.187	      32.587	      -9.219	    -105.425
	6.000000000	      -1.335	    -111.736	      16.316	     113.616	     -22.956	      30.129	      -9.170	    -109.502
	6.500000000	      -1.384	    -116.137	      15.820	     110.885	     -22.775	      27.971	      -9.129	    -113.098
	7.000000000	      -1.430	    -120.118	      15.342	     108.304	     -22.629	      25.982	      -9.086	    -116.278
	7.500000000	      -1.463	    -123.697	      14.878	     105.953	     -22.505	      24.226	      -9.042	    -119.080
	8.000000000	      -1.477	    -126.738	      14.450	     103.882	     -22.384	      22.743	      -9.035	    -120.940
	8.500000000	      -1.508	    -129.776	      14.020	     101.829	     -22.300	      21.217	      -9.002	    -123.197
	9.000000000	      -1.539	    -132.484	      13.598	      99.918	     -22.228	      19.798	      -8.961	    -125.159
	9.500000000	      -1.560	    -135.025	      13.205	      98.055	     -22.173	      18.469	      -8.919	    -126.926
	10.000000000	      -1.576	    -137.370	      12.821	      96.319	     -22.136	      17.205	      -8.881	    -128.580
	10.500000000	      -1.598	    -139.561	      12.452	      94.627	     -22.114	      16.135	      -8.841	    -130.091
	11.000000000	      -1.611	    -141.561	      12.096	      93.062	     -22.085	      15.126	      -8.799	    -131.399
	11.500000000	      -1.630	    -143.456	      11.747	      91.533	     -22.078	      14.147	      -8.758	    -132.553
	12.000000000	      -1.644	    -145.202	      11.416	      90.092	     -22.069	      13.283	      -8.708	    -133.604
	12.500000000	      -1.652	    -146.828	      11.092	      88.701	     -22.058	      12.443	      -8.653	    -134.696
	13.000000000	      -1.661	    -148.365	      10.779	      87.329	     -22.053	      11.660	      -8.604	    -135.651
	13.500000000	      -1.671	    -149.825	      10.476	      86.031	     -22.065	      10.830	      -8.550	    -136.478
	14.000000000	      -1.682	    -151.212	      10.181	      84.766	     -22.076	      10.169	      -8.495	    -137.148
	14.500000000	      -1.686	    -152.461	       9.895	      83.536	     -22.090	       9.520	      -8.447	    -137.952
	15.000000000	      -1.691	    -153.588	       9.615	      82.352	     -22.105	       8.949	      -8.401	    -138.643
	15.500000000	      -1.695	    -154.711	       9.346	      81.181	     -22.113	       8.433	      -8.348	    -139.215
	16.000000000	      -1.699	    -155.831	       9.083	      80.034	     -22.120	       7.810	      -8.285	    -139.756
	16.500000000	      -1.704	    -156.904	       8.826	      78.905	     -22.140	       7.203	      -8.230	    -140.237
	17.000000000	      -1.704	    -157.906	       8.578	      77.813	     -22.173	       6.680	      -8.179	    -140.748
	17.500000000	      -1.711	    -158.816	       8.331	      76.737	     -22.192	       6.246	      -8.119	    -141.298
	18.000000000	      -1.722	    -159.701	       8.095	      75.697	     -22.224	       5.720	      -8.061	    -141.801
	18.500000000	      -1.722	    -160.575	       7.864	      74.674	     -22.246	       5.208	      -7.994	    -142.202
	19.000000000	      -1.721	    -161.414	       7.636	      73.656	     -22.289	       4.735	      -7.936	    -142.597
	19.500000000	      -1.718	    -162.205	       7.416	      72.665	     -22.343	       4.373	      -7.886	    -142.990
	20.000000000	      -1.725	    -162.955	       7.201	      71.700	     -22.401	       4.124	      -7.838	    -143.342
	20.500000000	      -1.727	    -163.665	       6.994	      70.733	     -22.420	       3.969	      -7.774	    -143.643
	21.000000000	      -1.724	    -164.390	       6.788	      69.773	     -22.433	       3.707	      -7.708	    -143.977
	21.500000000	      -1.718	    -165.096	       6.586	      68.820	     -22.452	       3.370	      -7.642	    -144.267
	22.000000000	      -1.710	    -165.712	       6.388	      67.884	     -22.484	       2.918	      -7.577	    -144.580
	22.500000000	      -1.708	    -166.364	       6.191	      66.931	     -22.506	       2.468	      -7.523	    -144.920
	23.000000000	      -1.712	    -166.971	       5.996	      66.021	     -22.547	       2.048	      -7.459	    -145.344
	23.500000000	      -1.713	    -167.667	       5.803	      65.133	     -22.645	       1.628	      -7.402	    -145.778
	24.000000000	      -1.722	    -168.270	       5.618	      64.299	     -22.741	       1.624	      -7.362	    -145.997
	24.500000000	      -1.718	    -168.691	       5.444	      63.441	     -22.757	       1.750	      -7.306	    -146.058
	25.000000000	      -1.705	    -169.155	       5.269	      62.538	     -22.723	       1.548	      -7.237	    -146.233
	25.500000000	      -1.705	    -169.761	       5.091	      61.684	     -22.778	       1.192	      -7.167	    -146.530
	26.000000000	      -1.705	    -170.325	       4.917	      60.838	     -22.812	       0.996	      -7.085	    -146.871
	26.500000000	      -1.699	    -170.808	       4.749	      59.984	     -22.858	       0.574	      -7.016	    -147.165
	27.000000000	      -1.693	    -171.206	       4.583	      59.159	     -22.917	       0.119	      -6.963	    -147.460
	27.500000000	      -1.697	    -171.594	       4.420	      58.432	     -23.059	       0.341	      -6.929	    -147.512
	28.000000000	      -1.695	    -172.120	       4.268	      57.618	     -23.127	       0.454	      -6.861	    -147.822
	28.500000000	      -1.675	    -172.579	       4.124	      56.719	     -23.053	       0.954	      -6.773	    -148.050
	29.000000000	      -1.669	    -173.047	       3.962	      55.834	     -23.066	       0.352	      -6.707	    -148.382
	29.500000000	      -1.664	    -173.449	       3.801	      55.016	     -23.126	      -0.006	      -6.645	    -148.645
	30.000000000	      -1.663	    -173.873	       3.648	      54.275	     -23.189	      -0.182	      -6.592	    -148.876
	30.500000000	      -1.665	    -174.332	       3.497	      53.479	     -23.209	      -0.524	      -6.537	    -149.167
	31.000000000	      -1.656	    -174.769	       3.351	      52.681	     -23.323	      -0.669	      -6.488	    -149.394
	31.500000000	      -1.645	    -175.155	       3.218	      51.979	     -23.405	      -0.023	      -6.429	    -149.640
	32.000000000	      -1.643	    -175.462	       3.076	      51.163	     -23.396	      -0.023	      -6.364	    -149.804
	32.500000000	      -1.652	    -175.888	       2.933	      50.316	     -23.367	      -0.292	      -6.293	    -150.021
	33.000000000	      -1.652	    -176.338	       2.791	      49.572	     -23.405	      -0.355	      -6.235	    -150.307
	33.500000000	      -1.641	    -176.736	       2.646	      48.824	     -23.470	      -0.530	      -6.181	    -150.642
	34.000000000	      -1.632	    -177.055	       2.505	      48.079	     -23.543	      -0.759	      -6.119	    -150.982
	34.500000000	      -1.634	    -177.406	       2.360	      47.231	     -23.543	      -1.138	      -6.045	    -151.173
	35.000000000	      -1.635	    -177.809	       2.221	      46.579	     -23.637	      -1.187	      -5.991	    -151.557
	35.500000000	      -1.633	    -178.168	       2.103	      45.886	     -23.723	      -0.880	      -5.950	    -151.693
	36.000000000	      -1.628	    -178.479	       1.977	      45.135	     -23.696	      -0.677	      -5.880	    -151.979
	36.500000000	      -1.613	    -178.713	       1.852	      44.337	     -23.678	      -1.074	      -5.813	    -152.192
	37.000000000	      -1.606	    -178.970	       1.724	      43.620	     -23.725	      -1.573	      -5.760	    -152.483
	37.500000000	      -1.603	    -179.341	       1.598	      42.858	     -23.800	      -1.052	      -5.713	    -152.720
	38.000000000	      -1.596	    -179.713	       1.464	      42.163	     -23.867	      -1.533	      -5.654	    -152.928
	38.500000000	      -1.589	     179.922	       1.330	      41.460	     -23.974	      -1.698	      -5.597	    -153.375
	39.000000000	      -1.581	     179.701	       1.215	      40.788	     -24.019	      -1.445	      -5.537	    -153.649
	39.500000000	      -1.576	     179.454	       1.097	      40.106	     -24.054	      -1.293	      -5.476	    -153.964
	40.000000000	      -1.561	     179.043	       0.988	      39.315	     -24.033	      -1.327	      -5.415	    -154.185
	40.500000000	      -1.563	     178.560	       0.860	      38.573	     -24.095	      -1.464	      -5.356	    -154.520
	41.000000000	      -1.547	     178.227	       0.741	      37.837	     -24.173	      -1.369	      -5.308	    -154.880
	41.500000000	      -1.543	     178.013	       0.619	      37.180	     -24.186	      -1.483	      -5.277	    -155.064
	42.000000000	      -1.548	     177.732	       0.504	      36.493	     -24.254	      -1.572	      -5.212	    -155.172
	42.500000000	      -1.567	     177.335	       0.388	      35.883	     -24.305	      -1.761	      -5.151	    -155.261
	43.000000000	      -1.561	     177.088	       0.286	      35.263	     -24.383	      -1.577	      -5.096	    -155.507
	43.500000000	      -1.548	     176.881	       0.170	      34.473	     -24.377	      -0.810	      -5.047	    -155.957
	44.000000000	      -1.548	     176.620	       0.054	      33.773	     -24.363	      -0.953	      -4.979	    -156.279
	44.500000000	      -1.559	     176.192	      -0.064	      33.056	     -24.393	      -1.308	      -4.924	    -156.530
	45.000000000	      -1.565	     175.890	      -0.176	      32.394	     -24.445	      -1.575	      -4.867	    -156.886
	45.500000000	      -1.524	     175.473	      -0.453	      31.823	     -24.675	      -1.824	      -4.731	    -157.858
	46.000000000	      -1.503	     175.223	      -0.572	      31.246	     -24.816	      -1.899	      -4.692	    -158.197
	46.500000000	      -1.488	     174.832	      -0.671	      30.645	     -24.893	      -0.990	      -4.602	    -158.294
	47.000000000	      -1.489	     174.501	      -0.772	      29.943	     -24.981	      -1.210	      -4.563	    -158.531
	47.500000000	      -1.487	     174.244	      -0.883	      29.254	     -24.945	      -0.226	      -4.527	    -158.745
	48.000000000	      -1.471	     173.924	      -0.998	      28.591	     -24.975	      -0.777	      -4.481	    -158.922
	48.500000000	      -1.469	     173.565	      -1.101	      27.976	     -24.950	      -1.458	      -4.430	    -159.269
	49.000000000	      -1.482	     173.350	      -1.210	      27.359	     -24.999	      -1.730	      -4.346	    -159.485
	49.500000000	      -1.489	     173.184	      -1.313	      26.776	     -25.142	      -0.647	      -4.302	    -159.883
	50.000000000	      -1.483	     172.815	      -1.433	      26.262	     -25.339	      -1.756	      -4.249	    -160.120
	50.500000000	      -1.458	     172.550	      -1.527	      25.495	     -25.263	      -0.326	      -4.239	    -160.716
	51.000000000	      -1.451	     172.270	      -1.626	      25.016	     -25.239	       0.323	      -4.224	    -161.025
	51.500000000	      -1.453	     172.126	      -1.727	      24.320	     -25.228	      -0.536	      -4.175	    -161.222
	52.000000000	      -1.432	     171.867	      -1.835	      23.662	     -25.255	      -0.662	      -4.132	    -161.522
	52.500000000	      -1.430	     171.487	      -1.940	      23.035	     -25.211	      -0.493	      -4.093	    -161.658
	53.000000000	      -1.427	     171.137	      -2.048	      22.456	     -25.255	      -0.979	      -4.052	    -161.712
	53.500000000	      -1.427	     170.962	      -2.136	      21.921	     -25.233	      -0.761	      -4.009	    -162.101
	54.000000000	      -1.413	     170.662	      -2.232	      21.439	     -25.246	      -0.457	      -3.943	    -162.359
	54.500000000	      -1.409	     170.236	      -2.318	      20.853	     -25.333	      -0.219	      -3.900	    -162.494
	55.000000000	      -1.418	     169.834	      -2.402	      20.162	     -25.379	       0.113	      -3.867	    -162.681
	55.500000000	      -1.416	     169.529	      -2.482	      19.548	     -25.339	       0.292	      -3.819	    -162.999
	56.000000000	      -1.414	     169.232	      -2.570	      18.939	     -25.199	      -1.984	      -3.784	    -163.473
	56.500000000	      -1.401	     169.010	      -2.695	      18.277	     -25.203	       0.031	      -3.740	    -163.911
	57.000000000	      -1.416	     168.781	      -2.781	      17.636	     -25.488	      -0.715	      -3.724	    -163.959
	57.500000000	      -1.415	     168.543	      -2.887	      17.111	     -25.624	      -1.861	      -3.697	    -164.377
	58.000000000	      -1.383	     168.473	      -2.985	      16.463	     -25.589	      -0.796	      -3.659	    -164.727
	58.500000000	      -1.374	     168.101	      -3.048	      15.841	     -25.533	       0.420	      -3.601	    -164.996
	59.000000000	      -1.357	     167.850	      -3.127	      15.091	     -25.445	      -1.388	      -3.548	    -165.164
	59.500000000	      -1.356	     167.753	      -3.237	      14.395	     -25.808	      -0.992	      -3.507	    -165.402
	60.000000000	      -1.370	     167.403	      -3.327	      13.898	     -25.676	      -0.704	      -3.539	    -165.853
	60.500000000	      -1.334	     167.180	      -3.416	      13.182	     -25.801	      -1.100	      -3.509	    -165.963
	61.000000000	      -1.305	     166.847	      -3.526	      12.796	     -25.756	      -1.421	      -3.468	    -166.023
	61.500000000	      -1.307	     166.554	      -3.620	      12.138	     -25.831	      -0.625	      -3.455	    -166.407
	62.000000000	      -1.290	     166.279	      -3.696	      11.556	     -25.880	      -1.164	      -3.423	    -166.600
	62.500000000	      -1.304	     166.008	      -3.751	      10.941	     -26.093	      -1.070	      -3.413	    -166.425
	63.000000000	      -1.283	     165.566	      -3.859	      10.262	     -25.870	      -0.440	      -3.353	    -166.482
	63.500000000	      -1.275	     165.367	      -3.931	       9.554	     -25.984	      -0.021	      -3.293	    -166.899
	64.000000000	      -1.258	     165.372	      -3.999	       8.728	     -25.919	       1.011	      -3.200	    -166.783
	64.500000000	      -1.252	     165.276	      -4.079	       7.985	     -25.918	       2.399	      -3.176	    -166.816
	65.000000000	      -1.269	     164.844	      -4.207	       7.172	     -25.969	       0.937	      -3.112	    -167.126
	65.500000000	      -1.243	     164.296	      -4.323	       6.616	     -26.008	       0.401	      -3.093	    -167.953
	66.000000000	      -1.254	     164.021	      -4.426	       5.519	     -26.191	      -1.112	      -3.070	    -168.353
	66.500000000	      -1.269	     163.849	      -4.514	       5.026	     -25.863	      -0.466	      -3.035	    -168.404
	67.000000000	      -1.306	     163.393	      -4.647	       4.450	     -25.938	      -0.495	      -3.033	    -168.438
	67.500000000	      -1.304	     162.691	      -4.781	       3.553	     -25.872	      -0.861	      -3.025	    -168.906
	68.000000000	      -1.347	     162.494	      -4.887	       2.931	     -25.881	      -1.233	      -3.041	    -169.201
	68.500000000	      -1.380	     162.248	      -4.983	       2.361	     -25.829	      -1.651	      -2.990	    -169.225
	69.000000000	      -1.408	     162.003	      -5.117	       1.789	     -25.892	      -2.321	      -2.932	    -169.551
	69.500000000	      -1.408	     161.772	      -5.233	       1.274	     -25.954	      -2.497	      -2.920	    -169.757
	70.000000000	      -1.391	     161.569	      -5.333	       0.760	     -26.030	      -2.283	      -2.893	    -169.836
	70.500000000	      -1.377	     161.379	      -5.437	       0.338	     -25.981	      -2.005	      -2.845	    -170.036
	71.000000000	      -1.368	     161.189	      -5.541	      -0.164	     -25.975	      -2.325	      -2.817	    -170.242
	71.500000000	      -1.314	     161.104	      -5.644	      -0.492	     -25.954	      -3.101	      -2.750	    -170.465
	72.000000000	      -1.325	     160.639	      -5.756	      -1.151	     -25.951	      -4.014	      -2.754	    -170.721
	72.500000000	      -1.348	     160.269	      -5.868	      -1.881	     -26.052	      -5.094	      -2.732	    -171.016
	73.000000000	      -1.384	     160.096	      -5.982	      -2.441	     -26.221	      -6.036	      -2.691	    -171.202
	73.500000000	      -1.404	     159.927	      -6.097	      -2.915	     -26.454	      -6.140	      -2.630	    -171.522
	74.000000000	      -1.414	     159.669	      -6.210	      -3.344	     -26.644	      -5.539	      -2.624	    -172.049
	74.500000000	      -1.445	     159.430	      -6.303	      -3.732	     -26.740	      -5.009	      -2.641	    -172.264
	75.000000000	      -1.479	     159.330	      -6.409	      -4.248	     -26.849	      -4.749	      -2.625	    -172.381
	75.500000000	      -1.512	     159.341	      -6.531	      -4.714	     -27.077	      -4.380	      -2.623	    -172.501
	76.000000000	      -1.518	     159.404	      -6.647	      -5.103	     -27.412	      -2.683	      -2.632	    -172.597
	76.500000000	      -1.513	     159.508	      -6.769	      -5.237	     -27.603	       1.620	      -2.624	    -172.425
	77.000000000	      -1.489	     159.513	      -6.843	      -5.326	     -27.244	       5.862	      -2.564	    -172.287
	77.500000000	      -1.416	     159.428	      -6.873	      -5.350	     -26.565	       7.853	      -2.480	    -172.404
	78.000000000	      -1.329	     159.151	      -6.879	      -5.655	     -25.945	       7.559	      -2.433	    -172.560
	78.500000000	      -1.289	     158.562	      -6.897	      -6.451	     -25.493	       5.785	      -2.386	    -172.792
	79.000000000	      -1.317	     157.926	      -6.970	      -7.364	     -25.221	       3.493	      -2.329	    -173.123
	79.500000000	      -1.341	     157.399	      -7.036	      -8.192	     -25.031	       1.434	      -2.281	    -173.383
