!File name = EG0520U_1010_6x60_2SDBCB2EV_1915934D06_RC7325_3.5Vd_54mA.s2p
!Base file name = EG0520U_1010_6x60_2SDBCB2EV_1915934D06_RC7325
!Date = 8/23/2019
!Time = 1:10 PM
!Test duration(min) = 0.15
!Test = S-Parameters
!MPTS version = 8.91.5
!State File = C:\Data\PNA\20190821205423\S-Parameters_2019-08-23.sta
!Cal File = 
!ComputerName = CMPE-LAB-6
!Comments = 
!Attenuation = 0
!Z0 = 50
!Input Power(dBm) = -13.00
!Device ID = EG0520U_1010_6x60_2SDBCB2EV
!Row = 73
!Column = 25
!Technology = QPHT09
!Lot/Wafer = 1915934D06
!Gate Size = 360
!Mask = EG0520
!Cal Standards = GaAs BCB
!Cal Kit = EG2306
!Job Number = 20190821205423
!Device Type = FET
!set_Vg(v) = -1.500
!set_Vd(v) = 3.500
!set_Vd(mA) = 54.000
!file_name = EG0520U_1010_6x60_2SDBCB2EV_1915934D06_RC7325_3.5Vd_54mA.s2p
!Vd(V) = 3.500
!Vd(mA) = 54.222
!Vg(V) = -0.468
!Vg(mA) = -0.001
# GHz   S   DB   R   50
!%	Freq(GHz)	     s11(dB)	    s11(deg)	     s21(dB)	    s21(deg)	     s12(dB)	    s12(deg)	     s22(dB)	    s22(deg)
	0.500000000	      -0.043	     -15.001	      22.512	     170.839	     -39.516	      81.238	      -9.307	     -16.133
	1.000000000	      -0.128	     -29.637	      22.043	     162.303	     -33.752	      73.474	      -9.313	     -30.692
	1.500000000	      -0.169	     -43.385	      21.668	     154.760	     -30.612	      66.052	      -9.211	     -44.546
	2.000000000	      -0.312	     -55.788	      21.406	     147.444	     -28.616	      59.222	      -9.149	     -57.913
	2.500000000	      -0.408	     -67.252	      20.947	     140.988	     -27.252	      53.404	      -9.202	     -68.622
	3.000000000	      -0.798	     -74.949	      20.255	     135.862	     -26.452	      49.048	      -9.575	     -72.987
	3.500000000	      -0.914	     -83.749	      19.677	     130.802	     -25.708	      44.645	      -9.582	     -81.020
	4.000000000	      -1.008	     -91.499	      19.101	     126.341	     -25.148	      40.783	      -9.578	     -88.019
	4.500000000	      -1.106	     -98.363	      18.532	     122.247	     -24.725	      37.321	      -9.571	     -94.348
	5.000000000	      -1.177	    -104.434	      17.967	     118.644	     -24.392	      34.340	      -9.575	     -99.642
	5.500000000	      -1.243	    -109.890	      17.428	     115.313	     -24.134	      31.703	      -9.583	    -104.290
	6.000000000	      -1.298	    -114.729	      16.894	     112.338	     -23.926	      29.338	      -9.560	    -108.291
	6.500000000	      -1.343	    -119.029	      16.384	     109.628	     -23.755	      27.229	      -9.539	    -111.808
	7.000000000	      -1.382	    -122.912	      15.895	     107.105	     -23.620	      25.342	      -9.510	    -114.867
	7.500000000	      -1.410	    -126.400	      15.421	     104.787	     -23.509	      23.648	      -9.477	    -117.625
	8.000000000	      -1.418	    -129.349	      14.985	     102.751	     -23.395	      22.256	      -9.480	    -119.374
	8.500000000	      -1.446	    -132.289	      14.545	     100.739	     -23.316	      20.790	      -9.450	    -121.564
	9.000000000	      -1.474	    -134.926	      14.118	      98.857	     -23.252	      19.419	      -9.415	    -123.469
	9.500000000	      -1.490	    -137.384	      13.718	      97.031	     -23.206	      18.156	      -9.373	    -125.207
	10.000000000	      -1.503	    -139.655	      13.330	      95.315	     -23.181	      16.940	      -9.338	    -126.762
	10.500000000	      -1.522	    -141.773	      12.955	      93.655	     -23.161	      15.924	      -9.300	    -128.219
	11.000000000	      -1.533	    -143.698	      12.595	      92.110	     -23.142	      14.992	      -9.259	    -129.424
	11.500000000	      -1.550	    -145.535	      12.242	      90.603	     -23.141	      14.072	      -9.214	    -130.571
	12.000000000	      -1.562	    -147.217	      11.907	      89.185	     -23.134	      13.295	      -9.158	    -131.563
	12.500000000	      -1.569	    -148.786	      11.579	      87.803	     -23.133	      12.509	      -9.102	    -132.607
	13.000000000	      -1.577	    -150.258	      11.263	      86.454	     -23.139	      11.764	      -9.048	    -133.512
	13.500000000	      -1.585	    -151.670	      10.956	      85.155	     -23.146	      10.986	      -8.990	    -134.246
	14.000000000	      -1.596	    -153.000	      10.659	      83.921	     -23.169	      10.399	      -8.930	    -134.936
	14.500000000	      -1.599	    -154.201	      10.371	      82.698	     -23.183	       9.850	      -8.876	    -135.685
	15.000000000	      -1.602	    -155.285	      10.089	      81.526	     -23.198	       9.350	      -8.826	    -136.335
	15.500000000	      -1.607	    -156.362	       9.816	      80.364	     -23.220	       8.884	      -8.765	    -136.870
	16.000000000	      -1.610	    -157.445	       9.551	      79.227	     -23.227	       8.299	      -8.696	    -137.374
	16.500000000	      -1.613	    -158.482	       9.292	      78.111	     -23.255	       7.743	      -8.632	    -137.868
	17.000000000	      -1.614	    -159.451	       9.042	      77.023	     -23.295	       7.314	      -8.576	    -138.300
	17.500000000	      -1.621	    -160.326	       8.793	      75.959	     -23.315	       6.907	      -8.509	    -138.829
	18.000000000	      -1.629	    -161.181	       8.556	      74.921	     -23.352	       6.412	      -8.444	    -139.316
	18.500000000	      -1.630	    -162.027	       8.322	      73.903	     -23.381	       5.999	      -8.369	    -139.683
	19.000000000	      -1.628	    -162.836	       8.092	      72.889	     -23.429	       5.556	      -8.304	    -140.045
	19.500000000	      -1.626	    -163.600	       7.871	      71.910	     -23.492	       5.245	      -8.246	    -140.414
	20.000000000	      -1.632	    -164.325	       7.654	      70.943	     -23.554	       5.148	      -8.192	    -140.746
	20.500000000	      -1.634	    -165.007	       7.446	      69.979	     -23.577	       5.070	      -8.119	    -141.024
	21.000000000	      -1.633	    -165.672	       7.238	      69.029	     -23.589	       4.843	      -8.044	    -141.342
	21.500000000	      -1.625	    -166.388	       7.033	      68.072	     -23.621	       4.554	      -7.970	    -141.614
	22.000000000	      -1.618	    -166.978	       6.835	      67.138	     -23.651	       4.138	      -7.896	    -141.911
	22.500000000	      -1.615	    -167.611	       6.634	      66.187	     -23.676	       3.777	      -7.837	    -142.237
	23.000000000	      -1.619	    -168.202	       6.438	      65.279	     -23.719	       3.345	      -7.765	    -142.655
	23.500000000	      -1.619	    -168.876	       6.245	      64.390	     -23.816	       2.964	      -7.701	    -143.099
	24.000000000	      -1.629	    -169.459	       6.057	      63.557	     -23.943	       3.102	      -7.653	    -143.291
	24.500000000	      -1.623	    -169.874	       5.882	      62.698	     -23.943	       3.307	      -7.588	    -143.338
	25.000000000	      -1.609	    -170.318	       5.705	      61.792	     -23.932	       3.171	      -7.511	    -143.510
	25.500000000	      -1.609	    -170.890	       5.526	      60.937	     -23.997	       2.976	      -7.431	    -143.795
	26.000000000	      -1.613	    -171.442	       5.351	      60.096	     -24.043	       2.733	      -7.344	    -144.147
	26.500000000	      -1.605	    -171.924	       5.182	      59.247	     -24.074	       2.520	      -7.267	    -144.469
	27.000000000	      -1.597	    -172.301	       5.014	      58.426	     -24.144	       2.070	      -7.205	    -144.728
	27.500000000	      -1.603	    -172.673	       4.851	      57.679	     -24.314	       2.391	      -7.162	    -144.766
	28.000000000	      -1.599	    -173.182	       4.696	      56.876	     -24.373	       2.682	      -7.092	    -145.094
	28.500000000	      -1.579	    -173.634	       4.550	      55.968	     -24.288	       3.118	      -6.995	    -145.321
	29.000000000	      -1.574	    -174.097	       4.385	      55.082	     -24.321	       2.811	      -6.919	    -145.674
	29.500000000	      -1.570	    -174.482	       4.227	      54.264	     -24.360	       2.422	      -6.851	    -145.971
	30.000000000	      -1.570	    -174.904	       4.072	      53.517	     -24.428	       2.086	      -6.795	    -146.193
	30.500000000	      -1.570	    -175.333	       3.920	      52.715	     -24.490	       2.255	      -6.733	    -146.468
	31.000000000	      -1.564	    -175.782	       3.768	      51.949	     -24.556	       1.932	      -6.680	    -146.747
	31.500000000	      -1.550	    -176.142	       3.636	      51.218	     -24.666	       2.689	      -6.612	    -146.967
	32.000000000	      -1.550	    -176.446	       3.492	      50.395	     -24.677	       2.617	      -6.546	    -147.157
	32.500000000	      -1.559	    -176.864	       3.348	      49.538	     -24.661	       2.858	      -6.461	    -147.374
	33.000000000	      -1.557	    -177.309	       3.205	      48.775	     -24.641	       2.682	      -6.402	    -147.637
	33.500000000	      -1.547	    -177.704	       3.058	      48.033	     -24.740	       2.525	      -6.346	    -148.000
	34.000000000	      -1.538	    -178.020	       2.915	      47.285	     -24.804	       2.388	      -6.274	    -148.343
	34.500000000	      -1.539	    -178.407	       2.769	      46.468	     -24.837	       2.253	      -6.191	    -148.576
	35.000000000	      -1.540	    -178.733	       2.629	      45.777	     -24.954	       2.241	      -6.134	    -148.942
	35.500000000	      -1.540	    -179.101	       2.509	      45.079	     -24.975	       2.727	      -6.087	    -149.112
	36.000000000	      -1.534	    -179.386	       2.384	      44.278	     -24.965	       3.001	      -6.009	    -149.367
	36.500000000	      -1.518	    -179.631	       2.253	      43.521	     -24.976	       2.653	      -5.942	    -149.625
	37.000000000	      -1.513	    -179.860	       2.124	      42.782	     -25.020	       2.438	      -5.876	    -149.941
	37.500000000	      -1.511	     179.737	       1.993	      42.032	     -25.090	       2.649	      -5.828	    -150.184
	38.000000000	      -1.506	     179.369	       1.862	      41.312	     -25.109	       2.381	      -5.766	    -150.447
	38.500000000	      -1.494	     179.031	       1.728	      40.610	     -25.260	       2.367	      -5.705	    -150.839
	39.000000000	      -1.487	     178.766	       1.608	      39.931	     -25.313	       2.670	      -5.639	    -151.148
	39.500000000	      -1.483	     178.571	       1.491	      39.251	     -25.378	       3.044	      -5.583	    -151.465
	40.000000000	      -1.471	     178.132	       1.381	      38.461	     -25.353	       3.266	      -5.513	    -151.761
	40.500000000	      -1.467	     177.675	       1.249	      37.726	     -25.372	       3.028	      -5.439	    -152.055
	41.000000000	      -1.453	     177.363	       1.126	      36.957	     -25.466	       2.909	      -5.396	    -152.450
	41.500000000	      -1.447	     177.153	       1.007	      36.308	     -25.496	       3.654	      -5.357	    -152.595
	42.000000000	      -1.455	     176.862	       0.887	      35.611	     -25.516	       2.908	      -5.282	    -152.800
	42.500000000	      -1.475	     176.504	       0.765	      34.991	     -25.577	       2.957	      -5.229	    -152.862
	43.000000000	      -1.466	     176.236	       0.667	      34.352	     -25.723	       4.045	      -5.165	    -153.121
	43.500000000	      -1.456	     175.997	       0.553	      33.566	     -25.607	       4.401	      -5.112	    -153.549
	44.000000000	      -1.463	     175.742	       0.439	      32.850	     -25.617	       4.616	      -5.041	    -153.916
	44.500000000	      -1.467	     175.354	       0.311	      32.143	     -25.706	       3.988	      -4.980	    -154.267
	45.000000000	      -1.477	     175.027	       0.197	      31.493	     -25.672	       3.870	      -4.922	    -154.632
	45.500000000	      -1.429	     174.654	      -0.080	      30.899	     -25.952	       3.551	      -4.789	    -155.642
	46.000000000	      -1.411	     174.418	      -0.201	      30.296	     -26.130	       3.645	      -4.749	    -155.980
	46.500000000	      -1.398	     174.054	      -0.301	      29.676	     -26.195	       4.298	      -4.669	    -156.142
	47.000000000	      -1.398	     173.685	      -0.403	      28.960	     -26.202	       5.249	      -4.599	    -156.373
	47.500000000	      -1.398	     173.404	      -0.517	      28.313	     -26.190	       5.530	      -4.574	    -156.622
	48.000000000	      -1.383	     173.113	      -0.638	      27.597	     -26.065	       5.491	      -4.510	    -156.801
	48.500000000	      -1.380	     172.774	      -0.743	      26.976	     -26.053	       4.839	      -4.461	    -157.124
	49.000000000	      -1.392	     172.577	      -0.849	      26.309	     -26.305	       5.521	      -4.380	    -157.420
	49.500000000	      -1.397	     172.330	      -0.974	      25.758	     -26.193	       5.457	      -4.342	    -157.839
	50.000000000	      -1.397	     171.986	      -1.082	      25.156	     -26.477	       5.853	      -4.272	    -158.031
	50.500000000	      -1.374	     171.784	      -1.158	      24.635	     -26.505	       5.353	      -4.273	    -158.511
	51.000000000	      -1.366	     171.485	      -1.285	      23.960	     -26.405	       6.918	      -4.261	    -158.924
	51.500000000	      -1.372	     171.310	      -1.386	      23.238	     -26.369	       6.432	      -4.195	    -159.319
	52.000000000	      -1.336	     171.067	      -1.482	      22.571	     -26.385	       7.203	      -4.149	    -159.523
	52.500000000	      -1.344	     170.709	      -1.595	      22.002	     -26.466	       6.579	      -4.112	    -159.644
	53.000000000	      -1.339	     170.336	      -1.707	      21.396	     -26.473	       6.279	      -4.079	    -159.764
	53.500000000	      -1.330	     170.167	      -1.808	      20.855	     -26.305	       7.453	      -4.015	    -160.113
	54.000000000	      -1.326	     169.922	      -1.901	      20.287	     -26.477	       6.406	      -3.937	    -160.346
	54.500000000	      -1.327	     169.496	      -1.989	      19.694	     -26.541	       7.575	      -3.894	    -160.495
	55.000000000	      -1.336	     169.078	      -2.076	      19.043	     -26.534	       6.732	      -3.853	    -160.712
	55.500000000	      -1.330	     168.697	      -2.161	      18.479	     -26.581	       6.491	      -3.806	    -161.093
	56.000000000	      -1.313	     168.445	      -2.253	      17.801	     -26.462	       6.297	      -3.781	    -161.602
	56.500000000	      -1.333	     168.242	      -2.368	      17.114	     -26.624	       8.240	      -3.747	    -162.088
	57.000000000	      -1.336	     168.034	      -2.466	      16.407	     -26.658	       7.418	      -3.719	    -162.336
	57.500000000	      -1.325	     167.762	      -2.580	      15.835	     -26.590	       6.984	      -3.682	    -162.588
	58.000000000	      -1.306	     167.708	      -2.674	      15.230	     -26.718	       7.673	      -3.651	    -162.754
	58.500000000	      -1.277	     167.487	      -2.739	      14.577	     -26.852	       7.548	      -3.591	    -163.117
	59.000000000	      -1.281	     166.980	      -2.821	      13.979	     -26.894	       7.132	      -3.546	    -163.276
	59.500000000	      -1.278	     166.836	      -2.919	      13.236	     -26.709	       8.477	      -3.484	    -163.599
	60.000000000	      -1.280	     166.706	      -3.022	      12.610	     -26.909	       7.929	      -3.508	    -164.034
	60.500000000	      -1.258	     166.452	      -3.116	      11.990	     -26.968	       7.036	      -3.491	    -164.131
	61.000000000	      -1.225	     166.151	      -3.200	      11.444	     -26.842	       7.408	      -3.450	    -164.365
	61.500000000	      -1.232	     165.867	      -3.316	      10.947	     -26.971	       7.722	      -3.414	    -164.539
	62.000000000	      -1.200	     165.548	      -3.372	      10.325	     -27.154	       7.905	      -3.410	    -164.572
	62.500000000	      -1.221	     165.210	      -3.482	       9.602	     -26.925	       7.312	      -3.371	    -164.701
	63.000000000	      -1.202	     164.797	      -3.543	       9.139	     -26.914	      10.294	      -3.311	    -164.892
	63.500000000	      -1.187	     164.586	      -3.649	       8.317	     -26.811	       9.967	      -3.249	    -165.175
	64.000000000	      -1.191	     164.654	      -3.710	       7.580	     -26.633	       7.882	      -3.174	    -165.134
	64.500000000	      -1.171	     164.503	      -3.783	       6.741	     -26.926	       7.955	      -3.133	    -165.010
	65.000000000	      -1.178	     164.076	      -3.879	       5.838	     -26.742	      10.249	      -3.058	    -165.379
	65.500000000	      -1.173	     163.554	      -4.030	       5.173	     -26.893	       8.118	      -3.046	    -166.421
	66.000000000	      -1.162	     163.217	      -4.156	       4.201	     -26.728	      10.416	      -3.012	    -166.910
	66.500000000	      -1.183	     163.030	      -4.257	       3.583	     -26.887	       8.955	      -2.962	    -166.612
	67.000000000	      -1.254	     162.623	      -4.354	       2.843	     -26.533	       6.596	      -2.975	    -166.695
	67.500000000	      -1.223	     161.969	      -4.509	       2.062	     -26.701	       8.711	      -2.965	    -167.315
	68.000000000	      -1.266	     161.729	      -4.610	       1.386	     -26.694	       7.774	      -2.988	    -167.652
	68.500000000	      -1.301	     161.434	      -4.711	       0.843	     -26.683	       7.822	      -2.934	    -167.865
	69.000000000	      -1.333	     161.225	      -4.846	       0.249	     -26.670	       6.836	      -2.875	    -168.150
	69.500000000	      -1.331	     161.010	      -4.974	      -0.262	     -26.828	       6.557	      -2.857	    -168.339
	70.000000000	      -1.314	     160.801	      -5.077	      -0.763	     -26.871	       6.950	      -2.832	    -168.458
	70.500000000	      -1.300	     160.601	      -5.186	      -1.298	     -26.794	       7.007	      -2.788	    -168.626
	71.000000000	      -1.294	     160.400	      -5.268	      -1.630	     -26.794	       6.551	      -2.770	    -168.846
	71.500000000	      -1.258	     160.319	      -5.399	      -2.202	     -26.726	       5.838	      -2.694	    -169.163
	72.000000000	      -1.255	     159.928	      -5.523	      -2.797	     -26.765	       4.695	      -2.693	    -169.324
	72.500000000	      -1.275	     159.523	      -5.639	      -3.483	     -26.860	       3.671	      -2.666	    -169.640
	73.000000000	      -1.308	     159.220	      -5.751	      -4.072	     -27.082	       2.869	      -2.626	    -169.872
	73.500000000	      -1.332	     159.168	      -5.880	      -4.552	     -27.355	       3.074	      -2.555	    -170.183
	74.000000000	      -1.340	     158.876	      -5.992	      -4.935	     -27.539	       3.855	      -2.556	    -170.769
	74.500000000	      -1.375	     158.652	      -6.092	      -5.308	     -27.596	       4.624	      -2.581	    -171.002
	75.000000000	      -1.411	     158.569	      -6.201	      -5.846	     -27.710	       5.001	      -2.569	    -171.105
	75.500000000	      -1.444	     158.550	      -6.329	      -6.306	     -27.952	       5.886	      -2.559	    -171.250
	76.000000000	      -1.461	     158.691	      -6.447	      -6.629	     -28.238	       8.315	      -2.566	    -171.316
	76.500000000	      -1.446	     158.805	      -6.570	      -6.762	     -28.292	      13.051	      -2.551	    -171.248
	77.000000000	      -1.425	     158.853	      -6.644	      -6.855	     -27.752	      17.100	      -2.489	    -171.148
	77.500000000	      -1.343	     158.747	      -6.676	      -6.906	     -26.978	      18.274	      -2.401	    -171.278
	78.000000000	      -1.253	     158.514	      -6.684	      -7.198	     -26.345	      17.272	      -2.366	    -171.405
	78.500000000	      -1.207	     157.844	      -6.705	      -8.036	     -25.892	      14.906	      -2.318	    -171.746
	79.000000000	      -1.235	     157.178	      -6.774	      -8.954	     -25.636	      12.244	      -2.251	    -172.015
	79.500000000	      -1.273	     156.689	      -6.848	      -9.831	     -25.474	       9.843	      -2.199	    -172.307
