!File name = EG0520U_1010_6x60_2SDBCB2EV_1915934D06_RC2943_3Vd_36mA.s2p
!Base file name = EG0520U_1010_6x60_2SDBCB2EV_1915934D06_RC2943
!Date = 8/23/2019
!Time = 1:03 PM
!Test duration(min) = 0.15
!Test = S-Parameters
!MPTS version = 8.91.5
!State File = C:\Data\PNA\20190821205423\S-Parameters_2019-08-23.sta
!Cal File = 
!ComputerName = CMPE-LAB-6
!Comments = 
!Attenuation = 0
!Z0 = 50
!Input Power(dBm) = -13.00
!Device ID = EG0520U_1010_6x60_2SDBCB2EV
!Row = 29
!Column = 43
!Technology = QPHT09
!Lot/Wafer = 1915934D06
!Gate Size = 360
!Mask = EG0520
!Cal Standards = GaAs BCB
!Cal Kit = EG2306
!Job Number = 20190821205423
!Device Type = FET
!set_Vg(v) = -1.500
!set_Vd(v) = 3.000
!set_Vd(mA) = 36.000
!file_name = EG0520U_1010_6x60_2SDBCB2EV_1915934D06_RC2943_3Vd_36mA.s2p
!Vd(V) = 3.000
!Vd(mA) = 36.034
!Vg(V) = -0.513
!Vg(mA) = -0.002
# GHz   S   DB   R   50
!%	Freq(GHz)	     s11(dB)	    s11(deg)	     s21(dB)	    s21(deg)	     s12(dB)	    s12(deg)	     s22(dB)	    s22(deg)
	0.500000000	      -0.044	     -14.392	      21.710	     171.220	     -38.789	      81.400	      -9.312	     -16.106
	1.000000000	      -0.130	     -28.462	      21.310	     162.714	     -33.010	      73.800	      -9.281	     -30.845
	1.500000000	      -0.170	     -41.762	      20.970	     155.538	     -29.849	      66.505	      -9.136	     -44.842
	2.000000000	      -0.319	     -53.902	      20.700	     148.120	     -27.832	      59.681	      -9.023	     -58.363
	2.500000000	      -0.416	     -65.172	      20.273	     141.739	     -26.449	      53.921	      -9.040	     -69.206
	3.000000000	      -0.811	     -72.811	      19.592	     136.590	     -25.629	      49.592	      -9.386	     -73.766
	3.500000000	      -0.930	     -81.610	      19.051	     131.495	     -24.865	      45.155	      -9.353	     -81.931
	4.000000000	      -1.031	     -89.379	      18.495	     127.033	     -24.282	      41.226	      -9.315	     -89.058
	4.500000000	      -1.142	     -96.280	      17.937	     122.835	     -23.848	      37.664	      -9.275	     -95.525
	5.000000000	      -1.216	    -102.413	      17.391	     119.214	     -23.503	      34.596	      -9.255	    -100.972
	5.500000000	      -1.289	    -107.976	      16.862	     115.811	     -23.236	      31.926	      -9.248	    -105.775
	6.000000000	      -1.353	    -112.925	      16.343	     112.747	     -23.013	      29.464	      -9.210	    -109.894
	6.500000000	      -1.402	    -117.340	      15.843	     109.989	     -22.837	      27.280	      -9.177	    -113.545
	7.000000000	      -1.447	    -121.313	      15.361	     107.386	     -22.691	      25.314	      -9.140	    -116.734
	7.500000000	      -1.480	    -124.918	      14.891	     104.998	     -22.580	      23.520	      -9.104	    -119.618
	8.000000000	      -1.493	    -127.950	      14.462	     102.909	     -22.458	      22.083	      -9.100	    -121.496
	8.500000000	      -1.523	    -130.989	      14.028	     100.834	     -22.381	      20.568	      -9.067	    -123.800
	9.000000000	      -1.553	    -133.708	      13.604	      98.890	     -22.311	      19.102	      -9.027	    -125.816
	9.500000000	      -1.573	    -136.263	      13.207	      96.999	     -22.261	      17.763	      -8.987	    -127.621
	10.000000000	      -1.589	    -138.609	      12.821	      95.235	     -22.223	      16.486	      -8.945	    -129.362
	10.500000000	      -1.609	    -140.820	      12.450	      93.512	     -22.206	      15.391	      -8.905	    -130.891
	11.000000000	      -1.622	    -142.832	      12.091	      91.915	     -22.185	      14.345	      -8.867	    -132.226
	11.500000000	      -1.642	    -144.734	      11.740	      90.358	     -22.181	      13.354	      -8.825	    -133.477
	12.000000000	      -1.656	    -146.496	      11.405	      88.877	     -22.176	      12.488	      -8.775	    -134.585
	12.500000000	      -1.665	    -148.131	      11.078	      87.460	     -22.175	      11.628	      -8.722	    -135.694
	13.000000000	      -1.677	    -149.667	      10.762	      86.064	     -22.182	      10.855	      -8.673	    -136.689
	13.500000000	      -1.684	    -151.120	      10.457	      84.745	     -22.184	      10.064	      -8.614	    -137.503
	14.000000000	      -1.693	    -152.529	      10.161	      83.442	     -22.204	       9.331	      -8.558	    -138.302
	14.500000000	      -1.697	    -153.798	       9.873	      82.174	     -22.225	       8.676	      -8.507	    -139.136
	15.000000000	      -1.702	    -154.950	       9.591	      80.958	     -22.243	       8.104	      -8.460	    -139.881
	15.500000000	      -1.709	    -156.087	       9.318	      79.755	     -22.263	       7.604	      -8.407	    -140.480
	16.000000000	      -1.714	    -157.207	       9.052	      78.583	     -22.272	       7.004	      -8.342	    -141.066
	16.500000000	      -1.718	    -158.291	       8.792	      77.425	     -22.298	       6.400	      -8.283	    -141.594
	17.000000000	      -1.720	    -159.302	       8.541	      76.308	     -22.333	       5.887	      -8.231	    -142.146
	17.500000000	      -1.727	    -160.208	       8.292	      75.210	     -22.355	       5.444	      -8.166	    -142.723
	18.000000000	      -1.737	    -161.114	       8.053	      74.133	     -22.396	       4.965	      -8.105	    -143.272
	18.500000000	      -1.737	    -161.990	       7.820	      73.082	     -22.409	       4.438	      -8.034	    -143.717
	19.000000000	      -1.736	    -162.848	       7.589	      72.028	     -22.458	       3.942	      -7.971	    -144.171
	19.500000000	      -1.736	    -163.644	       7.365	      71.019	     -22.529	       3.531	      -7.920	    -144.611
	20.000000000	      -1.743	    -164.386	       7.148	      70.036	     -22.584	       3.410	      -7.869	    -144.974
	20.500000000	      -1.744	    -165.102	       6.939	      69.041	     -22.610	       3.276	      -7.798	    -145.312
	21.000000000	      -1.746	    -165.805	       6.730	      68.052	     -22.612	       2.901	      -7.726	    -145.714
	21.500000000	      -1.738	    -166.547	       6.523	      67.072	     -22.651	       2.515	      -7.658	    -146.052
	22.000000000	      -1.736	    -167.141	       6.323	      66.134	     -22.691	       2.176	      -7.592	    -146.324
	22.500000000	      -1.734	    -167.766	       6.123	      65.165	     -22.718	       1.678	      -7.529	    -146.784
	23.000000000	      -1.739	    -168.374	       5.925	      64.230	     -22.777	       1.261	      -7.465	    -147.249
	23.500000000	      -1.738	    -168.995	       5.733	      63.357	     -22.891	       1.053	      -7.408	    -147.668
	24.000000000	      -1.738	    -169.543	       5.553	      62.484	     -22.955	       1.217	      -7.354	    -147.924
	24.500000000	      -1.727	    -170.047	       5.376	      61.570	     -22.952	       1.275	      -7.289	    -148.081
	25.000000000	      -1.712	    -170.508	       5.199	      60.636	     -22.936	       0.909	      -7.222	    -148.347
	25.500000000	      -1.705	    -171.074	       5.021	      59.746	     -22.995	       0.715	      -7.149	    -148.673
	26.000000000	      -1.705	    -171.709	       4.842	      58.863	     -23.027	       0.248	      -7.065	    -149.040
	26.500000000	      -1.706	    -172.207	       4.669	      57.996	     -23.087	       0.012	      -6.992	    -149.356
	27.000000000	      -1.698	    -172.597	       4.501	      57.163	     -23.174	      -0.336	      -6.934	    -149.668
	27.500000000	      -1.692	    -172.970	       4.344	      56.381	     -23.255	      -0.273	      -6.881	    -149.862
	28.000000000	      -1.682	    -173.492	       4.191	      55.526	     -23.300	       0.042	      -6.810	    -150.162
	28.500000000	      -1.671	    -173.999	       4.035	      54.587	     -23.281	       0.015	      -6.729	    -150.465
	29.000000000	      -1.663	    -174.432	       3.872	      53.703	     -23.326	      -0.423	      -6.658	    -150.815
	29.500000000	      -1.658	    -174.818	       3.712	      52.864	     -23.395	      -0.674	      -6.594	    -151.141
	30.000000000	      -1.650	    -175.250	       3.558	      52.098	     -23.446	      -0.819	      -6.539	    -151.392
	30.500000000	      -1.642	    -175.707	       3.408	      51.248	     -23.474	      -1.167	      -6.477	    -151.721
	31.000000000	      -1.631	    -176.145	       3.256	      50.442	     -23.558	      -1.227	      -6.423	    -152.037
	31.500000000	      -1.620	    -176.587	       3.120	      49.641	     -23.645	      -0.916	      -6.371	    -152.318
	32.000000000	      -1.617	    -176.968	       2.969	      48.819	     -23.693	      -0.923	      -6.302	    -152.535
	32.500000000	      -1.625	    -177.383	       2.823	      47.961	     -23.668	      -1.096	      -6.225	    -152.728
	33.000000000	      -1.622	    -177.781	       2.681	      47.197	     -23.701	      -1.193	      -6.162	    -153.027
	33.500000000	      -1.608	    -178.154	       2.533	      46.415	     -23.791	      -1.194	      -6.101	    -153.383
	34.000000000	      -1.593	    -178.501	       2.394	      45.623	     -23.840	      -1.398	      -6.036	    -153.755
	34.500000000	      -1.591	    -178.920	       2.243	      44.779	     -23.874	      -1.409	      -5.962	    -154.016
	35.000000000	      -1.590	    -179.310	       2.099	      44.036	     -23.990	      -1.618	      -5.903	    -154.355
	35.500000000	      -1.589	    -179.692	       1.977	      43.277	     -24.028	      -1.152	      -5.852	    -154.575
	36.000000000	      -1.582	     179.968	       1.842	      42.445	     -23.976	      -1.323	      -5.779	    -154.856
	36.500000000	      -1.572	     179.672	       1.705	      41.670	     -24.038	      -1.182	      -5.720	    -155.201
	37.000000000	      -1.568	     179.402	       1.568	      40.927	     -24.054	      -1.530	      -5.658	    -155.503
	37.500000000	      -1.570	     179.026	       1.433	      40.194	     -24.115	      -1.859	      -5.607	    -155.782
	38.000000000	      -1.567	     178.653	       1.296	      39.491	     -24.253	      -1.807	      -5.553	    -156.069
	38.500000000	      -1.558	     178.300	       1.160	      38.749	     -24.239	      -2.194	      -5.484	    -156.435
	39.000000000	      -1.554	     178.014	       1.029	      38.070	     -24.397	      -2.062	      -5.432	    -156.722
	39.500000000	      -1.561	     177.729	       0.903	      37.420	     -24.471	      -1.949	      -5.368	    -157.054
	40.000000000	      -1.566	     177.394	       0.788	      36.732	     -24.518	      -1.624	      -5.303	    -157.313
	40.500000000	      -1.563	     177.025	       0.663	      36.027	     -24.498	      -1.270	      -5.233	    -157.606
	41.000000000	      -1.550	     176.775	       0.545	      35.280	     -24.554	      -1.450	      -5.168	    -158.016
	41.500000000	      -1.541	     176.598	       0.425	      34.583	     -24.607	      -1.171	      -5.134	    -158.240
	42.000000000	      -1.544	     176.310	       0.305	      33.871	     -24.658	      -1.671	      -5.072	    -158.420
	42.500000000	      -1.554	     175.960	       0.182	      33.226	     -24.742	      -1.987	      -5.021	    -158.582
	43.000000000	      -1.556	     175.750	       0.075	      32.651	     -24.832	      -1.262	      -4.954	    -158.887
	43.500000000	      -1.536	     175.559	      -0.035	      31.850	     -24.765	      -0.761	      -4.906	    -159.284
	44.000000000	      -1.547	     175.328	      -0.149	      31.163	     -24.734	      -0.822	      -4.847	    -159.617
	44.500000000	      -1.545	     174.923	      -0.275	      30.436	     -24.813	      -0.971	      -4.783	    -159.898
	45.000000000	      -1.556	     174.659	      -0.392	      29.772	     -24.865	      -0.962	      -4.720	    -160.278
	45.500000000	      -1.499	     174.275	      -0.671	      29.195	     -25.053	      -1.113	      -4.582	    -161.094
	46.000000000	      -1.479	     174.049	      -0.793	      28.602	     -25.295	      -1.399	      -4.533	    -161.486
	46.500000000	      -1.467	     173.675	      -0.902	      28.005	     -25.448	      -0.683	      -4.461	    -161.564
	47.000000000	      -1.476	     173.386	      -1.000	      27.282	     -25.375	       0.189	      -4.408	    -161.828
	47.500000000	      -1.470	     173.110	      -1.112	      26.626	     -25.380	       0.250	      -4.356	    -162.104
	48.000000000	      -1.450	     172.831	      -1.233	      26.018	     -25.412	       0.032	      -4.305	    -162.330
	48.500000000	      -1.455	     172.499	      -1.342	      25.361	     -25.404	       0.128	      -4.267	    -162.642
	49.000000000	      -1.465	     172.300	      -1.464	      24.707	     -25.494	      -0.998	      -4.206	    -162.975
	49.500000000	      -1.466	     172.129	      -1.566	      24.160	     -25.577	      -0.213	      -4.152	    -163.275
	50.000000000	      -1.442	     171.835	      -1.684	      23.541	     -25.577	       0.093	      -4.108	    -163.631
	50.500000000	      -1.440	     171.638	      -1.773	      22.971	     -25.789	       2.109	      -4.082	    -164.020
	51.000000000	      -1.435	     171.331	      -1.889	      22.438	     -25.801	       0.566	      -4.069	    -164.383
	51.500000000	      -1.427	     171.214	      -1.987	      21.808	     -25.676	       1.877	      -4.020	    -164.686
	52.000000000	      -1.407	     170.989	      -2.091	      21.091	     -25.765	       2.060	      -3.974	    -164.885
	52.500000000	      -1.405	     170.609	      -2.204	      20.529	     -25.656	       1.161	      -3.930	    -165.120
	53.000000000	      -1.399	     170.304	      -2.305	      19.910	     -25.719	       1.274	      -3.886	    -165.169
	53.500000000	      -1.395	     170.115	      -2.415	      19.449	     -25.720	       0.253	      -3.829	    -165.408
	54.000000000	      -1.386	     169.914	      -2.500	      18.872	     -25.821	       1.549	      -3.770	    -165.697
	54.500000000	      -1.389	     169.526	      -2.588	      18.361	     -25.772	       0.923	      -3.728	    -165.900
	55.000000000	      -1.395	     169.176	      -2.677	      17.658	     -25.817	       1.756	      -3.681	    -166.135
	55.500000000	      -1.387	     168.904	      -2.766	      17.128	     -25.858	       1.104	      -3.628	    -166.461
	56.000000000	      -1.374	     168.625	      -2.861	      16.447	     -25.598	      -0.625	      -3.582	    -166.919
	56.500000000	      -1.374	     168.470	      -2.959	      15.766	     -25.922	      -0.329	      -3.578	    -167.557
	57.000000000	      -1.385	     168.259	      -3.068	      15.219	     -26.066	       1.200	      -3.550	    -167.710
	57.500000000	      -1.376	     168.157	      -3.182	      14.655	     -26.157	       1.117	      -3.513	    -167.919
	58.000000000	      -1.369	     168.059	      -3.247	      14.101	     -26.228	       1.563	      -3.479	    -168.239
	58.500000000	      -1.337	     167.755	      -3.348	      13.485	     -26.057	       1.445	      -3.451	    -168.437
	59.000000000	      -1.319	     167.410	      -3.425	      12.748	     -26.016	       2.780	      -3.390	    -168.616
	59.500000000	      -1.329	     167.342	      -3.518	      12.056	     -26.077	       2.534	      -3.356	    -169.009
	60.000000000	      -1.332	     167.062	      -3.603	      11.616	     -26.294	       1.951	      -3.360	    -169.386
	60.500000000	      -1.300	     166.893	      -3.700	      10.947	     -26.147	       1.130	      -3.358	    -169.480
	61.000000000	      -1.268	     166.484	      -3.831	      10.466	     -26.335	       1.605	      -3.310	    -169.578
	61.500000000	      -1.270	     166.347	      -3.925	      10.019	     -26.429	       1.647	      -3.286	    -169.763
	62.000000000	      -1.250	     166.063	      -3.973	       9.343	     -26.583	       2.932	      -3.265	    -169.735
	62.500000000	      -1.254	     165.763	      -4.078	       8.762	     -26.471	       1.170	      -3.252	    -170.048
	63.000000000	      -1.238	     165.316	      -4.133	       8.106	     -26.479	       2.777	      -3.197	    -169.980
	63.500000000	      -1.229	     165.165	      -4.226	       7.326	     -26.544	       4.139	      -3.134	    -170.426
	64.000000000	      -1.227	     165.301	      -4.303	       6.549	     -26.377	       2.507	      -3.083	    -170.375
	64.500000000	      -1.210	     165.156	      -4.395	       6.012	     -26.616	       0.785	      -3.074	    -170.373
	65.000000000	      -1.226	     164.728	      -4.510	       5.153	     -26.112	       3.337	      -2.990	    -170.462
	65.500000000	      -1.205	     164.256	      -4.639	       4.447	     -26.338	       2.019	      -2.977	    -171.347
	66.000000000	      -1.200	     164.037	      -4.716	       3.716	     -26.561	       3.671	      -2.932	    -171.738
	66.500000000	      -1.226	     163.814	      -4.822	       2.904	     -26.367	       3.442	      -2.920	    -171.614
	67.000000000	      -1.285	     163.391	      -4.965	       2.464	     -26.187	       2.189	      -2.942	    -171.678
	67.500000000	      -1.254	     162.837	      -5.090	       1.571	     -26.313	       2.694	      -2.891	    -172.100
	68.000000000	      -1.289	     162.651	      -5.188	       1.024	     -26.288	       2.683	      -2.909	    -172.384
	68.500000000	      -1.318	     162.455	      -5.285	       0.481	     -26.330	       2.018	      -2.857	    -172.432
	69.000000000	      -1.344	     162.281	      -5.417	       0.012	     -26.330	       1.753	      -2.801	    -172.732
	69.500000000	      -1.339	     162.082	      -5.533	      -0.409	     -26.462	       1.859	      -2.787	    -172.838
	70.000000000	      -1.323	     161.928	      -5.623	      -0.839	     -26.520	       2.254	      -2.756	    -172.917
	70.500000000	      -1.306	     161.740	      -5.724	      -1.228	     -26.475	       2.647	      -2.722	    -173.054
	71.000000000	      -1.298	     161.515	      -5.801	      -1.647	     -26.439	       2.460	      -2.691	    -173.191
	71.500000000	      -1.263	     161.333	      -5.906	      -2.212	     -26.441	       2.311	      -2.623	    -173.398
	72.000000000	      -1.254	     161.085	      -6.008	      -2.606	     -26.408	       1.795	      -2.631	    -173.669
	72.500000000	      -1.274	     160.727	      -6.096	      -3.211	     -26.423	       0.873	      -2.606	    -173.920
	73.000000000	      -1.293	     160.486	      -6.186	      -3.829	     -26.527	       0.590	      -2.564	    -174.059
	73.500000000	      -1.313	     160.437	      -6.293	      -4.389	     -26.648	       0.624	      -2.490	    -174.317
	74.000000000	      -1.319	     160.203	      -6.392	      -4.862	     -26.712	       0.842	      -2.482	    -174.841
	74.500000000	      -1.344	     159.985	      -6.475	      -5.351	     -26.739	       0.954	      -2.494	    -175.054
	75.000000000	      -1.373	     159.926	      -6.575	      -5.939	     -26.783	       0.812	      -2.474	    -175.178
	75.500000000	      -1.392	     159.929	      -6.695	      -6.607	     -26.941	       0.477	      -2.470	    -175.348
	76.000000000	      -1.392	     159.982	      -6.820	      -7.173	     -27.219	       0.732	      -2.477	    -175.485
	76.500000000	      -1.385	     160.047	      -6.976	      -7.518	     -27.544	       3.070	      -2.483	    -175.424
	77.000000000	      -1.373	     160.055	      -7.119	      -7.625	     -27.574	       7.020	      -2.432	    -175.290
	77.500000000	      -1.310	     160.054	      -7.197	      -7.365	     -27.122	      10.263	      -2.362	    -175.305
	78.000000000	      -1.228	     159.945	      -7.233	      -7.307	     -26.560	      11.132	      -2.303	    -175.357
	78.500000000	      -1.162	     159.431	      -7.247	      -7.667	     -26.130	      10.509	      -2.263	    -175.648
	79.000000000	      -1.158	     158.862	      -7.292	      -8.193	     -25.837	       9.107	      -2.205	    -175.975
	79.500000000	      -1.153	     158.277	      -7.311	      -8.826	     -25.555	       7.448	      -2.166	    -176.229
