!File name = EG0520U_1010_6x60_2SDBCB2EV_1915934D06_RC7325_4Vd_45mA.s2p
!Base file name = EG0520U_1010_6x60_2SDBCB2EV_1915934D06_RC7325
!Date = 8/23/2019
!Time = 1:11 PM
!Test duration(min) = 0.15
!Test = S-Parameters
!MPTS version = 8.91.5
!State File = C:\Data\PNA\20190821205423\S-Parameters_2019-08-23.sta
!Cal File = 
!ComputerName = CMPE-LAB-6
!Comments = 
!Attenuation = 0
!Z0 = 50
!Input Power(dBm) = -13.00
!Device ID = EG0520U_1010_6x60_2SDBCB2EV
!Row = 73
!Column = 25
!Technology = QPHT09
!Lot/Wafer = 1915934D06
!Gate Size = 360
!Mask = EG0520
!Cal Standards = GaAs BCB
!Cal Kit = EG2306
!Job Number = 20190821205423
!Device Type = FET
!set_Vg(v) = -1.500
!set_Vd(v) = 4.000
!set_Vd(mA) = 45.000
!file_name = EG0520U_1010_6x60_2SDBCB2EV_1915934D06_RC7325_4Vd_45mA.s2p
!Vd(V) = 4.000
!Vd(mA) = 45.199
!Vg(V) = -0.523
!Vg(mA) = -0.004
# GHz   S   DB   R   50
!%	Freq(GHz)	     s11(dB)	    s11(deg)	     s21(dB)	    s21(deg)	     s12(dB)	    s12(deg)	     s22(dB)	    s22(deg)
	0.500000000	      -0.067	     -14.743	      22.149	     170.958	     -39.336	      80.975	      -8.512	     -14.651
	1.000000000	      -0.152	     -29.117	      21.706	     162.528	     -33.560	      73.477	      -8.576	     -27.901
	1.500000000	      -0.193	     -42.667	      21.340	     155.047	     -30.411	      66.216	      -8.576	     -40.672
	2.000000000	      -0.329	     -54.905	      21.079	     147.764	     -28.405	      59.468	      -8.631	     -53.119
	2.500000000	      -0.425	     -66.272	      20.624	     141.326	     -27.025	      53.676	      -8.780	     -63.257
	3.000000000	      -0.810	     -73.904	      19.937	     136.141	     -26.218	      49.297	      -9.178	     -67.308
	3.500000000	      -0.925	     -82.681	      19.371	     131.076	     -25.464	      44.917	      -9.275	     -75.054
	4.000000000	      -1.020	     -90.424	      18.805	     126.579	     -24.894	      41.026	      -9.355	     -81.885
	4.500000000	      -1.121	     -97.279	      18.243	     122.450	     -24.467	      37.522	      -9.422	     -88.119
	5.000000000	      -1.192	    -103.376	      17.685	     118.808	     -24.127	      34.527	      -9.491	     -93.393
	5.500000000	      -1.259	    -108.842	      17.151	     115.444	     -23.861	      31.867	      -9.555	     -98.052
	6.000000000	      -1.317	    -113.716	      16.622	     112.420	     -23.644	      29.477	      -9.577	    -102.109
	6.500000000	      -1.363	    -118.045	      16.117	     109.668	     -23.472	      27.311	      -9.594	    -105.696
	7.000000000	      -1.404	    -121.957	      15.632	     107.103	     -23.335	      25.400	      -9.599	    -108.868
	7.500000000	      -1.432	    -125.478	      15.160	     104.740	     -23.220	      23.698	      -9.594	    -111.669
	8.000000000	      -1.443	    -128.454	      14.726	     102.666	     -23.104	      22.271	      -9.609	    -113.484
	8.500000000	      -1.470	    -131.422	      14.289	     100.612	     -23.021	      20.763	      -9.601	    -115.744
	9.000000000	      -1.498	    -134.086	      13.864	      98.688	     -22.958	      19.360	      -9.579	    -117.729
	9.500000000	      -1.517	    -136.566	      13.465	      96.821	     -22.906	      18.060	      -9.550	    -119.552
	10.000000000	      -1.530	    -138.861	      13.078	      95.073	     -22.880	      16.831	      -9.525	    -121.176
	10.500000000	      -1.550	    -141.000	      12.705	      93.375	     -22.861	      15.802	      -9.493	    -122.705
	11.000000000	      -1.561	    -142.954	      12.344	      91.791	     -22.837	      14.796	      -9.459	    -123.972
	11.500000000	      -1.578	    -144.802	      11.993	      90.250	     -22.831	      13.849	      -9.417	    -125.185
	12.000000000	      -1.590	    -146.512	      11.659	      88.792	     -22.830	      13.017	      -9.364	    -126.244
	12.500000000	      -1.597	    -148.097	      11.331	      87.375	     -22.825	      12.209	      -9.307	    -127.356
	13.000000000	      -1.605	    -149.592	      11.016	      85.986	     -22.829	      11.458	      -9.254	    -128.314
	13.500000000	      -1.614	    -151.015	      10.710	      84.669	     -22.842	      10.658	      -9.192	    -129.108
	14.000000000	      -1.625	    -152.363	      10.412	      83.387	     -22.857	      10.017	      -9.129	    -129.845
	14.500000000	      -1.628	    -153.580	      10.124	      82.133	     -22.878	       9.450	      -9.074	    -130.658
	15.000000000	      -1.631	    -154.679	       9.842	      80.924	     -22.896	       8.891	      -9.019	    -131.349
	15.500000000	      -1.635	    -155.770	       9.570	      79.732	     -22.908	       8.408	      -8.954	    -131.936
	16.000000000	      -1.639	    -156.861	       9.305	      78.561	     -22.918	       7.775	      -8.880	    -132.494
	16.500000000	      -1.643	    -157.913	       9.046	      77.411	     -22.949	       7.216	      -8.812	    -133.038
	17.000000000	      -1.643	    -158.896	       8.796	      76.296	     -22.988	       6.742	      -8.750	    -133.509
	17.500000000	      -1.650	    -159.778	       8.546	      75.198	     -23.008	       6.310	      -8.677	    -134.091
	18.000000000	      -1.658	    -160.639	       8.309	      74.132	     -23.053	       5.810	      -8.606	    -134.627
	18.500000000	      -1.659	    -161.495	       8.076	      73.084	     -23.067	       5.327	      -8.526	    -135.044
	19.000000000	      -1.657	    -162.316	       7.846	      72.042	     -23.124	       4.905	      -8.454	    -135.461
	19.500000000	      -1.654	    -163.092	       7.624	      71.031	     -23.186	       4.563	      -8.390	    -135.863
	20.000000000	      -1.660	    -163.824	       7.406	      70.034	     -23.247	       4.411	      -8.330	    -136.226
	20.500000000	      -1.662	    -164.512	       7.198	      69.042	     -23.271	       4.317	      -8.250	    -136.556
	21.000000000	      -1.661	    -165.184	       6.990	      68.061	     -23.283	       4.092	      -8.166	    -136.914
	21.500000000	      -1.653	    -165.909	       6.785	      67.077	     -23.318	       3.777	      -8.086	    -137.234
	22.000000000	      -1.643	    -166.513	       6.586	      66.115	     -23.337	       3.309	      -8.007	    -137.583
	22.500000000	      -1.641	    -167.152	       6.386	      65.134	     -23.368	       2.899	      -7.939	    -137.942
	23.000000000	      -1.646	    -167.748	       6.189	      64.200	     -23.422	       2.548	      -7.862	    -138.400
	23.500000000	      -1.647	    -168.391	       5.995	      63.284	     -23.525	       2.028	      -7.793	    -138.892
	24.000000000	      -1.655	    -169.015	       5.807	      62.425	     -23.650	       2.093	      -7.738	    -139.118
	24.500000000	      -1.648	    -169.429	       5.632	      61.539	     -23.653	       2.307	      -7.663	    -139.205
	25.000000000	      -1.635	    -169.871	       5.455	      60.612	     -23.655	       2.109	      -7.579	    -139.427
	25.500000000	      -1.635	    -170.433	       5.274	      59.725	     -23.699	       1.926	      -7.495	    -139.757
	26.000000000	      -1.637	    -171.033	       5.099	      58.857	     -23.735	       1.581	      -7.402	    -140.194
	26.500000000	      -1.631	    -171.506	       4.928	      57.978	     -23.786	       1.238	      -7.319	    -140.532
	27.000000000	      -1.623	    -171.901	       4.759	      57.127	     -23.856	       0.782	      -7.253	    -140.852
	27.500000000	      -1.625	    -172.257	       4.596	      56.365	     -24.016	       1.152	      -7.200	    -140.993
	28.000000000	      -1.622	    -172.781	       4.441	      55.527	     -24.085	       1.469	      -7.127	    -141.283
	28.500000000	      -1.605	    -173.245	       4.294	      54.609	     -24.031	       1.956	      -7.020	    -141.572
	29.000000000	      -1.597	    -173.706	       4.129	      53.689	     -24.041	       1.569	      -6.946	    -141.971
	29.500000000	      -1.592	    -174.135	       3.969	      52.866	     -24.095	       1.084	      -6.869	    -142.281
	30.000000000	      -1.594	    -174.527	       3.813	      52.087	     -24.172	       0.840	      -6.808	    -142.535
	30.500000000	      -1.597	    -174.961	       3.662	      51.261	     -24.221	       0.764	      -6.743	    -142.869
	31.000000000	      -1.587	    -175.394	       3.510	      50.466	     -24.263	       0.565	      -6.679	    -143.182
	31.500000000	      -1.574	    -175.781	       3.374	      49.725	     -24.373	       1.132	      -6.611	    -143.436
	32.000000000	      -1.571	    -176.148	       3.231	      48.863	     -24.423	       1.355	      -6.538	    -143.689
	32.500000000	      -1.580	    -176.506	       3.086	      47.981	     -24.393	       1.406	      -6.451	    -143.910
	33.000000000	      -1.577	    -176.958	       2.942	      47.209	     -24.396	       1.100	      -6.393	    -144.217
	33.500000000	      -1.568	    -177.338	       2.794	      46.434	     -24.507	       1.080	      -6.322	    -144.613
	34.000000000	      -1.559	    -177.667	       2.650	      45.660	     -24.553	       0.934	      -6.248	    -145.032
	34.500000000	      -1.562	    -178.007	       2.503	      44.779	     -24.592	       0.780	      -6.166	    -145.305
	35.000000000	      -1.563	    -178.401	       2.362	      44.104	     -24.710	       0.688	      -6.104	    -145.704
	35.500000000	      -1.560	    -178.746	       2.242	      43.341	     -24.746	       1.190	      -6.054	    -145.871
	36.000000000	      -1.554	    -179.073	       2.115	      42.569	     -24.724	       1.365	      -5.970	    -146.215
	36.500000000	      -1.538	    -179.283	       1.986	      41.788	     -24.740	       1.545	      -5.896	    -146.517
	37.000000000	      -1.534	    -179.537	       1.854	      41.023	     -24.766	       0.850	      -5.835	    -146.817
	37.500000000	      -1.532	    -179.947	       1.722	      40.271	     -24.907	       0.790	      -5.782	    -147.083
	38.000000000	      -1.526	     179.699	       1.589	      39.524	     -24.906	       0.883	      -5.720	    -147.395
	38.500000000	      -1.515	     179.339	       1.454	      38.776	     -25.003	       0.275	      -5.646	    -147.852
	39.000000000	      -1.504	     179.115	       1.333	      38.102	     -25.074	       0.865	      -5.583	    -148.185
	39.500000000	      -1.497	     178.883	       1.213	      37.405	     -25.128	       1.213	      -5.517	    -148.539
	40.000000000	      -1.489	     178.440	       1.102	      36.586	     -25.139	       1.653	      -5.446	    -148.856
	40.500000000	      -1.486	     177.974	       0.974	      35.812	     -25.174	       1.240	      -5.380	    -149.227
	41.000000000	      -1.471	     177.637	       0.849	      35.066	     -25.159	       1.208	      -5.326	    -149.590
	41.500000000	      -1.467	     177.436	       0.732	      34.342	     -25.265	       1.370	      -5.284	    -149.814
	42.000000000	      -1.476	     177.151	       0.609	      33.639	     -25.342	       1.271	      -5.207	    -150.022
	42.500000000	      -1.490	     176.767	       0.483	      33.005	     -25.449	       1.274	      -5.146	    -150.128
	43.000000000	      -1.485	     176.556	       0.382	      32.345	     -25.531	       2.378	      -5.086	    -150.494
	43.500000000	      -1.474	     176.292	       0.267	      31.527	     -25.515	       2.203	      -5.025	    -150.923
	44.000000000	      -1.477	     176.076	       0.151	      30.823	     -25.431	       2.446	      -4.958	    -151.353
	44.500000000	      -1.490	     175.632	       0.025	      30.071	     -25.544	       1.812	      -4.899	    -151.654
	45.000000000	      -1.501	     175.314	      -0.091	      29.371	     -25.556	       2.120	      -4.834	    -152.051
	45.500000000	      -1.447	     174.936	      -0.369	      28.766	     -25.761	       1.908	      -4.710	    -153.213
	46.000000000	      -1.428	     174.713	      -0.493	      28.147	     -25.805	       1.007	      -4.662	    -153.592
	46.500000000	      -1.413	     174.324	      -0.591	      27.523	     -26.023	       2.475	      -4.581	    -153.720
	47.000000000	      -1.417	     173.960	      -0.700	      26.769	     -26.094	       2.900	      -4.522	    -154.044
	47.500000000	      -1.417	     173.689	      -0.810	      26.085	     -26.063	       3.940	      -4.484	    -154.278
	48.000000000	      -1.397	     173.376	      -0.933	      25.421	     -25.921	       2.726	      -4.434	    -154.504
	48.500000000	      -1.393	     173.036	      -1.041	      24.731	     -26.015	       3.536	      -4.350	    -154.867
	49.000000000	      -1.411	     172.842	      -1.152	      24.088	     -26.071	       2.505	      -4.303	    -155.112
	49.500000000	      -1.415	     172.584	      -1.260	      23.478	     -26.130	       2.337	      -4.230	    -155.541
	50.000000000	      -1.403	     172.302	      -1.380	      22.926	     -26.207	       4.327	      -4.190	    -155.834
	50.500000000	      -1.397	     171.970	      -1.462	      22.248	     -26.255	       4.492	      -4.183	    -156.378
	51.000000000	      -1.377	     171.758	      -1.583	      21.650	     -26.425	       5.171	      -4.162	    -156.727
	51.500000000	      -1.373	     171.601	      -1.684	      20.891	     -26.199	       5.464	      -4.092	    -157.087
	52.000000000	      -1.353	     171.336	      -1.791	      20.228	     -26.295	       4.293	      -4.056	    -157.449
	52.500000000	      -1.363	     170.952	      -1.905	      19.646	     -26.287	       4.779	      -4.009	    -157.551
	53.000000000	      -1.353	     170.555	      -2.009	      19.019	     -26.358	       4.412	      -3.976	    -157.744
	53.500000000	      -1.347	     170.386	      -2.114	      18.482	     -26.452	       5.101	      -3.909	    -158.057
	54.000000000	      -1.349	     170.148	      -2.213	      17.934	     -26.365	       5.138	      -3.844	    -158.372
	54.500000000	      -1.343	     169.738	      -2.303	      17.270	     -26.365	       5.594	      -3.806	    -158.591
	55.000000000	      -1.353	     169.285	      -2.389	      16.667	     -26.334	       5.540	      -3.747	    -158.773
	55.500000000	      -1.341	     168.982	      -2.484	      15.997	     -26.419	       5.224	      -3.697	    -159.185
	56.000000000	      -1.330	     168.651	      -2.550	      15.217	     -26.792	       4.762	      -3.660	    -159.717
	56.500000000	      -1.343	     168.345	      -2.698	      14.565	     -26.441	       5.153	      -3.637	    -160.184
	57.000000000	      -1.336	     168.306	      -2.779	      14.030	     -26.585	       4.405	      -3.627	    -160.362
	57.500000000	      -1.333	     168.032	      -2.890	      13.340	     -26.548	       3.367	      -3.558	    -160.848
	58.000000000	      -1.314	     167.974	      -2.981	      12.770	     -26.757	       4.938	      -3.530	    -161.040
	58.500000000	      -1.305	     167.584	      -3.063	      12.209	     -26.902	       5.215	      -3.480	    -161.354
	59.000000000	      -1.299	     167.361	      -3.160	      11.330	     -26.593	       5.990	      -3.439	    -161.635
	59.500000000	      -1.292	     167.085	      -3.241	      10.643	     -26.587	       7.795	      -3.356	    -161.954
	60.000000000	      -1.300	     166.855	      -3.336	      10.054	     -26.587	       5.914	      -3.407	    -162.271
	60.500000000	      -1.270	     166.694	      -3.451	       9.360	     -26.832	       4.671	      -3.372	    -162.427
	61.000000000	      -1.236	     166.342	      -3.549	       8.784	     -27.232	       5.530	      -3.318	    -162.647
	61.500000000	      -1.230	     166.004	      -3.664	       8.386	     -27.036	       7.452	      -3.303	    -163.011
	62.000000000	      -1.219	     165.836	      -3.714	       7.710	     -27.071	       5.608	      -3.239	    -162.953
	62.500000000	      -1.238	     165.432	      -3.810	       6.943	     -26.712	       6.937	      -3.260	    -163.117
	63.000000000	      -1.211	     164.931	      -3.890	       6.411	     -26.949	       7.085	      -3.183	    -163.190
	63.500000000	      -1.205	     164.819	      -3.974	       5.564	     -26.901	       7.544	      -3.119	    -163.651
	64.000000000	      -1.212	     164.826	      -4.040	       4.708	     -26.697	       8.938	      -3.038	    -163.616
	64.500000000	      -1.185	     164.655	      -4.127	       3.985	     -26.923	       8.557	      -2.990	    -163.680
	65.000000000	      -1.198	     164.309	      -4.240	       3.028	     -26.896	       6.855	      -2.920	    -164.100
	65.500000000	      -1.191	     163.792	      -4.371	       2.227	     -26.644	       7.331	      -2.890	    -164.803
	66.000000000	      -1.191	     163.405	      -4.514	       1.357	     -26.970	       6.727	      -2.871	    -165.575
	66.500000000	      -1.199	     163.258	      -4.632	       0.614	     -26.576	      10.233	      -2.823	    -165.244
	67.000000000	      -1.254	     162.886	      -4.705	       0.001	     -26.138	       5.330	      -2.826	    -165.503
	67.500000000	      -1.243	     162.154	      -4.875	      -0.891	     -26.667	       6.688	      -2.821	    -166.003
	68.000000000	      -1.286	     161.885	      -4.972	      -1.504	     -26.602	       6.553	      -2.862	    -166.320
	68.500000000	      -1.321	     161.602	      -5.083	      -2.147	     -26.582	       5.957	      -2.812	    -166.613
	69.000000000	      -1.351	     161.387	      -5.216	      -2.692	     -26.663	       5.079	      -2.739	    -166.904
	69.500000000	      -1.348	     161.188	      -5.344	      -3.218	     -26.759	       4.900	      -2.729	    -167.099
	70.000000000	      -1.332	     160.965	      -5.446	      -3.785	     -26.790	       5.383	      -2.700	    -167.214
	70.500000000	      -1.317	     160.775	      -5.560	      -4.268	     -26.727	       5.453	      -2.664	    -167.390
	71.000000000	      -1.313	     160.563	      -5.642	      -4.731	     -26.738	       5.006	      -2.625	    -167.715
	71.500000000	      -1.264	     160.342	      -5.768	      -5.277	     -26.702	       4.411	      -2.559	    -167.964
	72.000000000	      -1.273	     160.081	      -5.905	      -5.820	     -26.692	       3.146	      -2.566	    -168.225
	72.500000000	      -1.289	     159.692	      -6.028	      -6.511	     -26.825	       2.031	      -2.535	    -168.547
	73.000000000	      -1.324	     159.437	      -6.144	      -7.091	     -27.055	       1.382	      -2.500	    -168.757
	73.500000000	      -1.347	     159.330	      -6.277	      -7.593	     -27.309	       1.318	      -2.433	    -169.137
	74.000000000	      -1.354	     159.056	      -6.394	      -7.966	     -27.493	       2.300	      -2.436	    -169.688
	74.500000000	      -1.390	     158.812	      -6.496	      -8.353	     -27.585	       3.108	      -2.449	    -169.923
	75.000000000	      -1.426	     158.712	      -6.606	      -8.833	     -27.668	       3.579	      -2.439	    -170.073
	75.500000000	      -1.458	     158.711	      -6.735	      -9.303	     -27.918	       4.489	      -2.435	    -170.221
	76.000000000	      -1.469	     158.770	      -6.853	      -9.671	     -28.242	       6.688	      -2.442	    -170.331
	76.500000000	      -1.464	     158.956	      -6.979	      -9.750	     -28.288	      11.561	      -2.425	    -170.265
	77.000000000	      -1.440	     158.954	      -7.051	      -9.827	     -27.753	      15.785	      -2.363	    -170.179
	77.500000000	      -1.361	     158.841	      -7.079	      -9.864	     -27.007	      17.256	      -2.281	    -170.341
	78.000000000	      -1.266	     158.524	      -7.077	     -10.174	     -26.331	      16.285	      -2.245	    -170.548
	78.500000000	      -1.228	     157.974	      -7.102	     -11.004	     -25.869	      13.974	      -2.196	    -170.869
	79.000000000	      -1.267	     157.336	      -7.171	     -11.978	     -25.598	      11.144	      -2.134	    -171.158
	79.500000000	      -1.290	     156.820	      -7.242	     -12.850	     -25.418	       8.788	      -2.087	    -171.456
