!File name = EG0520U_1010_6x60_2SDBCB2EV_1915934D06_RC2952_4Vd_18mA.s2p
!Base file name = EG0520U_1010_6x60_2SDBCB2EV_1915934D06_RC2952
!Date = 8/23/2019
!Time = 1:16 PM
!Test duration(min) = 0.15
!Test = S-Parameters
!MPTS version = 8.91.5
!State File = C:\Data\PNA\20190821205423\S-Parameters_2019-08-23.sta
!Cal File = 
!ComputerName = CMPE-LAB-6
!Comments = 
!Attenuation = 0
!Z0 = 50
!Input Power(dBm) = -13.00
!Device ID = EG0520U_1010_6x60_2SDBCB2EV
!Row = 29
!Column = 52
!Technology = QPHT09
!Lot/Wafer = 1915934D06
!Gate Size = 360
!Mask = EG0520
!Cal Standards = GaAs BCB
!Cal Kit = EG2306
!Job Number = 20190821205423
!Device Type = FET
!set_Vg(v) = -1.500
!set_Vd(v) = 4.000
!set_Vd(mA) = 18.000
!file_name = EG0520U_1010_6x60_2SDBCB2EV_1915934D06_RC2952_4Vd_18mA.s2p
!Vd(V) = 4.000
!Vd(mA) = 17.894
!Vg(V) = -0.636
!Vg(mA) = -0.009
# GHz   S   DB   R   50
!%	Freq(GHz)	     s11(dB)	    s11(deg)	     s21(dB)	    s21(deg)	     s12(dB)	    s12(deg)	     s22(dB)	    s22(deg)
	0.500000000	      -0.089	     -12.707	      19.889	     171.964	     -37.735	      80.487	      -6.452	     -11.337
	1.000000000	      -0.172	     -25.185	      19.590	     164.066	     -31.915	      74.393	      -6.551	     -21.905
	1.500000000	      -0.208	     -37.120	      19.304	     157.538	     -28.681	      67.884	      -6.635	     -32.290
	2.000000000	      -0.348	     -48.196	      19.065	     150.386	     -26.584	      61.490	      -6.787	     -42.678
	2.500000000	      -0.443	     -58.733	      18.698	     144.284	     -25.127	      56.050	      -7.048	     -51.383
	3.000000000	      -0.824	     -65.905	      18.059	     138.969	     -24.260	      51.673	      -7.432	     -55.014
	3.500000000	      -0.941	     -74.505	      17.613	     133.958	     -23.420	      47.280	      -7.630	     -61.975
	4.000000000	      -1.054	     -82.138	      17.124	     129.393	     -22.775	      43.311	      -7.818	     -68.293
	4.500000000	      -1.187	     -88.955	      16.613	     125.037	     -22.282	      39.618	      -7.996	     -74.278
	5.000000000	      -1.270	     -95.209	      16.121	     121.277	     -21.891	      36.411	      -8.170	     -79.474
	5.500000000	      -1.358	    -100.848	      15.633	     117.715	     -21.587	      33.599	      -8.347	     -84.161
	6.000000000	      -1.435	    -106.036	      15.160	     114.436	     -21.325	      30.955	      -8.460	     -88.370
	6.500000000	      -1.495	    -110.627	      14.692	     111.493	     -21.117	      28.577	      -8.567	     -92.186
	7.000000000	      -1.555	    -114.819	      14.237	     108.683	     -20.948	      26.417	      -8.651	     -95.604
	7.500000000	      -1.599	    -118.638	      13.793	     106.099	     -20.812	      24.430	      -8.721	     -98.763
	8.000000000	      -1.622	    -121.877	      13.381	     103.815	     -20.683	      22.799	      -8.782	    -100.967
	8.500000000	      -1.663	    -125.132	      12.967	     101.541	     -20.584	      21.097	      -8.833	    -103.537
	9.000000000	      -1.703	    -128.030	      12.556	      99.408	     -20.498	      19.485	      -8.865	    -105.910
	9.500000000	      -1.733	    -130.790	      12.174	      97.315	     -20.430	      17.944	      -8.885	    -108.042
	10.000000000	      -1.756	    -133.335	      11.798	      95.370	     -20.389	      16.501	      -8.903	    -110.063
	10.500000000	      -1.787	    -135.721	      11.434	      93.465	     -20.357	      15.249	      -8.914	    -111.898
	11.000000000	      -1.804	    -137.881	      11.085	      91.719	     -20.323	      14.076	      -8.912	    -113.504
	11.500000000	      -1.827	    -139.927	      10.742	      89.994	     -20.298	      12.923	      -8.897	    -115.043
	12.000000000	      -1.843	    -141.856	      10.417	      88.368	     -20.287	      11.842	      -8.870	    -116.430
	12.500000000	      -1.850	    -143.664	      10.101	      86.807	     -20.276	      10.811	      -8.836	    -117.875
	13.000000000	      -1.863	    -145.353	       9.790	      85.227	     -20.272	       9.827	      -8.802	    -119.189
	13.500000000	      -1.876	    -146.966	       9.490	      83.746	     -20.279	       8.845	      -8.764	    -120.340
	14.000000000	      -1.889	    -148.498	       9.197	      82.304	     -20.293	       8.011	      -8.718	    -121.342
	14.500000000	      -1.894	    -149.895	       8.915	      80.899	     -20.312	       7.226	      -8.677	    -122.431
	15.000000000	      -1.899	    -151.145	       8.634	      79.547	     -20.328	       6.519	      -8.635	    -123.401
	15.500000000	      -1.906	    -152.380	       8.365	      78.210	     -20.333	       5.815	      -8.580	    -124.239
	16.000000000	      -1.910	    -153.607	       8.104	      76.899	     -20.335	       5.052	      -8.513	    -125.072
	16.500000000	      -1.914	    -154.804	       7.847	      75.604	     -20.358	       4.299	      -8.451	    -125.872
	17.000000000	      -1.913	    -155.926	       7.601	      74.354	     -20.387	       3.621	      -8.395	    -126.592
	17.500000000	      -1.920	    -156.937	       7.353	      73.116	     -20.404	       2.970	      -8.325	    -127.421
	18.000000000	      -1.929	    -157.937	       7.119	      71.908	     -20.444	       2.294	      -8.261	    -128.201
	18.500000000	      -1.929	    -158.914	       6.887	      70.726	     -20.464	       1.652	      -8.185	    -128.861
	19.000000000	      -1.929	    -159.859	       6.657	      69.547	     -20.509	       1.032	      -8.115	    -129.495
	19.500000000	      -1.927	    -160.751	       6.433	      68.407	     -20.566	       0.520	      -8.054	    -130.115
	20.000000000	      -1.931	    -161.568	       6.218	      67.297	     -20.617	       0.170	      -7.990	    -130.689
	20.500000000	      -1.932	    -162.369	       6.012	      66.177	     -20.632	      -0.127	      -7.909	    -131.243
	21.000000000	      -1.932	    -163.186	       5.801	      65.065	     -20.647	      -0.729	      -7.827	    -131.866
	21.500000000	      -1.924	    -163.970	       5.596	      63.967	     -20.676	      -1.276	      -7.746	    -132.395
	22.000000000	      -1.920	    -164.624	       5.395	      62.910	     -20.723	      -1.828	      -7.673	    -132.922
	22.500000000	      -1.913	    -165.325	       5.197	      61.811	     -20.755	      -2.321	      -7.609	    -133.435
	23.000000000	      -1.913	    -166.020	       5.000	      60.750	     -20.794	      -2.923	      -7.525	    -134.136
	23.500000000	      -1.914	    -166.756	       4.806	      59.738	     -20.895	      -3.454	      -7.453	    -134.765
	24.000000000	      -1.916	    -167.424	       4.620	      58.754	     -20.980	      -3.693	      -7.389	    -135.223
	24.500000000	      -1.904	    -167.930	       4.442	      57.736	     -21.006	      -3.840	      -7.314	    -135.564
	25.000000000	      -1.888	    -168.443	       4.264	      56.697	     -21.039	      -4.161	      -7.233	    -135.948
	25.500000000	      -1.882	    -169.080	       4.084	      55.703	     -21.071	      -4.466	      -7.148	    -136.458
	26.000000000	      -1.884	    -169.799	       3.903	      54.703	     -21.118	      -4.990	      -7.054	    -137.052
	26.500000000	      -1.881	    -170.364	       3.726	      53.727	     -21.155	      -5.578	      -6.975	    -137.548
	27.000000000	      -1.874	    -170.801	       3.554	      52.780	     -21.215	      -6.010	      -6.903	    -138.018
	27.500000000	      -1.879	    -171.243	       3.382	      51.909	     -21.336	      -6.262	      -6.847	    -138.346
	28.000000000	      -1.882	    -171.784	       3.225	      51.021	     -21.426	      -6.161	      -6.772	    -138.800
	28.500000000	      -1.865	    -172.258	       3.077	      50.041	     -21.439	      -6.231	      -6.676	    -139.280
	29.000000000	      -1.850	    -172.724	       2.910	      49.040	     -21.454	      -6.459	      -6.600	    -139.790
	29.500000000	      -1.839	    -173.206	       2.753	      48.107	     -21.498	      -6.965	      -6.517	    -140.191
	30.000000000	      -1.836	    -173.633	       2.595	      47.240	     -21.555	      -7.196	      -6.454	    -140.562
	30.500000000	      -1.833	    -174.139	       2.443	      46.307	     -21.619	      -7.627	      -6.386	    -141.022
	31.000000000	      -1.824	    -174.621	       2.289	      45.400	     -21.663	      -7.948	      -6.319	    -141.517
	31.500000000	      -1.808	    -175.039	       2.148	      44.559	     -21.815	      -7.832	      -6.251	    -141.890
	32.000000000	      -1.807	    -175.438	       1.999	      43.673	     -21.850	      -7.853	      -6.176	    -142.244
	32.500000000	      -1.814	    -175.834	       1.855	      42.721	     -21.841	      -7.851	      -6.085	    -142.621
	33.000000000	      -1.811	    -176.323	       1.707	      41.851	     -21.837	      -8.184	      -6.015	    -143.125
	33.500000000	      -1.798	    -176.721	       1.556	      41.012	     -21.932	      -8.545	      -5.953	    -143.605
	34.000000000	      -1.782	    -177.040	       1.414	      40.166	     -21.982	      -8.886	      -5.874	    -144.126
	34.500000000	      -1.781	    -177.435	       1.264	      39.252	     -22.042	      -9.382	      -5.793	    -144.521
	35.000000000	      -1.777	    -177.812	       1.119	      38.404	     -22.153	      -9.701	      -5.723	    -145.067
	35.500000000	      -1.770	    -178.215	       1.000	      37.611	     -22.226	      -9.250	      -5.672	    -145.357
	36.000000000	      -1.750	    -178.572	       0.870	      36.708	     -22.257	      -9.170	      -5.591	    -145.788
	36.500000000	      -1.737	    -178.874	       0.732	      35.822	     -22.243	      -9.551	      -5.522	    -146.244
	37.000000000	      -1.729	    -179.182	       0.593	      34.984	     -22.284	      -9.902	      -5.455	    -146.641
	37.500000000	      -1.735	    -179.650	       0.447	      34.184	     -22.375	     -10.242	      -5.402	    -147.063
	38.000000000	      -1.738	    -179.975	       0.309	      33.408	     -22.457	     -10.479	      -5.341	    -147.399
	38.500000000	      -1.730	     179.707	       0.168	      32.682	     -22.570	     -11.086	      -5.271	    -147.902
	39.000000000	      -1.720	     179.479	       0.049	      31.960	     -22.673	     -10.589	      -5.204	    -148.320
	39.500000000	      -1.707	     179.281	      -0.069	      31.217	     -22.715	     -10.602	      -5.134	    -148.745
	40.000000000	      -1.699	     178.825	      -0.184	      30.355	     -22.749	     -10.448	      -5.063	    -149.171
	40.500000000	      -1.693	     178.436	      -0.311	      29.548	     -22.777	     -10.727	      -4.986	    -149.546
	41.000000000	      -1.669	     178.102	      -0.433	      28.694	     -22.882	     -11.073	      -4.926	    -150.082
	41.500000000	      -1.659	     177.917	      -0.549	      27.957	     -22.867	     -11.023	      -4.887	    -150.378
	42.000000000	      -1.658	     177.626	      -0.674	      27.110	     -22.944	     -11.500	      -4.815	    -150.689
	42.500000000	      -1.671	     177.197	      -0.807	      26.381	     -23.019	     -11.683	      -4.756	    -150.886
	43.000000000	      -1.663	     176.963	      -0.913	      25.738	     -23.223	     -11.083	      -4.686	    -151.298
	43.500000000	      -1.643	     176.709	      -1.032	      24.853	     -23.180	     -10.958	      -4.628	    -151.826
	44.000000000	      -1.652	     176.420	      -1.157	      24.054	     -23.231	     -11.043	      -4.549	    -152.306
	44.500000000	      -1.661	     175.974	      -1.292	      23.299	     -23.220	     -11.386	      -4.490	    -152.724
	45.000000000	      -1.674	     175.680	      -1.414	      22.552	     -23.235	     -11.568	      -4.432	    -153.193
	45.500000000	      -1.620	     175.293	      -1.697	      21.902	     -23.552	     -11.810	      -4.316	    -154.307
	46.000000000	      -1.598	     175.096	      -1.824	      21.280	     -23.669	     -12.062	      -4.276	    -154.750
	46.500000000	      -1.580	     174.719	      -1.931	      20.630	     -23.776	     -11.895	      -4.193	    -154.979
	47.000000000	      -1.579	     174.405	      -2.032	      19.879	     -23.853	     -11.410	      -4.134	    -155.255
	47.500000000	      -1.575	     174.099	      -2.153	      19.161	     -23.894	     -11.133	      -4.108	    -155.601
	48.000000000	      -1.552	     173.827	      -2.278	      18.425	     -23.876	     -10.478	      -4.053	    -155.938
	48.500000000	      -1.551	     173.507	      -2.387	      17.762	     -23.922	     -10.807	      -4.000	    -156.324
	49.000000000	      -1.558	     173.339	      -2.509	      17.152	     -23.855	     -11.408	      -3.936	    -156.541
	49.500000000	      -1.571	     173.086	      -2.601	      16.484	     -24.095	     -11.814	      -3.878	    -156.993
	50.000000000	      -1.551	     172.813	      -2.700	      15.959	     -24.107	     -11.780	      -3.799	    -157.203
	50.500000000	      -1.539	     172.573	      -2.793	      15.261	     -24.291	     -10.460	      -3.787	    -157.747
	51.000000000	      -1.519	     172.262	      -2.905	      14.474	     -24.336	     -10.606	      -3.750	    -158.183
	51.500000000	      -1.535	     172.134	      -3.019	      13.804	     -24.233	     -10.260	      -3.688	    -158.620
	52.000000000	      -1.502	     171.880	      -3.120	      13.060	     -24.225	     -10.795	      -3.633	    -158.942
	52.500000000	      -1.505	     171.518	      -3.231	      12.265	     -24.277	     -11.315	      -3.587	    -159.140
	53.000000000	      -1.499	     171.165	      -3.359	      11.538	     -24.300	     -11.839	      -3.541	    -159.403
	53.500000000	      -1.491	     171.036	      -3.459	      10.987	     -24.372	     -11.892	      -3.480	    -159.795
	54.000000000	      -1.480	     170.796	      -3.568	      10.420	     -24.470	     -11.294	      -3.407	    -160.217
	54.500000000	      -1.481	     170.399	      -3.659	       9.811	     -24.435	     -11.175	      -3.365	    -160.536
	55.000000000	      -1.483	     170.041	      -3.771	       9.085	     -24.470	     -11.199	      -3.320	    -160.797
	55.500000000	      -1.487	     169.747	      -3.845	       8.399	     -24.570	     -11.095	      -3.285	    -161.206
	56.000000000	      -1.476	     169.391	      -3.951	       7.741	     -24.642	     -12.871	      -3.240	    -161.797
	56.500000000	      -1.465	     169.228	      -4.057	       7.078	     -24.585	     -12.370	      -3.195	    -162.440
	57.000000000	      -1.471	     169.135	      -4.198	       6.333	     -24.586	     -12.691	      -3.196	    -162.519
	57.500000000	      -1.480	     168.999	      -4.305	       5.793	     -24.897	     -12.467	      -3.153	    -162.870
	58.000000000	      -1.447	     168.800	      -4.408	       5.220	     -24.963	     -12.246	      -3.115	    -163.274
	58.500000000	      -1.419	     168.697	      -4.486	       4.626	     -25.089	     -11.595	      -3.080	    -163.615
	59.000000000	      -1.406	     168.391	      -4.574	       3.962	     -25.051	     -11.268	      -3.039	    -163.728
	59.500000000	      -1.412	     168.162	      -4.674	       3.194	     -25.297	     -11.891	      -2.976	    -164.082
	60.000000000	      -1.418	     167.984	      -4.764	       2.779	     -25.361	     -12.413	      -3.000	    -164.659
	60.500000000	      -1.379	     167.771	      -4.866	       2.104	     -25.240	     -10.589	      -2.998	    -164.813
	61.000000000	      -1.348	     167.473	      -4.968	       1.852	     -25.382	     -10.568	      -2.956	    -165.099
	61.500000000	      -1.338	     167.213	      -5.071	       1.145	     -25.379	     -10.391	      -2.903	    -165.272
	62.000000000	      -1.338	     166.929	      -5.145	       0.545	     -25.536	     -10.959	      -2.898	    -165.403
	62.500000000	      -1.330	     166.661	      -5.222	      -0.052	     -25.649	     -10.644	      -2.873	    -165.521
	63.000000000	      -1.314	     166.140	      -5.283	      -0.751	     -25.509	      -8.353	      -2.831	    -165.610
	63.500000000	      -1.300	     166.038	      -5.364	      -1.586	     -25.717	      -9.071	      -2.749	    -166.106
	64.000000000	      -1.308	     166.146	      -5.440	      -2.467	     -25.464	     -10.445	      -2.698	    -166.111
	64.500000000	      -1.295	     166.028	      -5.522	      -3.317	     -25.433	      -9.432	      -2.645	    -166.063
	65.000000000	      -1.290	     165.721	      -5.607	      -4.136	     -25.390	      -8.562	      -2.607	    -166.530
	65.500000000	      -1.283	     165.099	      -5.750	      -4.943	     -25.320	     -10.347	      -2.557	    -167.343
	66.000000000	      -1.285	     164.850	      -5.862	      -5.871	     -25.449	      -8.863	      -2.523	    -167.733
	66.500000000	      -1.308	     164.659	      -5.983	      -6.702	     -25.491	      -8.031	      -2.499	    -167.712
	67.000000000	      -1.369	     164.272	      -6.101	      -7.134	     -25.407	      -7.323	      -2.494	    -167.937
	67.500000000	      -1.343	     163.646	      -6.271	      -8.161	     -25.457	      -9.706	      -2.490	    -168.450
	68.000000000	      -1.393	     163.483	      -6.367	      -8.841	     -25.509	     -10.026	      -2.518	    -168.846
	68.500000000	      -1.437	     163.259	      -6.472	      -9.380	     -25.512	     -10.085	      -2.476	    -169.054
	69.000000000	      -1.467	     163.099	      -6.608	      -9.961	     -25.524	     -10.659	      -2.414	    -169.356
	69.500000000	      -1.462	     162.943	      -6.732	     -10.423	     -25.639	     -10.772	      -2.403	    -169.560
	70.000000000	      -1.433	     162.789	      -6.835	     -10.931	     -25.718	     -10.382	      -2.377	    -169.682
	70.500000000	      -1.414	     162.626	      -6.943	     -11.332	     -25.689	      -9.966	      -2.345	    -169.867
	71.000000000	      -1.396	     162.483	      -7.028	     -11.816	     -25.691	     -10.244	      -2.313	    -170.055
	71.500000000	      -1.340	     162.367	      -7.140	     -12.317	     -25.657	     -10.680	      -2.247	    -170.261
	72.000000000	      -1.334	     162.004	      -7.261	     -12.856	     -25.692	     -11.126	      -2.243	    -170.580
	72.500000000	      -1.364	     161.606	      -7.367	     -13.549	     -25.710	     -11.709	      -2.218	    -170.944
	73.000000000	      -1.399	     161.394	      -7.476	     -14.161	     -25.846	     -12.670	      -2.185	    -171.182
	73.500000000	      -1.416	     161.344	      -7.600	     -14.672	     -26.065	     -12.759	      -2.123	    -171.509
	74.000000000	      -1.424	     161.081	      -7.719	     -15.072	     -26.184	     -12.281	      -2.120	    -172.072
	74.500000000	      -1.459	     160.781	      -7.810	     -15.434	     -26.295	     -11.803	      -2.141	    -172.330
	75.000000000	      -1.502	     160.707	      -7.916	     -15.928	     -26.394	     -11.500	      -2.129	    -172.507
	75.500000000	      -1.538	     160.780	      -8.033	     -16.430	     -26.623	     -11.197	      -2.129	    -172.615
	76.000000000	      -1.548	     160.888	      -8.160	     -16.800	     -26.959	      -9.777	      -2.130	    -172.747
	76.500000000	      -1.537	     161.059	      -8.292	     -16.858	     -27.179	      -6.031	      -2.114	    -172.732
	77.000000000	      -1.503	     161.118	      -8.365	     -16.797	     -26.918	      -1.498	      -2.057	    -172.715
	77.500000000	      -1.429	     160.941	      -8.383	     -16.778	     -26.312	       1.074	      -1.978	    -172.872
	78.000000000	      -1.332	     160.668	      -8.369	     -17.028	     -25.675	       1.305	      -1.949	    -173.065
	78.500000000	      -1.299	     160.176	      -8.384	     -17.853	     -25.219	      -0.331	      -1.914	    -173.402
	79.000000000	      -1.320	     159.508	      -8.443	     -18.717	     -24.959	      -2.375	      -1.854	    -173.719
	79.500000000	      -1.363	     159.044	      -8.499	     -19.680	     -24.750	      -4.297	      -1.818	    -173.931
