!File name = EG0520U_1010_6x60_2SDBCB2EV_1915934D06_RC7325_2.5Vd_54mA.s2p
!Base file name = EG0520U_1010_6x60_2SDBCB2EV_1915934D06_RC7325
!Date = 8/23/2019
!Time = 1:08 PM
!Test duration(min) = 0.15
!Test = S-Parameters
!MPTS version = 8.91.5
!State File = C:\Data\PNA\20190821205423\S-Parameters_2019-08-23.sta
!Cal File = 
!ComputerName = CMPE-LAB-6
!Comments = 
!Attenuation = 0
!Z0 = 50
!Input Power(dBm) = -13.00
!Device ID = EG0520U_1010_6x60_2SDBCB2EV
!Row = 73
!Column = 25
!Technology = QPHT09
!Lot/Wafer = 1915934D06
!Gate Size = 360
!Mask = EG0520
!Cal Standards = GaAs BCB
!Cal Kit = EG2306
!Job Number = 20190821205423
!Device Type = FET
!set_Vg(v) = -1.500
!set_Vd(v) = 2.500
!set_Vd(mA) = 54.000
!file_name = EG0520U_1010_6x60_2SDBCB2EV_1915934D06_RC7325_2.5Vd_54mA.s2p
!Vd(V) = 2.500
!Vd(mA) = 54.144
!Vg(V) = -0.443
!Vg(mA) = -0.001
# GHz   S   DB   R   50
!%	Freq(GHz)	     s11(dB)	    s11(deg)	     s21(dB)	    s21(deg)	     s12(dB)	    s12(deg)	     s22(dB)	    s22(deg)
	0.500000000	      -0.029	     -14.864	      22.433	     171.019	     -39.327	      81.572	     -11.268	     -20.113
	1.000000000	      -0.110	     -29.380	      21.983	     162.457	     -33.566	      73.675	     -11.013	     -37.962
	1.500000000	      -0.155	     -43.026	      21.619	     155.125	     -30.420	      66.250	     -10.537	     -54.104
	2.000000000	      -0.297	     -55.415	      21.340	     147.765	     -28.425	      59.426	     -10.070	     -68.963
	2.500000000	      -0.393	     -66.840	      20.899	     141.382	     -27.056	      53.622	      -9.794	     -80.476
	3.000000000	      -0.786	     -74.550	      20.206	     136.382	     -26.239	      49.372	     -10.038	     -85.483
	3.500000000	      -0.904	     -83.352	      19.637	     131.338	     -25.494	      44.945	      -9.787	     -93.710
	4.000000000	      -1.000	     -91.101	      19.064	     126.971	     -24.929	      41.113	      -9.567	    -100.666
	4.500000000	      -1.099	     -97.979	      18.496	     122.888	     -24.505	      37.639	      -9.374	    -106.842
	5.000000000	      -1.172	    -104.055	      17.937	     119.355	     -24.170	      34.679	      -9.231	    -111.971
	5.500000000	      -1.239	    -109.535	      17.396	     116.068	     -23.906	      32.059	      -9.117	    -116.416
	6.000000000	      -1.296	    -114.390	      16.867	     113.124	     -23.691	      29.698	      -8.998	    -120.171
	6.500000000	      -1.342	    -118.708	      16.358	     110.476	     -23.518	      27.602	      -8.898	    -123.464
	7.000000000	      -1.382	    -122.613	      15.871	     107.984	     -23.380	      25.732	      -8.807	    -126.310
	7.500000000	      -1.411	    -126.112	      15.397	     105.716	     -23.269	      24.058	      -8.725	    -128.824
	8.000000000	      -1.421	    -129.077	      14.965	     103.727	     -23.152	      22.668	      -8.698	    -130.496
	8.500000000	      -1.449	    -132.034	      14.526	     101.762	     -23.072	      21.214	      -8.637	    -132.524
	9.000000000	      -1.477	    -134.681	      14.100	      99.928	     -23.007	      19.821	      -8.577	    -134.316
	9.500000000	      -1.495	    -137.150	      13.701	      98.151	     -22.955	      18.584	      -8.518	    -135.882
	10.000000000	      -1.509	    -139.434	      13.315	      96.483	     -22.931	      17.411	      -8.464	    -137.393
	10.500000000	      -1.528	    -141.567	      12.941	      94.871	     -22.910	      16.411	      -8.416	    -138.709
	11.000000000	      -1.540	    -143.509	      12.582	      93.372	     -22.885	      15.473	      -8.368	    -139.868
	11.500000000	      -1.556	    -145.349	      12.232	      91.920	     -22.881	      14.547	      -8.323	    -140.897
	12.000000000	      -1.569	    -147.045	      11.897	      90.542	     -22.869	      13.798	      -8.272	    -141.814
	12.500000000	      -1.576	    -148.621	      11.571	      89.217	     -22.861	      13.026	      -8.215	    -142.763
	13.000000000	      -1.585	    -150.103	      11.255	      87.920	     -22.864	      12.296	      -8.168	    -143.591
	13.500000000	      -1.594	    -151.526	      10.951	      86.683	     -22.875	      11.529	      -8.116	    -144.261
	14.000000000	      -1.604	    -152.863	      10.654	      85.489	     -22.888	      10.980	      -8.064	    -144.876
	14.500000000	      -1.608	    -154.079	      10.367	      84.311	     -22.902	      10.400	      -8.020	    -145.594
	15.000000000	      -1.613	    -155.166	      10.086	      83.194	     -22.918	       9.945	      -7.980	    -146.203
	15.500000000	      -1.617	    -156.255	       9.815	      82.081	     -22.931	       9.478	      -7.933	    -146.694
	16.000000000	      -1.621	    -157.340	       9.552	      80.992	     -22.932	       8.900	      -7.879	    -147.152
	16.500000000	      -1.624	    -158.386	       9.295	      79.925	     -22.963	       8.388	      -7.830	    -147.560
	17.000000000	      -1.625	    -159.360	       9.046	      78.890	     -22.996	       7.915	      -7.784	    -148.049
	17.500000000	      -1.632	    -160.243	       8.798	      77.870	     -23.007	       7.561	      -7.735	    -148.476
	18.000000000	      -1.642	    -161.103	       8.563	      76.883	     -23.050	       7.070	      -7.683	    -148.926
	18.500000000	      -1.642	    -161.946	       8.331	      75.914	     -23.062	       6.620	      -7.628	    -149.245
	19.000000000	      -1.641	    -162.764	       8.103	      74.951	     -23.113	       6.235	      -7.578	    -149.573
	19.500000000	      -1.639	    -163.534	       7.883	      74.016	     -23.168	       5.957	      -7.537	    -149.911
	20.000000000	      -1.645	    -164.269	       7.667	      73.102	     -23.226	       5.841	      -7.499	    -150.223
	20.500000000	      -1.648	    -164.945	       7.460	      72.190	     -23.244	       5.723	      -7.445	    -150.462
	21.000000000	      -1.648	    -165.618	       7.255	      71.287	     -23.245	       5.612	      -7.388	    -150.739
	21.500000000	      -1.640	    -166.338	       7.052	      70.387	     -23.264	       5.289	      -7.335	    -150.966
	22.000000000	      -1.631	    -166.935	       6.856	      69.500	     -23.292	       4.888	      -7.280	    -151.220
	22.500000000	      -1.630	    -167.571	       6.657	      68.596	     -23.313	       4.475	      -7.233	    -151.515
	23.000000000	      -1.635	    -168.162	       6.463	      67.735	     -23.356	       4.064	      -7.178	    -151.870
	23.500000000	      -1.635	    -168.848	       6.271	      66.889	     -23.456	       3.757	      -7.129	    -152.263
	24.000000000	      -1.646	    -169.434	       6.086	      66.105	     -23.560	       3.921	      -7.101	    -152.441
	24.500000000	      -1.641	    -169.850	       5.913	      65.292	     -23.562	       4.052	      -7.057	    -152.451
	25.000000000	      -1.628	    -170.285	       5.739	      64.435	     -23.541	       4.026	      -6.998	    -152.586
	25.500000000	      -1.630	    -170.870	       5.561	      63.633	     -23.576	       3.778	      -6.941	    -152.820
	26.000000000	      -1.632	    -171.421	       5.388	      62.834	     -23.606	       3.407	      -6.867	    -153.101
	26.500000000	      -1.626	    -171.896	       5.221	      62.026	     -23.647	       3.179	      -6.806	    -153.319
	27.000000000	      -1.619	    -172.304	       5.055	      61.245	     -23.712	       2.877	      -6.764	    -153.564
	27.500000000	      -1.623	    -172.670	       4.895	      60.552	     -23.861	       3.174	      -6.735	    -153.644
	28.000000000	      -1.621	    -173.186	       4.742	      59.794	     -23.908	       3.542	      -6.682	    -153.835
	28.500000000	      -1.603	    -173.627	       4.598	      58.939	     -23.842	       3.780	      -6.603	    -153.991
	29.000000000	      -1.596	    -174.080	       4.436	      58.097	     -23.847	       3.345	      -6.548	    -154.288
	29.500000000	      -1.591	    -174.465	       4.279	      57.327	     -23.895	       3.028	      -6.488	    -154.492
	30.000000000	      -1.593	    -174.901	       4.126	      56.631	     -23.981	       2.836	      -6.450	    -154.670
	30.500000000	      -1.595	    -175.323	       3.977	      55.879	     -24.005	       2.764	      -6.403	    -154.890
	31.000000000	      -1.589	    -175.766	       3.829	      55.154	     -24.079	       2.755	      -6.359	    -155.087
	31.500000000	      -1.577	    -176.134	       3.698	      54.463	     -24.133	       3.167	      -6.309	    -155.311
	32.000000000	      -1.575	    -176.494	       3.558	      53.667	     -24.150	       3.438	      -6.253	    -155.406
	32.500000000	      -1.585	    -176.850	       3.415	      52.865	     -24.117	       3.125	      -6.192	    -155.566
	33.000000000	      -1.584	    -177.311	       3.272	      52.155	     -24.123	       3.196	      -6.140	    -155.798
	33.500000000	      -1.573	    -177.685	       3.129	      51.459	     -24.208	       2.959	      -6.094	    -156.079
	34.000000000	      -1.564	    -178.006	       2.991	      50.757	     -24.251	       2.951	      -6.040	    -156.379
	34.500000000	      -1.568	    -178.393	       2.846	      49.996	     -24.267	       2.428	      -5.975	    -156.527
	35.000000000	      -1.568	    -178.730	       2.709	      49.338	     -24.371	       2.525	      -5.929	    -156.830
	35.500000000	      -1.568	    -179.078	       2.591	      48.671	     -24.417	       3.265	      -5.888	    -156.962
	36.000000000	      -1.563	    -179.401	       2.467	      47.958	     -24.403	       3.007	      -5.833	    -157.110
	36.500000000	      -1.548	    -179.607	       2.342	      47.202	     -24.395	       3.020	      -5.768	    -157.345
	37.000000000	      -1.541	    -179.844	       2.214	      46.512	     -24.417	       3.157	      -5.725	    -157.538
	37.500000000	      -1.540	     179.745	       2.086	      45.810	     -24.506	       2.437	      -5.686	    -157.797
	38.000000000	      -1.537	     179.395	       1.958	      45.132	     -24.541	       2.808	      -5.631	    -157.972
	38.500000000	      -1.524	     179.050	       1.827	      44.471	     -24.643	       2.347	      -5.580	    -158.297
	39.000000000	      -1.516	     178.789	       1.712	      43.851	     -24.682	       3.152	      -5.524	    -158.527
	39.500000000	      -1.513	     178.589	       1.597	      43.208	     -24.696	       3.117	      -5.472	    -158.796
	40.000000000	      -1.501	     178.154	       1.487	      42.450	     -24.682	       3.217	      -5.411	    -158.992
	40.500000000	      -1.500	     177.726	       1.362	      41.745	     -24.708	       2.849	      -5.357	    -159.217
	41.000000000	      -1.486	     177.374	       1.240	      41.040	     -24.730	       2.819	      -5.316	    -159.547
	41.500000000	      -1.480	     177.177	       1.126	      40.418	     -24.840	       2.153	      -5.285	    -159.710
	42.000000000	      -1.489	     176.892	       1.006	      39.752	     -24.865	       2.721	      -5.227	    -159.787
	42.500000000	      -1.509	     176.538	       0.892	      39.204	     -25.002	       2.911	      -5.182	    -159.818
	43.000000000	      -1.503	     176.304	       0.796	      38.596	     -25.017	       3.232	      -5.119	    -160.080
	43.500000000	      -1.482	     176.079	       0.681	      37.862	     -25.007	       3.197	      -5.087	    -160.403
	44.000000000	      -1.490	     175.775	       0.571	      37.163	     -25.041	       3.632	      -5.030	    -160.685
	44.500000000	      -1.501	     175.373	       0.450	      36.498	     -24.978	       3.835	      -4.969	    -160.966
	45.000000000	      -1.509	     175.077	       0.335	      35.864	     -24.984	       3.168	      -4.914	    -161.204
	45.500000000	      -1.467	     174.705	       0.063	      35.386	     -25.211	       2.716	      -4.783	    -162.078
	46.000000000	      -1.444	     174.457	      -0.056	      34.818	     -25.348	       2.460	      -4.737	    -162.306
	46.500000000	      -1.431	     174.061	      -0.149	      34.241	     -25.516	       3.773	      -4.680	    -162.392
	47.000000000	      -1.432	     173.767	      -0.250	      33.577	     -25.473	       3.479	      -4.628	    -162.505
	47.500000000	      -1.431	     173.463	      -0.360	      32.937	     -25.479	       4.229	      -4.599	    -162.772
	48.000000000	      -1.415	     173.165	      -0.471	      32.293	     -25.435	       3.833	      -4.551	    -162.989
	48.500000000	      -1.413	     172.828	      -0.582	      31.670	     -25.522	       4.078	      -4.492	    -163.185
	49.000000000	      -1.426	     172.676	      -0.685	      31.049	     -25.357	       3.689	      -4.448	    -163.375
	49.500000000	      -1.435	     172.405	      -0.783	      30.629	     -25.485	       3.668	      -4.389	    -163.677
	50.000000000	      -1.420	     172.119	      -0.882	      30.011	     -25.622	       4.051	      -4.359	    -164.011
	50.500000000	      -1.410	     171.861	      -0.982	      29.371	     -25.750	       4.782	      -4.315	    -164.295
	51.000000000	      -1.404	     171.560	      -1.100	      28.864	     -25.749	       4.722	      -4.335	    -164.827
	51.500000000	      -1.406	     171.395	      -1.178	      28.224	     -25.575	       4.722	      -4.262	    -164.925
	52.000000000	      -1.388	     171.185	      -1.291	      27.573	     -25.584	       5.101	      -4.226	    -165.086
	52.500000000	      -1.381	     170.751	      -1.401	      27.059	     -25.694	       4.357	      -4.188	    -165.275
	53.000000000	      -1.379	     170.450	      -1.505	      26.474	     -25.779	       4.356	      -4.148	    -165.342
	53.500000000	      -1.368	     170.232	      -1.593	      25.973	     -25.817	       4.420	      -4.101	    -165.673
	54.000000000	      -1.360	     169.992	      -1.684	      25.450	     -25.723	       5.434	      -4.051	    -165.824
	54.500000000	      -1.366	     169.524	      -1.776	      24.938	     -25.638	       4.654	      -4.011	    -165.944
	55.000000000	      -1.371	     169.186	      -1.853	      24.360	     -25.855	       4.302	      -3.982	    -166.099
	55.500000000	      -1.367	     168.891	      -1.945	      23.704	     -25.725	       4.482	      -3.922	    -166.295
	56.000000000	      -1.363	     168.518	      -2.010	      22.974	     -25.692	       4.395	      -3.904	    -166.848
	56.500000000	      -1.366	     168.376	      -2.130	      22.356	     -25.602	       4.936	      -3.857	    -167.251
	57.000000000	      -1.358	     168.048	      -2.228	      21.911	     -25.939	       5.123	      -3.858	    -167.393
	57.500000000	      -1.366	     167.927	      -2.331	      21.340	     -25.906	       3.680	      -3.824	    -167.692
	58.000000000	      -1.339	     167.833	      -2.403	      20.782	     -26.121	       4.009	      -3.775	    -167.856
	58.500000000	      -1.322	     167.507	      -2.485	      20.198	     -26.039	       5.288	      -3.731	    -168.197
	59.000000000	      -1.316	     167.184	      -2.570	      19.409	     -25.800	       5.177	      -3.681	    -168.305
	59.500000000	      -1.337	     167.037	      -2.670	      18.780	     -25.861	       5.100	      -3.650	    -168.475
	60.000000000	      -1.330	     166.838	      -2.747	      18.322	     -26.144	       3.258	      -3.674	    -168.927
	60.500000000	      -1.292	     166.531	      -2.851	      17.658	     -26.149	       3.241	      -3.648	    -168.900
	61.000000000	      -1.271	     166.244	      -2.943	      17.088	     -26.186	       3.527	      -3.618	    -169.056
	61.500000000	      -1.255	     166.011	      -3.045	      16.690	     -26.320	       5.537	      -3.580	    -169.305
	62.000000000	      -1.246	     165.720	      -3.114	      15.970	     -26.240	       5.597	      -3.573	    -169.373
	62.500000000	      -1.256	     165.360	      -3.191	      15.429	     -26.286	       4.798	      -3.562	    -169.479
	63.000000000	      -1.239	     164.931	      -3.277	      14.744	     -26.116	       5.567	      -3.505	    -169.443
	63.500000000	      -1.226	     164.737	      -3.351	      14.125	     -26.147	       4.831	      -3.446	    -169.830
	64.000000000	      -1.219	     164.884	      -3.420	      13.359	     -26.132	       5.151	      -3.378	    -169.671
	64.500000000	      -1.208	     164.702	      -3.502	      12.677	     -25.967	       5.828	      -3.374	    -169.666
	65.000000000	      -1.217	     164.359	      -3.609	      11.891	     -26.302	       4.698	      -3.276	    -169.842
	65.500000000	      -1.204	     163.748	      -3.721	      11.181	     -26.244	       4.922	      -3.269	    -170.714
	66.000000000	      -1.204	     163.407	      -3.829	      10.460	     -26.108	       5.230	      -3.232	    -171.103
	66.500000000	      -1.206	     163.311	      -3.944	       9.649	     -26.118	       4.802	      -3.220	    -170.827
	67.000000000	      -1.263	     162.748	      -4.062	       9.086	     -25.927	       4.428	      -3.198	    -170.823
	67.500000000	      -1.260	     162.097	      -4.181	       8.387	     -26.057	       4.278	      -3.200	    -171.429
	68.000000000	      -1.300	     161.921	      -4.273	       7.693	     -26.029	       3.445	      -3.220	    -171.628
	68.500000000	      -1.332	     161.648	      -4.364	       7.212	     -26.070	       3.482	      -3.178	    -171.730
	69.000000000	      -1.359	     161.426	      -4.497	       6.683	     -26.083	       2.719	      -3.110	    -171.872
	69.500000000	      -1.360	     161.170	      -4.618	       6.237	     -26.217	       2.399	      -3.090	    -172.144
	70.000000000	      -1.347	     160.975	      -4.713	       5.777	     -26.260	       2.873	      -3.067	    -172.183
	70.500000000	      -1.334	     160.793	      -4.801	       5.307	     -26.192	       2.951	      -3.027	    -172.277
	71.000000000	      -1.323	     160.617	      -4.898	       4.901	     -26.218	       2.533	      -2.980	    -172.536
	71.500000000	      -1.286	     160.356	      -5.014	       4.271	     -26.198	       2.130	      -2.923	    -172.730
	72.000000000	      -1.285	     160.178	      -5.130	       3.787	     -26.165	       1.122	      -2.930	    -172.884
	72.500000000	      -1.309	     159.695	      -5.225	       3.219	     -26.237	      -0.033	      -2.903	    -173.159
	73.000000000	      -1.342	     159.482	      -5.331	       2.673	     -26.438	      -0.880	      -2.860	    -173.356
	73.500000000	      -1.371	     159.345	      -5.443	       2.183	     -26.659	      -0.913	      -2.795	    -173.638
	74.000000000	      -1.379	     159.100	      -5.544	       1.748	     -26.848	      -0.439	      -2.795	    -174.148
	74.500000000	      -1.410	     158.871	      -5.633	       1.359	     -26.931	       0.226	      -2.812	    -174.358
	75.000000000	      -1.445	     158.790	      -5.735	       0.813	     -27.004	       0.485	      -2.797	    -174.396
	75.500000000	      -1.476	     158.785	      -5.855	       0.313	     -27.231	       0.847	      -2.799	    -174.535
	76.000000000	      -1.490	     158.817	      -5.974	      -0.094	     -27.566	       2.714	      -2.814	    -174.568
	76.500000000	      -1.483	     158.931	      -6.093	      -0.251	     -27.662	       7.040	      -2.803	    -174.383
	77.000000000	      -1.454	     159.017	      -6.166	      -0.391	     -27.251	      10.887	      -2.746	    -174.160
	77.500000000	      -1.381	     158.952	      -6.204	      -0.462	     -26.574	      12.448	      -2.656	    -174.243
	78.000000000	      -1.298	     158.597	      -6.215	      -0.802	     -25.942	      11.862	      -2.608	    -174.307
	78.500000000	      -1.253	     158.075	      -6.250	      -1.540	     -25.535	       9.861	      -2.556	    -174.606
	79.000000000	      -1.279	     157.433	      -6.323	      -2.408	     -25.284	       7.311	      -2.495	    -174.858
	79.500000000	      -1.300	     156.963	      -6.397	      -3.150	     -25.129	       5.112	      -2.443	    -175.071
