!File name = EG0520U_1010_6x60_2SDBCB2EV_1915934D06_RC4034_3.5Vd_18mA.s2p
!Base file name = EG0520U_1010_6x60_2SDBCB2EV_1915934D06_RC4034
!Date = 8/23/2019
!Time = 12:58 PM
!Test duration(min) = 0.15
!Test = S-Parameters
!MPTS version = 8.91.5
!State File = C:\Data\PNA\20190821205423\S-Parameters_2019-08-23.sta
!Cal File = 
!ComputerName = CMPE-LAB-6
!Comments = 
!Attenuation = 0
!Z0 = 50
!Input Power(dBm) = -13.00
!Device ID = EG0520U_1010_6x60_2SDBCB2EV
!Row = 40
!Column = 34
!Technology = QPHT09
!Lot/Wafer = 1915934D06
!Gate Size = 360
!Mask = EG0520
!Cal Standards = GaAs BCB
!Cal Kit = EG2306
!Job Number = 20190821205423
!Device Type = FET
!set_Vg(v) = -1.500
!set_Vd(v) = 3.500
!set_Vd(mA) = 18.000
!file_name = EG0520U_1010_6x60_2SDBCB2EV_1915934D06_RC4034_3.5Vd_18mA.s2p
!Vd(V) = 3.500
!Vd(mA) = 17.736
!Vg(V) = -0.644
!Vg(mA) = -0.007
# GHz   S   DB   R   50
!%	Freq(GHz)	     s11(dB)	    s11(deg)	     s21(dB)	    s21(deg)	     s12(dB)	    s12(deg)	     s22(dB)	    s22(deg)
	0.500000000	      -0.073	     -12.475	      19.750	     172.105	     -37.647	      81.126	      -6.968	     -11.933
	1.000000000	      -0.153	     -24.729	      19.456	     164.294	     -31.819	      74.914	      -7.035	     -23.070
	1.500000000	      -0.188	     -36.467	      19.181	     157.916	     -28.574	      68.378	      -7.070	     -33.987
	2.000000000	      -0.330	     -47.430	      18.953	     150.811	     -26.465	      62.008	      -7.161	     -44.900
	2.500000000	      -0.422	     -57.796	      18.590	     144.805	     -25.001	      56.562	      -7.367	     -54.053
	3.000000000	      -0.804	     -64.947	      17.972	     139.542	     -24.123	      52.229	      -7.723	     -57.906
	3.500000000	      -0.923	     -73.426	      17.529	     134.592	     -23.276	      47.848	      -7.863	     -65.167
	4.000000000	      -1.038	     -80.999	      17.049	     130.086	     -22.623	      43.866	      -7.993	     -71.739
	4.500000000	      -1.174	     -87.798	      16.546	     125.739	     -22.121	      40.175	      -8.114	     -77.955
	5.000000000	      -1.258	     -93.982	      16.059	     122.046	     -21.721	      36.964	      -8.233	     -83.317
	5.500000000	      -1.349	     -99.631	      15.580	     118.498	     -21.415	      34.154	      -8.365	     -88.177
	6.000000000	      -1.429	    -104.785	      15.111	     115.253	     -21.148	      31.524	      -8.436	     -92.457
	6.500000000	      -1.491	    -109.368	      14.648	     112.343	     -20.936	      29.138	      -8.503	     -96.337
	7.000000000	      -1.554	    -113.565	      14.198	     109.550	     -20.760	      26.964	      -8.552	     -99.815
	7.500000000	      -1.599	    -117.356	      13.758	     107.004	     -20.619	      24.998	      -8.590	    -103.035
	8.000000000	      -1.625	    -120.597	      13.350	     104.738	     -20.484	      23.351	      -8.631	    -105.254
	8.500000000	      -1.667	    -123.847	      12.939	     102.492	     -20.385	      21.640	      -8.660	    -107.857
	9.000000000	      -1.708	    -126.751	      12.531	     100.388	     -20.297	      20.029	      -8.671	    -110.174
	9.500000000	      -1.739	    -129.499	      12.152	      98.327	     -20.225	      18.502	      -8.675	    -112.277
	10.000000000	      -1.761	    -132.027	      11.780	      96.422	     -20.176	      17.058	      -8.674	    -114.253
	10.500000000	      -1.792	    -134.411	      11.421	      94.545	     -20.136	      15.782	      -8.671	    -116.065
	11.000000000	      -1.809	    -136.573	      11.074	      92.821	     -20.102	      14.608	      -8.654	    -117.697
	11.500000000	      -1.833	    -138.632	      10.733	      91.119	     -20.077	      13.448	      -8.636	    -119.202
	12.000000000	      -1.852	    -140.552	      10.410	      89.514	     -20.062	      12.373	      -8.604	    -120.582
	12.500000000	      -1.862	    -142.342	      10.094	      87.985	     -20.046	      11.369	      -8.570	    -121.930
	13.000000000	      -1.876	    -144.014	       9.786	      86.440	     -20.039	      10.407	      -8.533	    -123.213
	13.500000000	      -1.887	    -145.625	       9.489	      84.992	     -20.039	       9.419	      -8.487	    -124.280
	14.000000000	      -1.900	    -147.162	       9.199	      83.571	     -20.049	       8.585	      -8.442	    -125.292
	14.500000000	      -1.907	    -148.548	       8.919	      82.198	     -20.058	       7.774	      -8.400	    -126.333
	15.000000000	      -1.914	    -149.794	       8.640	      80.875	     -20.069	       6.998	      -8.358	    -127.271
	15.500000000	      -1.920	    -151.046	       8.373	      79.559	     -20.075	       6.288	      -8.306	    -128.093
	16.000000000	      -1.926	    -152.278	       8.112	      78.272	     -20.081	       5.496	      -8.245	    -128.876
	16.500000000	      -1.932	    -153.447	       7.857	      77.008	     -20.103	       4.788	      -8.190	    -129.590
	17.000000000	      -1.933	    -154.558	       7.612	      75.787	     -20.127	       4.082	      -8.135	    -130.319
	17.500000000	      -1.942	    -155.556	       7.365	      74.582	     -20.149	       3.459	      -8.075	    -131.088
	18.000000000	      -1.951	    -156.548	       7.132	      73.409	     -20.179	       2.788	      -8.015	    -131.805
	18.500000000	      -1.952	    -157.507	       6.901	      72.261	     -20.197	       2.160	      -7.944	    -132.412
	19.000000000	      -1.951	    -158.446	       6.674	      71.117	     -20.230	       1.517	      -7.879	    -133.004
	19.500000000	      -1.949	    -159.295	       6.454	      70.011	     -20.282	       0.933	      -7.822	    -133.588
	20.000000000	      -1.955	    -160.124	       6.239	      68.928	     -20.337	       0.490	      -7.770	    -134.117
	20.500000000	      -1.958	    -160.924	       6.033	      67.845	     -20.375	       0.183	      -7.698	    -134.602
	21.000000000	      -1.957	    -161.669	       5.827	      66.774	     -20.386	      -0.214	      -7.623	    -135.135
	21.500000000	      -1.947	    -162.476	       5.625	      65.695	     -20.413	      -0.680	      -7.548	    -135.609
	22.000000000	      -1.939	    -163.147	       5.427	      64.657	     -20.437	      -1.261	      -7.478	    -136.017
	22.500000000	      -1.936	    -163.898	       5.229	      63.583	     -20.459	      -1.817	      -7.413	    -136.608
	23.000000000	      -1.937	    -164.564	       5.034	      62.571	     -20.499	      -2.358	      -7.346	    -137.168
	23.500000000	      -1.937	    -165.260	       4.842	      61.580	     -20.581	      -2.971	      -7.285	    -137.745
	24.000000000	      -1.944	    -165.922	       4.655	      60.639	     -20.672	      -3.201	      -7.232	    -138.125
	24.500000000	      -1.935	    -166.461	       4.481	      59.676	     -20.692	      -3.240	      -7.159	    -138.366
	25.000000000	      -1.923	    -166.977	       4.305	      58.661	     -20.690	      -3.604	      -7.082	    -138.738
	25.500000000	      -1.922	    -167.593	       4.126	      57.698	     -20.745	      -4.054	      -7.003	    -139.203
	26.000000000	      -1.924	    -168.233	       3.948	      56.751	     -20.772	      -4.616	      -6.920	    -139.698
	26.500000000	      -1.919	    -168.768	       3.779	      55.805	     -20.825	      -5.031	      -6.844	    -140.124
	27.000000000	      -1.913	    -169.209	       3.609	      54.887	     -20.885	      -5.490	      -6.778	    -140.551
	27.500000000	      -1.914	    -169.649	       3.445	      54.046	     -20.996	      -5.650	      -6.730	    -140.791
	28.000000000	      -1.912	    -170.186	       3.290	      53.172	     -21.089	      -5.873	      -6.662	    -141.220
	28.500000000	      -1.889	    -170.668	       3.148	      52.188	     -21.043	      -5.615	      -6.566	    -141.630
	29.000000000	      -1.880	    -171.204	       2.981	      51.196	     -21.067	      -6.221	      -6.495	    -142.116
	29.500000000	      -1.878	    -171.632	       2.820	      50.309	     -21.104	      -6.652	      -6.425	    -142.528
	30.000000000	      -1.876	    -172.114	       2.662	      49.481	     -21.181	      -6.994	      -6.368	    -142.854
	30.500000000	      -1.875	    -172.564	       2.512	      48.590	     -21.230	      -7.209	      -6.303	    -143.242
	31.000000000	      -1.864	    -173.018	       2.362	      47.745	     -21.300	      -7.538	      -6.240	    -143.617
	31.500000000	      -1.849	    -173.431	       2.231	      46.899	     -21.413	      -7.318	      -6.175	    -143.982
	32.000000000	      -1.843	    -173.759	       2.087	      46.020	     -21.423	      -7.655	      -6.102	    -144.327
	32.500000000	      -1.846	    -174.242	       1.942	      45.067	     -21.424	      -7.747	      -6.021	    -144.664
	33.000000000	      -1.841	    -174.720	       1.798	      44.246	     -21.432	      -8.142	      -5.959	    -145.038
	33.500000000	      -1.829	    -175.131	       1.651	      43.416	     -21.533	      -8.544	      -5.903	    -145.459
	34.000000000	      -1.820	    -175.539	       1.506	      42.563	     -21.580	      -8.820	      -5.829	    -145.928
	34.500000000	      -1.821	    -175.958	       1.357	      41.713	     -21.627	      -9.277	      -5.753	    -146.265
	35.000000000	      -1.823	    -176.313	       1.216	      40.908	     -21.711	      -9.400	      -5.695	    -146.743
	35.500000000	      -1.814	    -176.680	       1.099	      40.154	     -21.813	      -9.202	      -5.644	    -146.984
	36.000000000	      -1.808	    -177.043	       0.968	      39.261	     -21.793	      -9.351	      -5.562	    -147.339
	36.500000000	      -1.794	    -177.337	       0.836	      38.428	     -21.818	      -9.585	      -5.499	    -147.766
	37.000000000	      -1.794	    -177.639	       0.701	      37.638	     -21.882	      -9.815	      -5.436	    -148.156
	37.500000000	      -1.789	    -177.991	       0.570	      36.840	     -21.938	     -10.212	      -5.388	    -148.493
	38.000000000	      -1.781	    -178.354	       0.439	      36.085	     -22.013	     -10.854	      -5.322	    -148.853
	38.500000000	      -1.769	    -178.718	       0.301	      35.300	     -22.115	     -10.946	      -5.262	    -149.312
	39.000000000	      -1.768	    -179.008	       0.183	      34.596	     -22.183	     -10.513	      -5.200	    -149.724
	39.500000000	      -1.759	    -179.167	       0.064	      33.874	     -22.196	     -10.870	      -5.139	    -150.122
	40.000000000	      -1.739	    -179.604	      -0.044	      33.039	     -22.244	     -10.914	      -5.071	    -150.500
	40.500000000	      -1.730	     179.965	      -0.176	      32.211	     -22.298	     -11.013	      -5.010	    -150.899
	41.000000000	      -1.722	     179.596	      -0.299	      31.389	     -22.361	     -11.405	      -4.962	    -151.357
	41.500000000	      -1.713	     179.350	      -0.417	      30.669	     -22.381	     -11.705	      -4.919	    -151.562
	42.000000000	      -1.713	     179.059	      -0.536	      29.919	     -22.485	     -11.621	      -4.843	    -151.853
	42.500000000	      -1.720	     178.667	      -0.663	      29.216	     -22.572	     -12.059	      -4.785	    -152.014
	43.000000000	      -1.710	     178.410	      -0.762	      28.521	     -22.677	     -11.935	      -4.715	    -152.386
	43.500000000	      -1.696	     178.075	      -0.876	      27.671	     -22.680	     -11.662	      -4.669	    -152.863
	44.000000000	      -1.701	     177.831	      -1.002	      26.893	     -22.720	     -12.057	      -4.600	    -153.290
	44.500000000	      -1.704	     177.432	      -1.122	      26.171	     -22.741	     -11.419	      -4.542	    -153.628
	45.000000000	      -1.717	     177.141	      -1.244	      25.430	     -22.768	     -12.031	      -4.474	    -154.066
	45.500000000	      -1.672	     176.693	      -1.525	      24.809	     -23.022	     -12.655	      -4.360	    -155.125
	46.000000000	      -1.653	     176.466	      -1.644	      24.132	     -23.082	     -13.117	      -4.311	    -155.507
	46.500000000	      -1.637	     176.090	      -1.746	      23.488	     -23.301	     -12.854	      -4.245	    -155.713
	47.000000000	      -1.634	     175.764	      -1.849	      22.729	     -23.254	     -12.448	      -4.169	    -156.089
	47.500000000	      -1.624	     175.464	      -1.965	      22.035	     -23.328	     -12.353	      -4.132	    -156.248
	48.000000000	      -1.608	     175.154	      -2.075	      21.300	     -23.304	     -12.523	      -4.086	    -156.713
	48.500000000	      -1.610	     174.817	      -2.193	      20.622	     -23.290	     -12.484	      -4.040	    -157.008
	49.000000000	      -1.617	     174.581	      -2.302	      19.961	     -23.380	     -12.581	      -3.976	    -157.338
	49.500000000	      -1.619	     174.397	      -2.425	      19.357	     -23.522	     -13.253	      -3.903	    -157.616
	50.000000000	      -1.601	     174.058	      -2.529	      18.744	     -23.598	     -14.421	      -3.896	    -158.085
	50.500000000	      -1.585	     173.823	      -2.624	      18.050	     -23.728	     -11.904	      -3.859	    -158.653
	51.000000000	      -1.585	     173.482	      -2.741	      17.288	     -23.798	     -12.676	      -3.829	    -159.072
	51.500000000	      -1.584	     173.328	      -2.855	      16.812	     -23.632	     -12.382	      -3.787	    -159.438
	52.000000000	      -1.559	     173.132	      -2.951	      16.072	     -23.713	     -12.412	      -3.749	    -159.749
	52.500000000	      -1.559	     172.733	      -3.058	      15.434	     -23.764	     -12.649	      -3.714	    -159.921
	53.000000000	      -1.558	     172.390	      -3.162	      14.845	     -23.832	     -12.711	      -3.663	    -160.078
	53.500000000	      -1.547	     172.246	      -3.253	      14.265	     -23.934	     -12.989	      -3.615	    -160.340
	54.000000000	      -1.536	     171.970	      -3.353	      13.685	     -23.896	     -12.450	      -3.551	    -160.744
	54.500000000	      -1.525	     171.549	      -3.441	      13.071	     -23.991	     -13.022	      -3.498	    -160.962
	55.000000000	      -1.534	     171.156	      -3.533	      12.386	     -24.008	     -12.626	      -3.457	    -161.181
	55.500000000	      -1.535	     170.886	      -3.624	      11.695	     -23.966	     -12.722	      -3.421	    -161.522
	56.000000000	      -1.516	     170.635	      -3.711	      10.960	     -24.039	     -13.799	      -3.385	    -162.052
	56.500000000	      -1.516	     170.385	      -3.816	      10.425	     -23.766	     -13.866	      -3.335	    -162.618
	57.000000000	      -1.536	     170.162	      -3.928	       9.706	     -24.214	     -14.601	      -3.326	    -162.767
	57.500000000	      -1.525	     169.989	      -4.024	       9.024	     -24.309	     -13.720	      -3.281	    -163.061
	58.000000000	      -1.523	     169.718	      -4.124	       8.412	     -24.348	     -14.849	      -3.247	    -163.362
	58.500000000	      -1.477	     169.490	      -4.189	       7.918	     -24.452	     -13.924	      -3.203	    -163.662
	59.000000000	      -1.479	     169.243	      -4.316	       7.028	     -24.598	     -13.226	      -3.142	    -164.141
	59.500000000	      -1.469	     169.026	      -4.393	       6.390	     -24.438	     -13.391	      -3.105	    -164.409
	60.000000000	      -1.471	     168.925	      -4.474	       5.739	     -24.481	     -14.659	      -3.113	    -164.661
	60.500000000	      -1.446	     168.645	      -4.579	       5.141	     -24.581	     -15.107	      -3.100	    -164.867
	61.000000000	      -1.421	     168.294	      -4.671	       4.675	     -24.538	     -14.354	      -3.060	    -165.176
	61.500000000	      -1.404	     168.016	      -4.773	       4.072	     -24.849	     -15.138	      -3.024	    -165.350
	62.000000000	      -1.383	     167.779	      -4.841	       3.353	     -24.757	     -13.392	      -3.011	    -165.448
	62.500000000	      -1.400	     167.488	      -4.920	       2.879	     -24.895	     -14.009	      -2.995	    -165.585
	63.000000000	      -1.387	     166.944	      -5.016	       2.134	     -24.698	     -12.143	      -2.937	    -165.752
	63.500000000	      -1.392	     166.725	      -5.074	       1.377	     -24.863	     -12.446	      -2.891	    -166.163
	64.000000000	      -1.381	     166.765	      -5.154	       0.599	     -24.727	     -13.486	      -2.813	    -166.171
	64.500000000	      -1.349	     166.538	      -5.246	      -0.306	     -24.877	     -14.650	      -2.781	    -166.202
	65.000000000	      -1.366	     166.270	      -5.374	      -1.220	     -24.869	     -14.797	      -2.723	    -166.630
	65.500000000	      -1.356	     165.706	      -5.478	      -1.889	     -25.067	     -14.251	      -2.690	    -167.541
	66.000000000	      -1.363	     165.397	      -5.573	      -2.770	     -24.932	     -14.042	      -2.661	    -167.813
	66.500000000	      -1.382	     165.177	      -5.684	      -3.541	     -24.820	     -14.559	      -2.609	    -167.940
	67.000000000	      -1.414	     164.771	      -5.842	      -4.110	     -24.865	     -13.497	      -2.611	    -168.002
	67.500000000	      -1.410	     164.309	      -5.981	      -4.961	     -25.040	     -13.914	      -2.616	    -168.473
	68.000000000	      -1.434	     164.181	      -6.088	      -5.561	     -25.039	     -14.009	      -2.648	    -168.788
	68.500000000	      -1.456	     163.977	      -6.195	      -6.132	     -25.058	     -14.417	      -2.613	    -168.958
	69.000000000	      -1.480	     163.765	      -6.328	      -6.724	     -25.085	     -14.927	      -2.558	    -169.182
	69.500000000	      -1.479	     163.494	      -6.440	      -7.155	     -25.188	     -15.068	      -2.535	    -169.388
	70.000000000	      -1.466	     163.326	      -6.542	      -7.609	     -25.266	     -14.435	      -2.512	    -169.547
	70.500000000	      -1.452	     163.112	      -6.635	      -8.131	     -25.222	     -14.603	      -2.476	    -169.694
	71.000000000	      -1.448	     162.849	      -6.731	      -8.625	     -25.239	     -14.629	      -2.439	    -169.936
	71.500000000	      -1.423	     162.566	      -6.843	      -9.095	     -25.230	     -14.970	      -2.373	    -170.160
	72.000000000	      -1.426	     162.341	      -6.947	      -9.654	     -25.230	     -15.375	      -2.383	    -170.425
	72.500000000	      -1.440	     161.978	      -7.044	     -10.350	     -25.290	     -16.214	      -2.355	    -170.715
	73.000000000	      -1.461	     161.840	      -7.164	     -10.906	     -25.414	     -17.109	      -2.317	    -170.936
	73.500000000	      -1.475	     161.704	      -7.274	     -11.407	     -25.624	     -17.284	      -2.256	    -171.264
	74.000000000	      -1.479	     161.467	      -7.383	     -11.885	     -25.722	     -17.007	      -2.254	    -171.818
	74.500000000	      -1.501	     161.258	      -7.488	     -12.280	     -25.837	     -16.715	      -2.267	    -172.091
	75.000000000	      -1.529	     161.153	      -7.586	     -12.818	     -25.936	     -16.635	      -2.251	    -172.236
	75.500000000	      -1.555	     161.070	      -7.715	     -13.348	     -26.166	     -16.589	      -2.256	    -172.379
	76.000000000	      -1.558	     161.115	      -7.835	     -13.763	     -26.509	     -15.539	      -2.262	    -172.465
	76.500000000	      -1.559	     161.177	      -7.969	     -13.926	     -26.793	     -12.262	      -2.254	    -172.392
	77.000000000	      -1.541	     161.274	      -8.061	     -13.920	     -26.641	      -7.929	      -2.190	    -172.309
	77.500000000	      -1.473	     161.104	      -8.082	     -13.888	     -26.110	      -5.280	      -2.114	    -172.461
	78.000000000	      -1.405	     160.848	      -8.100	     -14.148	     -25.576	      -5.118	      -2.063	    -172.709
	78.500000000	      -1.353	     160.358	      -8.130	     -14.728	     -25.218	      -5.998	      -2.035	    -172.974
	79.000000000	      -1.359	     159.723	      -8.179	     -15.386	     -24.970	      -7.162	      -1.981	    -173.299
	79.500000000	      -1.376	     159.238	      -8.210	     -16.136	     -24.692	      -8.379	      -1.935	    -173.537
