!File name = EG0520U_1010_6x60_2SDBCB2EV_1915934D06_RC4034_4Vd_54mA.s2p
!Base file name = EG0520U_1010_6x60_2SDBCB2EV_1915934D06_RC4034
!Date = 8/23/2019
!Time = 1:00 PM
!Test duration(min) = 0.15
!Test = S-Parameters
!MPTS version = 8.91.5
!State File = C:\Data\PNA\20190821205423\S-Parameters_2019-08-23.sta
!Cal File = 
!ComputerName = CMPE-LAB-6
!Comments = 
!Attenuation = 0
!Z0 = 50
!Input Power(dBm) = -13.00
!Device ID = EG0520U_1010_6x60_2SDBCB2EV
!Row = 40
!Column = 34
!Technology = QPHT09
!Lot/Wafer = 1915934D06
!Gate Size = 360
!Mask = EG0520
!Cal Standards = GaAs BCB
!Cal Kit = EG2306
!Job Number = 20190821205423
!Device Type = FET
!set_Vg(v) = -1.500
!set_Vd(v) = 4.000
!set_Vd(mA) = 54.000
!file_name = EG0520U_1010_6x60_2SDBCB2EV_1915934D06_RC4034_4Vd_54mA.s2p
!Vd(V) = 4.000
!Vd(mA) = 53.979
!Vg(V) = -0.465
!Vg(mA) = -0.003
# GHz   S   DB   R   50
!%	Freq(GHz)	     s11(dB)	    s11(deg)	     s21(dB)	    s21(deg)	     s12(dB)	    s12(deg)	     s22(dB)	    s22(deg)
	0.500000000	      -0.062	     -15.269	      22.587	     170.637	     -39.475	      80.933	      -8.704	     -15.397
	1.000000000	      -0.149	     -30.142	      22.106	     161.997	     -33.712	      73.094	      -8.765	     -29.232
	1.500000000	      -0.191	     -44.089	      21.717	     154.278	     -30.582	      65.622	      -8.748	     -42.508
	2.000000000	      -0.332	     -56.620	      21.452	     146.887	     -28.600	      58.778	      -8.789	     -55.417
	2.500000000	      -0.430	     -68.203	      20.977	     140.348	     -27.240	      52.886	      -8.925	     -65.804
	3.000000000	      -0.821	     -75.941	      20.274	     135.158	     -26.455	      48.494	      -9.337	     -69.991
	3.500000000	      -0.937	     -84.792	      19.685	     130.049	     -25.723	      44.072	      -9.421	     -77.878
	4.000000000	      -1.030	     -92.568	      19.101	     125.541	     -25.172	      40.203	      -9.490	     -84.785
	4.500000000	      -1.126	     -99.450	      18.525	     121.416	     -24.757	      36.743	      -9.546	     -91.056
	5.000000000	      -1.197	    -105.529	      17.952	     117.782	     -24.429	      33.738	      -9.600	     -96.339
	5.500000000	      -1.259	    -110.976	      17.408	     114.424	     -24.182	      31.111	      -9.651	    -101.000
	6.000000000	      -1.314	    -115.820	      16.869	     111.416	     -23.971	      28.740	      -9.663	    -105.029
	6.500000000	      -1.358	    -120.115	      16.355	     108.678	     -23.808	      26.653	      -9.671	    -108.587
	7.000000000	      -1.396	    -124.003	      15.862	     106.117	     -23.676	      24.761	      -9.669	    -111.748
	7.500000000	      -1.423	    -127.489	      15.383	     103.773	     -23.577	      23.069	      -9.658	    -114.520
	8.000000000	      -1.430	    -130.434	      14.945	     101.704	     -23.458	      21.661	      -9.669	    -116.304
	8.500000000	      -1.456	    -133.372	      14.503	      99.661	     -23.386	      20.208	      -9.654	    -118.534
	9.000000000	      -1.483	    -136.012	      14.073	      97.744	     -23.328	      18.814	      -9.628	    -120.500
	9.500000000	      -1.499	    -138.471	      13.670	      95.886	     -23.281	      17.512	      -9.596	    -122.263
	10.000000000	      -1.511	    -140.743	      13.279	      94.136	     -23.259	      16.339	      -9.563	    -123.937
	10.500000000	      -1.529	    -142.862	      12.902	      92.445	     -23.244	      15.330	      -9.531	    -125.396
	11.000000000	      -1.539	    -144.792	      12.540	      90.865	     -23.225	      14.355	      -9.489	    -126.694
	11.500000000	      -1.555	    -146.631	      12.186	      89.323	     -23.227	      13.434	      -9.448	    -127.859
	12.000000000	      -1.568	    -148.319	      11.847	      87.871	     -23.227	      12.630	      -9.394	    -128.904
	12.500000000	      -1.574	    -149.894	      11.518	      86.450	     -23.225	      11.863	      -9.335	    -129.998
	13.000000000	      -1.581	    -151.362	      11.201	      85.069	     -23.228	      11.132	      -9.281	    -130.938
	13.500000000	      -1.587	    -152.785	      10.893	      83.746	     -23.243	      10.331	      -9.217	    -131.777
	14.000000000	      -1.597	    -154.141	      10.593	      82.447	     -23.270	       9.701	      -9.152	    -132.480
	14.500000000	      -1.602	    -155.350	      10.302	      81.191	     -23.297	       9.130	      -9.096	    -133.269
	15.000000000	      -1.605	    -156.440	      10.018	      79.983	     -23.316	       8.644	      -9.040	    -133.965
	15.500000000	      -1.608	    -157.531	       9.744	      78.779	     -23.336	       8.125	      -8.975	    -134.547
	16.000000000	      -1.612	    -158.625	       9.477	      77.605	     -23.352	       7.583	      -8.900	    -135.113
	16.500000000	      -1.615	    -159.665	       9.216	      76.453	     -23.381	       7.060	      -8.831	    -135.603
	17.000000000	      -1.615	    -160.642	       8.964	      75.329	     -23.426	       6.556	      -8.764	    -136.177
	17.500000000	      -1.622	    -161.526	       8.713	      74.225	     -23.454	       6.170	      -8.694	    -136.700
	18.000000000	      -1.630	    -162.400	       8.473	      73.147	     -23.497	       5.734	      -8.623	    -137.238
	18.500000000	      -1.629	    -163.243	       8.238	      72.093	     -23.521	       5.299	      -8.541	    -137.665
	19.000000000	      -1.627	    -164.059	       8.006	      71.046	     -23.569	       4.820	      -8.466	    -138.073
	19.500000000	      -1.624	    -164.839	       7.782	      70.025	     -23.641	       4.513	      -8.401	    -138.497
	20.000000000	      -1.630	    -165.580	       7.562	      69.023	     -23.719	       4.375	      -8.342	    -138.867
	20.500000000	      -1.635	    -166.264	       7.351	      68.028	     -23.751	       4.310	      -8.263	    -139.179
	21.000000000	      -1.633	    -166.924	       7.142	      67.046	     -23.761	       4.144	      -8.176	    -139.548
	21.500000000	      -1.623	    -167.646	       6.936	      66.051	     -23.791	       3.844	      -8.093	    -139.872
	22.000000000	      -1.615	    -168.232	       6.736	      65.087	     -23.823	       3.504	      -8.012	    -140.213
	22.500000000	      -1.614	    -168.876	       6.533	      64.098	     -23.849	       3.061	      -7.941	    -140.594
	23.000000000	      -1.615	    -169.469	       6.335	      63.157	     -23.901	       2.750	      -7.865	    -141.039
	23.500000000	      -1.614	    -170.141	       6.141	      62.233	     -24.025	       2.348	      -7.796	    -141.522
	24.000000000	      -1.621	    -170.729	       5.951	      61.363	     -24.134	       2.524	      -7.739	    -141.773
	24.500000000	      -1.612	    -171.160	       5.774	      60.462	     -24.153	       2.769	      -7.661	    -141.879
	25.000000000	      -1.602	    -171.643	       5.596	      59.513	     -24.124	       2.584	      -7.575	    -142.103
	25.500000000	      -1.598	    -172.244	       5.413	      58.620	     -24.183	       2.428	      -7.489	    -142.458
	26.000000000	      -1.602	    -172.796	       5.234	      57.743	     -24.241	       2.053	      -7.396	    -142.889
	26.500000000	      -1.598	    -173.273	       5.061	      56.859	     -24.278	       1.776	      -7.317	    -143.223
	27.000000000	      -1.592	    -173.665	       4.889	      56.007	     -24.337	       1.535	      -7.245	    -143.562
	27.500000000	      -1.598	    -174.056	       4.724	      55.229	     -24.533	       1.676	      -7.195	    -143.664
	28.000000000	      -1.598	    -174.540	       4.565	      54.408	     -24.625	       2.215	      -7.121	    -144.017
	28.500000000	      -1.574	    -174.966	       4.420	      53.466	     -24.534	       2.629	      -7.019	    -144.303
	29.000000000	      -1.567	    -175.454	       4.254	      52.541	     -24.535	       2.374	      -6.936	    -144.710
	29.500000000	      -1.563	    -175.847	       4.090	      51.701	     -24.603	       2.028	      -6.862	    -145.044
	30.000000000	      -1.563	    -176.272	       3.929	      50.928	     -24.671	       1.858	      -6.796	    -145.305
	30.500000000	      -1.564	    -176.693	       3.778	      50.099	     -24.716	       1.617	      -6.732	    -145.648
	31.000000000	      -1.555	    -177.108	       3.626	      49.313	     -24.817	       1.752	      -6.664	    -145.935
	31.500000000	      -1.539	    -177.487	       3.492	      48.507	     -24.903	       2.259	      -6.594	    -146.214
	32.000000000	      -1.535	    -177.835	       3.346	      47.666	     -24.944	       2.374	      -6.515	    -146.485
	32.500000000	      -1.539	    -178.224	       3.201	      46.768	     -24.900	       2.261	      -6.430	    -146.749
	33.000000000	      -1.537	    -178.669	       3.053	      45.980	     -24.916	       2.339	      -6.366	    -147.079
	33.500000000	      -1.525	    -179.060	       2.903	      45.198	     -24.987	       2.027	      -6.295	    -147.459
	34.000000000	      -1.518	    -179.416	       2.757	      44.400	     -25.078	       2.008	      -6.218	    -147.864
	34.500000000	      -1.522	    -179.815	       2.604	      43.577	     -25.146	       2.030	      -6.136	    -148.110
	35.000000000	      -1.526	     179.864	       2.462	      42.835	     -25.224	       1.783	      -6.076	    -148.514
	35.500000000	      -1.516	     179.533	       2.342	      42.129	     -25.285	       2.530	      -6.021	    -148.715
	36.000000000	      -1.512	     179.184	       2.210	      41.331	     -25.238	       2.759	      -5.936	    -149.030
	36.500000000	      -1.501	     178.930	       2.076	      40.492	     -25.255	       2.514	      -5.859	    -149.352
	37.000000000	      -1.497	     178.667	       1.940	      39.735	     -25.309	       2.269	      -5.796	    -149.706
	37.500000000	      -1.496	     178.326	       1.804	      38.981	     -25.484	       2.537	      -5.747	    -149.999
	38.000000000	      -1.490	     177.968	       1.671	      38.250	     -25.486	       2.538	      -5.680	    -150.293
	38.500000000	      -1.479	     177.650	       1.536	      37.538	     -25.581	       1.894	      -5.612	    -150.780
	39.000000000	      -1.473	     177.401	       1.413	      36.832	     -25.743	       3.076	      -5.540	    -151.099
	39.500000000	      -1.472	     177.241	       1.295	      36.170	     -25.704	       3.122	      -5.477	    -151.459
	40.000000000	      -1.455	     176.843	       1.185	      35.337	     -25.664	       3.525	      -5.406	    -151.767
	40.500000000	      -1.452	     176.403	       1.054	      34.563	     -25.723	       3.587	      -5.333	    -152.086
	41.000000000	      -1.437	     176.060	       0.927	      33.778	     -25.727	       3.557	      -5.285	    -152.546
	41.500000000	      -1.431	     175.867	       0.803	      33.085	     -25.774	       3.604	      -5.239	    -152.784
	42.000000000	      -1.433	     175.590	       0.682	      32.364	     -25.985	       3.683	      -5.164	    -152.932
	42.500000000	      -1.448	     175.211	       0.560	      31.684	     -26.001	       3.589	      -5.100	    -153.043
	43.000000000	      -1.442	     174.942	       0.454	      31.024	     -26.110	       4.268	      -5.032	    -153.431
	43.500000000	      -1.425	     174.721	       0.337	      30.211	     -26.039	       4.876	      -4.974	    -153.850
	44.000000000	      -1.435	     174.434	       0.212	      29.415	     -26.043	       5.179	      -4.905	    -154.195
	44.500000000	      -1.441	     174.020	       0.083	      28.733	     -26.016	       4.723	      -4.834	    -154.579
	45.000000000	      -1.447	     173.740	      -0.036	      28.073	     -26.052	       4.769	      -4.776	    -154.986
	45.500000000	      -1.404	     173.413	      -0.318	      27.478	     -26.273	       5.203	      -4.639	    -156.027
	46.000000000	      -1.385	     173.177	      -0.441	      26.899	     -26.504	       4.451	      -4.590	    -156.432
	46.500000000	      -1.374	     172.844	      -0.546	      26.251	     -26.637	       5.518	      -4.516	    -156.554
	47.000000000	      -1.375	     172.517	      -0.653	      25.514	     -26.592	       5.626	      -4.456	    -156.780
	47.500000000	      -1.370	     172.255	      -0.764	      24.810	     -26.493	       7.031	      -4.402	    -157.165
	48.000000000	      -1.356	     172.019	      -0.878	      24.093	     -26.444	       6.931	      -4.353	    -157.391
	48.500000000	      -1.345	     171.654	      -1.002	      23.446	     -26.650	       6.633	      -4.305	    -157.743
	49.000000000	      -1.357	     171.445	      -1.114	      22.793	     -26.523	       6.542	      -4.229	    -158.055
	49.500000000	      -1.361	     171.210	      -1.233	      22.228	     -26.661	       5.452	      -4.157	    -158.463
	50.000000000	      -1.351	     170.965	      -1.337	      21.697	     -26.980	       7.005	      -4.142	    -158.711
	50.500000000	      -1.333	     170.640	      -1.434	      20.975	     -26.879	       8.328	      -4.109	    -159.261
	51.000000000	      -1.336	     170.399	      -1.562	      20.312	     -26.770	       7.424	      -4.071	    -159.702
	51.500000000	      -1.334	     170.259	      -1.666	      19.691	     -26.736	       9.106	      -4.021	    -159.990
	52.000000000	      -1.317	     170.000	      -1.778	      19.058	     -26.760	       9.010	      -3.989	    -160.306
	52.500000000	      -1.316	     169.651	      -1.880	      18.406	     -26.774	       8.622	      -3.950	    -160.410
	53.000000000	      -1.305	     169.328	      -1.994	      17.871	     -26.827	       8.885	      -3.900	    -160.543
	53.500000000	      -1.298	     169.204	      -2.088	      17.344	     -26.912	       8.914	      -3.845	    -160.751
	54.000000000	      -1.297	     168.943	      -2.184	      16.804	     -26.767	       8.228	      -3.781	    -161.100
	54.500000000	      -1.287	     168.538	      -2.276	      16.192	     -26.828	      10.417	      -3.734	    -161.365
	55.000000000	      -1.299	     168.157	      -2.367	      15.476	     -26.745	       9.314	      -3.689	    -161.602
	55.500000000	      -1.295	     167.872	      -2.450	      14.785	     -26.785	       8.783	      -3.646	    -161.965
	56.000000000	      -1.286	     167.645	      -2.551	      14.236	     -26.891	       8.456	      -3.606	    -162.447
	56.500000000	      -1.297	     167.365	      -2.665	      13.471	     -27.011	       9.258	      -3.544	    -163.110
	57.000000000	      -1.295	     167.205	      -2.777	      12.835	     -27.092	       8.740	      -3.541	    -163.111
	57.500000000	      -1.285	     166.984	      -2.873	      12.323	     -27.024	       7.736	      -3.486	    -163.371
	58.000000000	      -1.269	     166.865	      -2.957	      11.630	     -27.154	       8.737	      -3.452	    -163.666
	58.500000000	      -1.242	     166.711	      -3.064	      11.177	     -27.070	      10.877	      -3.416	    -164.052
	59.000000000	      -1.241	     166.230	      -3.149	      10.342	     -27.154	      10.457	      -3.367	    -164.322
	59.500000000	      -1.245	     166.094	      -3.249	       9.632	     -27.310	      10.061	      -3.312	    -164.618
	60.000000000	      -1.249	     165.980	      -3.341	       9.063	     -27.142	      10.857	      -3.317	    -164.923
	60.500000000	      -1.226	     165.747	      -3.433	       8.455	     -27.321	      10.858	      -3.307	    -165.067
	61.000000000	      -1.192	     165.420	      -3.547	       7.910	     -27.398	      11.308	      -3.266	    -165.244
	61.500000000	      -1.189	     165.203	      -3.639	       7.469	     -27.338	      11.815	      -3.230	    -165.531
	62.000000000	      -1.161	     164.872	      -3.717	       6.729	     -27.670	      12.594	      -3.209	    -165.604
	62.500000000	      -1.188	     164.567	      -3.800	       6.078	     -27.294	      11.088	      -3.193	    -165.610
	63.000000000	      -1.168	     164.106	      -3.887	       5.470	     -26.963	      12.672	      -3.134	    -165.827
	63.500000000	      -1.152	     163.911	      -3.955	       4.666	     -27.093	      13.739	      -3.065	    -166.265
	64.000000000	      -1.162	     164.017	      -4.030	       3.944	     -26.855	      13.642	      -3.020	    -166.105
	64.500000000	      -1.151	     163.807	      -4.104	       3.132	     -26.767	      12.687	      -2.973	    -166.171
	65.000000000	      -1.144	     163.418	      -4.238	       2.285	     -26.860	      11.821	      -2.880	    -166.448
	65.500000000	      -1.146	     162.947	      -4.351	       1.442	     -27.043	      12.864	      -2.850	    -167.389
	66.000000000	      -1.139	     162.748	      -4.466	       0.649	     -27.060	      12.439	      -2.836	    -167.830
	66.500000000	      -1.165	     162.437	      -4.609	      -0.125	     -26.746	      12.173	      -2.791	    -167.851
	67.000000000	      -1.204	     162.031	      -4.678	      -1.016	     -26.960	      13.028	      -2.795	    -167.748
	67.500000000	      -1.199	     161.515	      -4.864	      -1.569	     -26.894	      12.166	      -2.785	    -168.436
	68.000000000	      -1.229	     161.302	      -4.980	      -2.139	     -26.847	      11.950	      -2.805	    -168.744
	68.500000000	      -1.252	     161.077	      -5.089	      -2.617	     -26.867	      11.665	      -2.773	    -168.880
	69.000000000	      -1.279	     160.870	      -5.216	      -3.218	     -26.922	      11.074	      -2.709	    -169.131
	69.500000000	      -1.278	     160.632	      -5.335	      -3.695	     -26.966	      10.776	      -2.682	    -169.288
	70.000000000	      -1.266	     160.459	      -5.429	      -4.160	     -27.046	      11.614	      -2.659	    -169.433
	70.500000000	      -1.254	     160.245	      -5.542	      -4.672	     -26.968	      11.573	      -2.614	    -169.578
	71.000000000	      -1.251	     160.003	      -5.647	      -5.201	     -26.935	      11.146	      -2.587	    -169.810
	71.500000000	      -1.234	     159.839	      -5.741	      -5.736	     -26.943	      10.650	      -2.505	    -170.059
	72.000000000	      -1.241	     159.551	      -5.861	      -6.223	     -26.969	       9.933	      -2.514	    -170.297
	72.500000000	      -1.257	     159.192	      -5.962	      -6.904	     -26.990	       9.384	      -2.489	    -170.562
	73.000000000	      -1.283	     158.991	      -6.079	      -7.482	     -27.177	       8.580	      -2.451	    -170.799
	73.500000000	      -1.301	     158.895	      -6.200	      -7.968	     -27.399	       9.056	      -2.384	    -171.146
	74.000000000	      -1.306	     158.660	      -6.309	      -8.422	     -27.504	       9.670	      -2.379	    -171.686
	74.500000000	      -1.333	     158.460	      -6.413	      -8.858	     -27.559	      10.343	      -2.393	    -171.939
	75.000000000	      -1.364	     158.361	      -6.521	      -9.379	     -27.640	      10.863	      -2.375	    -172.049
	75.500000000	      -1.396	     158.308	      -6.657	      -9.885	     -27.838	      11.729	      -2.374	    -172.213
	76.000000000	      -1.409	     158.402	      -6.784	     -10.269	     -28.054	      14.018	      -2.375	    -172.315
	76.500000000	      -1.401	     158.600	      -6.911	     -10.441	     -28.011	      18.179	      -2.369	    -172.189
	77.000000000	      -1.383	     158.670	      -7.005	     -10.505	     -27.496	      21.429	      -2.303	    -172.132
	77.500000000	      -1.315	     158.628	      -7.042	     -10.552	     -26.766	      22.016	      -2.224	    -172.252
	78.000000000	      -1.226	     158.303	      -7.059	     -10.815	     -26.234	      20.776	      -2.176	    -172.356
	78.500000000	      -1.178	     157.853	      -7.107	     -11.420	     -25.925	      18.588	      -2.141	    -172.767
	79.000000000	      -1.176	     157.221	      -7.165	     -12.036	     -25.734	      16.577	      -2.083	    -173.055
	79.500000000	      -1.208	     156.612	      -7.203	     -12.893	     -25.504	      14.601	      -2.044	    -173.337
