!File name = EG0520U_1010_6x60_2SDBCB2EV_1915934D06_RC7325_3.5Vd_18mA.s2p
!Base file name = EG0520U_1010_6x60_2SDBCB2EV_1915934D06_RC7325
!Date = 8/23/2019
!Time = 1:09 PM
!Test duration(min) = 0.15
!Test = S-Parameters
!MPTS version = 8.91.5
!State File = C:\Data\PNA\20190821205423\S-Parameters_2019-08-23.sta
!Cal File = 
!ComputerName = CMPE-LAB-6
!Comments = 
!Attenuation = 0
!Z0 = 50
!Input Power(dBm) = -13.00
!Device ID = EG0520U_1010_6x60_2SDBCB2EV
!Row = 73
!Column = 25
!Technology = QPHT09
!Lot/Wafer = 1915934D06
!Gate Size = 360
!Mask = EG0520
!Cal Standards = GaAs BCB
!Cal Kit = EG2306
!Job Number = 20190821205423
!Device Type = FET
!set_Vg(v) = -1.500
!set_Vd(v) = 3.500
!set_Vd(mA) = 18.000
!file_name = EG0520U_1010_6x60_2SDBCB2EV_1915934D06_RC7325_3.5Vd_18mA.s2p
!Vd(V) = 3.500
!Vd(mA) = 18.127
!Vg(V) = -0.661
!Vg(mA) = -0.006
# GHz   S   DB   R   50
!%	Freq(GHz)	     s11(dB)	    s11(deg)	     s21(dB)	    s21(deg)	     s12(dB)	    s12(deg)	     s22(dB)	    s22(deg)
	0.500000000	      -0.067	     -12.297	      19.656	     172.207	     -37.715	      81.401	      -6.935	     -11.677
	1.000000000	      -0.145	     -24.367	      19.360	     164.513	     -31.882	      75.145	      -7.002	     -22.599
	1.500000000	      -0.179	     -35.948	      19.091	     158.216	     -28.630	      68.682	      -7.039	     -33.310
	2.000000000	      -0.318	     -46.795	      18.871	     151.193	     -26.509	      62.385	      -7.131	     -44.007
	2.500000000	      -0.409	     -57.026	      18.509	     145.252	     -25.036	      56.988	      -7.334	     -53.033
	3.000000000	      -0.788	     -64.130	      17.902	     140.010	     -24.150	      52.643	      -7.683	     -56.816
	3.500000000	      -0.905	     -72.528	      17.463	     135.109	     -23.296	      48.309	      -7.827	     -63.972
	4.000000000	      -1.020	     -80.049	      16.990	     130.631	     -22.633	      44.346	      -7.958	     -70.476
	4.500000000	      -1.156	     -86.812	      16.494	     126.314	     -22.124	      40.661	      -8.080	     -76.613
	5.000000000	      -1.240	     -92.962	      16.012	     122.636	     -21.720	      37.478	      -8.203	     -81.923
	5.500000000	      -1.332	     -98.593	      15.538	     119.106	     -21.404	      34.657	      -8.337	     -86.733
	6.000000000	      -1.413	    -103.725	      15.072	     115.876	     -21.134	      32.031	      -8.411	     -90.989
	6.500000000	      -1.475	    -108.296	      14.614	     112.980	     -20.917	      29.673	      -8.481	     -94.834
	7.000000000	      -1.539	    -112.479	      14.167	     110.206	     -20.737	      27.491	      -8.532	     -98.320
	7.500000000	      -1.584	    -116.261	      13.731	     107.671	     -20.593	      25.516	      -8.572	    -101.465
	8.000000000	      -1.611	    -119.494	      13.326	     105.425	     -20.458	      23.864	      -8.615	    -103.665
	8.500000000	      -1.654	    -122.736	      12.916	     103.189	     -20.353	      22.167	      -8.647	    -106.247
	9.000000000	      -1.697	    -125.627	      12.511	     101.100	     -20.261	      20.547	      -8.660	    -108.549
	9.500000000	      -1.729	    -128.368	      12.134	      99.056	     -20.189	      19.036	      -8.666	    -110.638
	10.000000000	      -1.752	    -130.890	      11.764	      97.162	     -20.133	      17.596	      -8.667	    -112.597
	10.500000000	      -1.782	    -133.264	      11.407	      95.296	     -20.093	      16.324	      -8.663	    -114.411
	11.000000000	      -1.801	    -135.423	      11.062	      93.591	     -20.056	      15.157	      -8.652	    -116.003
	11.500000000	      -1.826	    -137.468	      10.723	      91.907	     -20.032	      13.975	      -8.633	    -117.489
	12.000000000	      -1.844	    -139.380	      10.402	      90.326	     -20.013	      12.941	      -8.602	    -118.839
	12.500000000	      -1.855	    -141.164	      10.087	      88.798	     -19.995	      11.927	      -8.567	    -120.221
	13.000000000	      -1.870	    -142.835	       9.780	      87.265	     -19.985	      10.957	      -8.533	    -121.457
	13.500000000	      -1.883	    -144.425	       9.484	      85.840	     -19.985	       9.991	      -8.490	    -122.485
	14.000000000	      -1.896	    -145.939	       9.196	      84.443	     -19.989	       9.156	      -8.445	    -123.475
	14.500000000	      -1.902	    -147.318	       8.916	      83.083	     -19.992	       8.352	      -8.404	    -124.505
	15.000000000	      -1.908	    -148.565	       8.641	      81.778	     -20.004	       7.629	      -8.363	    -125.421
	15.500000000	      -1.915	    -149.790	       8.375	      80.484	     -20.011	       6.894	      -8.312	    -126.220
	16.000000000	      -1.921	    -151.009	       8.116	      79.216	     -20.012	       6.109	      -8.251	    -126.988
	16.500000000	      -1.927	    -152.177	       7.862	      77.966	     -20.028	       5.390	      -8.196	    -127.674
	17.000000000	      -1.930	    -153.268	       7.618	      76.765	     -20.051	       4.692	      -8.143	    -128.388
	17.500000000	      -1.938	    -154.259	       7.372	      75.576	     -20.069	       4.080	      -8.083	    -129.139
	18.000000000	      -1.948	    -155.226	       7.141	      74.423	     -20.097	       3.390	      -8.024	    -129.828
	18.500000000	      -1.950	    -156.183	       6.911	      73.291	     -20.111	       2.787	      -7.955	    -130.412
	19.000000000	      -1.950	    -157.090	       6.685	      72.165	     -20.150	       2.146	      -7.891	    -130.990
	19.500000000	      -1.947	    -157.952	       6.467	      71.076	     -20.193	       1.608	      -7.835	    -131.546
	20.000000000	      -1.952	    -158.772	       6.254	      70.008	     -20.246	       1.190	      -7.782	    -132.059
	20.500000000	      -1.954	    -159.556	       6.051	      68.939	     -20.269	       0.828	      -7.712	    -132.538
	21.000000000	      -1.954	    -160.304	       5.846	      67.883	     -20.283	       0.428	      -7.638	    -133.050
	21.500000000	      -1.945	    -161.106	       5.644	      66.826	     -20.303	      -0.103	      -7.566	    -133.501
	22.000000000	      -1.937	    -161.775	       5.448	      65.798	     -20.328	      -0.653	      -7.497	    -133.965
	22.500000000	      -1.936	    -162.488	       5.251	      64.749	     -20.355	      -1.233	      -7.437	    -134.455
	23.000000000	      -1.940	    -163.146	       5.057	      63.746	     -20.392	      -1.762	      -7.368	    -135.014
	23.500000000	      -1.940	    -163.879	       4.865	      62.765	     -20.465	      -2.359	      -7.306	    -135.589
	24.000000000	      -1.947	    -164.530	       4.680	      61.847	     -20.563	      -2.643	      -7.257	    -135.936
	24.500000000	      -1.940	    -165.020	       4.507	      60.892	     -20.585	      -2.694	      -7.188	    -136.173
	25.000000000	      -1.926	    -165.515	       4.333	      59.909	     -20.582	      -3.055	      -7.111	    -136.477
	25.500000000	      -1.928	    -166.175	       4.155	      58.963	     -20.620	      -3.519	      -7.033	    -136.916
	26.000000000	      -1.927	    -166.762	       3.982	      58.043	     -20.664	      -3.946	      -6.948	    -137.424
	26.500000000	      -1.922	    -167.290	       3.814	      57.100	     -20.699	      -4.360	      -6.873	    -137.848
	27.000000000	      -1.913	    -167.734	       3.645	      56.193	     -20.760	      -4.914	      -6.810	    -138.243
	27.500000000	      -1.914	    -168.130	       3.484	      55.396	     -20.883	      -5.114	      -6.763	    -138.411
	28.000000000	      -1.909	    -168.703	       3.332	      54.501	     -20.957	      -5.212	      -6.694	    -138.865
	28.500000000	      -1.887	    -169.219	       3.188	      53.521	     -20.917	      -5.158	      -6.599	    -139.263
	29.000000000	      -1.880	    -169.703	       3.024	      52.561	     -20.926	      -5.507	      -6.529	    -139.704
	29.500000000	      -1.876	    -170.131	       2.867	      51.673	     -20.972	      -5.977	      -6.462	    -140.098
	30.000000000	      -1.875	    -170.611	       2.712	      50.854	     -21.029	      -6.330	      -6.403	    -140.452
	30.500000000	      -1.876	    -171.077	       2.561	      49.983	     -21.080	      -6.620	      -6.342	    -140.821
	31.000000000	      -1.867	    -171.570	       2.412	      49.104	     -21.148	      -7.056	      -6.287	    -141.186
	31.500000000	      -1.852	    -171.964	       2.281	      48.309	     -21.266	      -7.145	      -6.220	    -141.521
	32.000000000	      -1.848	    -172.301	       2.139	      47.446	     -21.275	      -6.993	      -6.153	    -141.853
	32.500000000	      -1.858	    -172.762	       1.997	      46.539	     -21.272	      -7.392	      -6.070	    -142.151
	33.000000000	      -1.854	    -173.240	       1.855	      45.678	     -21.297	      -7.645	      -6.008	    -142.545
	33.500000000	      -1.842	    -173.657	       1.708	      44.905	     -21.380	      -7.948	      -5.950	    -142.951
	34.000000000	      -1.832	    -174.005	       1.567	      44.090	     -21.393	      -8.270	      -5.885	    -143.416
	34.500000000	      -1.831	    -174.437	       1.421	      43.226	     -21.460	      -8.657	      -5.811	    -143.765
	35.000000000	      -1.833	    -174.803	       1.283	      42.423	     -21.557	      -8.915	      -5.750	    -144.206
	35.500000000	      -1.829	    -175.174	       1.162	      41.696	     -21.635	      -8.682	      -5.694	    -144.459
	36.000000000	      -1.820	    -175.518	       1.038	      40.832	     -21.616	      -8.885	      -5.627	    -144.769
	36.500000000	      -1.808	    -175.774	       0.911	      40.023	     -21.628	      -9.003	      -5.558	    -145.171
	37.000000000	      -1.793	    -176.040	       0.782	      39.214	     -21.683	      -9.561	      -5.498	    -145.547
	37.500000000	      -1.793	    -176.464	       0.653	      38.396	     -21.751	      -9.824	      -5.450	    -145.870
	38.000000000	      -1.787	    -176.854	       0.522	      37.626	     -21.813	     -10.198	      -5.389	    -146.187
	38.500000000	      -1.777	    -177.219	       0.385	      36.877	     -21.888	     -10.364	      -5.334	    -146.679
	39.000000000	      -1.764	    -177.495	       0.269	      36.148	     -21.966	     -10.656	      -5.267	    -147.077
	39.500000000	      -1.757	    -177.717	       0.151	      35.426	     -22.026	     -10.447	      -5.203	    -147.452
	40.000000000	      -1.746	    -178.185	       0.042	      34.585	     -22.027	     -10.738	      -5.137	    -147.843
	40.500000000	      -1.739	    -178.656	      -0.090	      33.768	     -22.078	     -10.977	      -5.074	    -148.165
	41.000000000	      -1.727	    -179.013	      -0.211	      32.963	     -22.153	     -11.115	      -5.022	    -148.634
	41.500000000	      -1.721	    -179.247	      -0.327	      32.256	     -22.177	     -11.410	      -4.978	    -148.849
	42.000000000	      -1.723	    -179.550	      -0.453	      31.509	     -22.261	     -11.437	      -4.918	    -149.129
	42.500000000	      -1.740	    -179.927	      -0.567	      30.848	     -22.367	     -11.606	      -4.854	    -149.263
	43.000000000	      -1.738	     179.836	      -0.670	      30.175	     -22.464	     -12.051	      -4.797	    -149.653
	43.500000000	      -1.722	     179.574	      -0.782	      29.383	     -22.441	     -11.936	      -4.747	    -150.113
	44.000000000	      -1.727	     179.267	      -0.897	      28.552	     -22.461	     -11.334	      -4.678	    -150.571
	44.500000000	      -1.727	     178.822	      -1.022	      27.834	     -22.519	     -11.634	      -4.622	    -150.945
	45.000000000	      -1.741	     178.499	      -1.132	      27.100	     -22.497	     -12.205	      -4.560	    -151.365
	45.500000000	      -1.689	     178.051	      -1.409	      26.406	     -22.788	     -12.939	      -4.449	    -152.470
	46.000000000	      -1.666	     177.802	      -1.529	      25.765	     -22.843	     -13.184	      -4.404	    -152.857
	46.500000000	      -1.657	     177.426	      -1.626	      25.095	     -22.911	     -12.986	      -4.325	    -153.116
	47.000000000	      -1.651	     177.028	      -1.729	      24.333	     -23.071	     -12.732	      -4.270	    -153.349
	47.500000000	      -1.643	     176.720	      -1.842	      23.662	     -23.082	     -12.924	      -4.233	    -153.562
	48.000000000	      -1.632	     176.429	      -1.956	      22.873	     -23.019	     -12.153	      -4.179	    -153.979
	48.500000000	      -1.627	     176.068	      -2.073	      22.216	     -23.020	     -12.502	      -4.141	    -154.258
	49.000000000	      -1.637	     175.849	      -2.176	      21.498	     -23.176	     -13.194	      -4.058	    -154.695
	49.500000000	      -1.644	     175.583	      -2.283	      20.880	     -23.202	     -13.571	      -4.008	    -155.094
	50.000000000	      -1.624	     175.268	      -2.406	      20.286	     -23.345	     -13.636	      -3.958	    -155.387
	50.500000000	      -1.617	     174.975	      -2.486	      19.722	     -23.600	     -13.392	      -3.943	    -155.994
	51.000000000	      -1.602	     174.675	      -2.603	      18.955	     -23.482	     -12.509	      -3.917	    -156.301
	51.500000000	      -1.610	     174.491	      -2.710	      18.361	     -23.524	     -12.987	      -3.868	    -156.714
	52.000000000	      -1.582	     174.212	      -2.810	      17.617	     -23.381	     -12.908	      -3.839	    -157.049
	52.500000000	      -1.579	     173.826	      -2.922	      16.947	     -23.494	     -13.388	      -3.793	    -157.160
	53.000000000	      -1.574	     173.483	      -3.024	      16.278	     -23.573	     -13.436	      -3.742	    -157.362
	53.500000000	      -1.569	     173.244	      -3.127	      15.734	     -23.595	     -13.644	      -3.684	    -157.723
	54.000000000	      -1.564	     173.009	      -3.214	      15.182	     -23.635	     -13.665	      -3.623	    -157.967
	54.500000000	      -1.562	     172.566	      -3.302	      14.583	     -23.680	     -13.158	      -3.587	    -158.299
	55.000000000	      -1.559	     172.109	      -3.390	      13.881	     -23.748	     -13.068	      -3.545	    -158.466
	55.500000000	      -1.562	     171.826	      -3.479	      13.197	     -23.675	     -14.065	      -3.503	    -158.873
	56.000000000	      -1.548	     171.516	      -3.573	      12.494	     -23.700	     -13.577	      -3.458	    -159.381
	56.500000000	      -1.550	     171.374	      -3.674	      11.806	     -23.932	     -15.251	      -3.426	    -160.105
	57.000000000	      -1.545	     171.122	      -3.774	      11.084	     -23.890	     -14.732	      -3.421	    -160.125
	57.500000000	      -1.550	     170.844	      -3.894	      10.441	     -24.015	     -15.346	      -3.363	    -160.505
	58.000000000	      -1.533	     170.661	      -3.969	       9.785	     -24.182	     -14.750	      -3.340	    -160.812
	58.500000000	      -1.503	     170.444	      -4.062	       9.267	     -24.144	     -15.187	      -3.293	    -161.174
	59.000000000	      -1.502	     170.139	      -4.128	       8.449	     -23.966	     -15.698	      -3.237	    -161.344
	59.500000000	      -1.503	     169.932	      -4.225	       7.742	     -24.331	     -15.001	      -3.210	    -161.795
	60.000000000	      -1.500	     169.686	      -4.318	       7.158	     -24.236	     -15.589	      -3.219	    -162.032
	60.500000000	      -1.461	     169.336	      -4.438	       6.503	     -24.367	     -14.978	      -3.192	    -162.345
	61.000000000	      -1.434	     169.035	      -4.535	       5.918	     -24.228	     -16.305	      -3.144	    -162.497
	61.500000000	      -1.440	     168.746	      -4.616	       5.310	     -24.369	     -15.457	      -3.124	    -162.785
	62.000000000	      -1.409	     168.448	      -4.690	       4.648	     -24.616	     -14.033	      -3.101	    -162.933
	62.500000000	      -1.421	     168.074	      -4.763	       3.971	     -24.690	     -15.900	      -3.067	    -163.002
	63.000000000	      -1.413	     167.574	      -4.861	       3.528	     -24.395	     -14.301	      -2.995	    -163.182
	63.500000000	      -1.400	     167.439	      -4.931	       2.546	     -24.651	     -14.605	      -2.964	    -163.542
	64.000000000	      -1.394	     167.416	      -5.011	       1.745	     -24.609	     -15.162	      -2.878	    -163.723
	64.500000000	      -1.378	     167.379	      -5.089	       0.912	     -24.707	     -14.217	      -2.837	    -163.637
	65.000000000	      -1.405	     166.939	      -5.206	       0.038	     -24.572	     -15.457	      -2.762	    -164.009
	65.500000000	      -1.385	     166.440	      -5.314	      -0.755	     -24.749	     -14.423	      -2.720	    -164.942
	66.000000000	      -1.372	     166.011	      -5.450	      -1.650	     -24.761	     -16.111	      -2.733	    -165.515
	66.500000000	      -1.389	     165.849	      -5.567	      -2.368	     -24.961	     -15.992	      -2.686	    -165.435
	67.000000000	      -1.438	     165.472	      -5.686	      -2.987	     -24.698	     -12.942	      -2.669	    -165.654
	67.500000000	      -1.426	     164.785	      -5.826	      -3.938	     -24.736	     -15.611	      -2.682	    -166.139
	68.000000000	      -1.468	     164.614	      -5.927	      -4.585	     -24.735	     -15.965	      -2.703	    -166.494
	68.500000000	      -1.504	     164.354	      -6.023	      -5.117	     -24.728	     -16.311	      -2.671	    -166.729
	69.000000000	      -1.531	     164.124	      -6.164	      -5.877	     -24.738	     -16.771	      -2.605	    -166.957
	69.500000000	      -1.526	     163.886	      -6.294	      -6.314	     -24.865	     -17.228	      -2.592	    -167.232
	70.000000000	      -1.507	     163.685	      -6.403	      -6.860	     -24.952	     -17.068	      -2.569	    -167.347
	70.500000000	      -1.488	     163.482	      -6.505	      -7.344	     -24.938	     -16.850	      -2.536	    -167.560
	71.000000000	      -1.472	     163.264	      -6.606	      -7.837	     -24.929	     -17.343	      -2.505	    -167.749
	71.500000000	      -1.441	     163.195	      -6.677	      -8.272	     -24.900	     -17.706	      -2.447	    -168.014
	72.000000000	      -1.432	     162.790	      -6.841	      -8.869	     -24.911	     -18.385	      -2.452	    -168.342
	72.500000000	      -1.449	     162.320	      -6.952	      -9.619	     -24.951	     -19.573	      -2.424	    -168.702
	73.000000000	      -1.477	     162.060	      -7.066	     -10.184	     -25.115	     -20.562	      -2.384	    -168.924
	73.500000000	      -1.497	     161.962	      -7.192	     -10.666	     -25.340	     -20.980	      -2.321	    -169.262
	74.000000000	      -1.503	     161.673	      -7.310	     -11.045	     -25.532	     -20.720	      -2.324	    -169.842
	74.500000000	      -1.535	     161.426	      -7.407	     -11.448	     -25.639	     -20.341	      -2.344	    -170.111
	75.000000000	      -1.566	     161.344	      -7.510	     -12.008	     -25.762	     -20.261	      -2.334	    -170.193
	75.500000000	      -1.602	     161.263	      -7.640	     -12.444	     -26.005	     -20.417	      -2.327	    -170.365
	76.000000000	      -1.612	     161.355	      -7.760	     -12.799	     -26.376	     -19.279	      -2.331	    -170.508
	76.500000000	      -1.598	     161.473	      -7.886	     -12.880	     -26.742	     -15.945	      -2.321	    -170.413
	77.000000000	      -1.574	     161.394	      -7.955	     -12.929	     -26.612	     -11.101	      -2.266	    -170.336
	77.500000000	      -1.486	     161.229	      -7.967	     -12.872	     -26.107	      -7.987	      -2.186	    -170.512
	78.000000000	      -1.414	     160.932	      -7.966	     -13.192	     -25.502	      -7.189	      -2.138	    -170.640
	78.500000000	      -1.376	     160.367	      -7.978	     -13.973	     -25.047	      -8.031	      -2.099	    -171.027
	79.000000000	      -1.414	     159.759	      -8.040	     -14.937	     -24.701	      -9.819	      -2.045	    -171.361
	79.500000000	      -1.426	     159.296	      -8.093	     -15.740	     -24.486	     -11.450	      -2.002	    -171.619
