!File name = EG0520U_1010_6x60_2SDBCB2EV_1915934D06_RC4034_4Vd_18mA.s2p
!Base file name = EG0520U_1010_6x60_2SDBCB2EV_1915934D06_RC4034
!Date = 8/23/2019
!Time = 12:59 PM
!Test duration(min) = 0.15
!Test = S-Parameters
!MPTS version = 8.91.5
!State File = C:\Data\PNA\20190821205423\S-Parameters_2019-08-23.sta
!Cal File = 
!ComputerName = CMPE-LAB-6
!Comments = 
!Attenuation = 0
!Z0 = 50
!Input Power(dBm) = -13.00
!Device ID = EG0520U_1010_6x60_2SDBCB2EV
!Row = 40
!Column = 34
!Technology = QPHT09
!Lot/Wafer = 1915934D06
!Gate Size = 360
!Mask = EG0520
!Cal Standards = GaAs BCB
!Cal Kit = EG2306
!Job Number = 20190821205423
!Device Type = FET
!set_Vg(v) = -1.500
!set_Vd(v) = 4.000
!set_Vd(mA) = 18.000
!file_name = EG0520U_1010_6x60_2SDBCB2EV_1915934D06_RC4034_4Vd_18mA.s2p
!Vd(V) = 4.000
!Vd(mA) = 17.909
!Vg(V) = -0.658
!Vg(mA) = -0.011
# GHz   S   DB   R   50
!%	Freq(GHz)	     s11(dB)	    s11(deg)	     s21(dB)	    s21(deg)	     s12(dB)	    s12(deg)	     s22(dB)	    s22(deg)
	0.500000000	      -0.102	     -12.521	      19.774	     172.043	     -37.795	      80.294	      -6.595	     -11.392
	1.000000000	      -0.182	     -24.810	      19.481	     164.270	     -31.967	      74.451	      -6.685	     -21.966
	1.500000000	      -0.217	     -36.584	      19.203	     157.808	     -28.723	      68.101	      -6.756	     -32.351
	2.000000000	      -0.352	     -47.531	      18.968	     150.746	     -26.614	      61.844	      -6.889	     -42.722
	2.500000000	      -0.445	     -57.945	      18.605	     144.697	     -25.144	      56.433	      -7.126	     -51.471
	3.000000000	      -0.821	     -65.042	      17.975	     139.420	     -24.269	      52.109	      -7.492	     -55.119
	3.500000000	      -0.938	     -73.557	      17.535	     134.451	     -23.421	      47.721	      -7.672	     -62.113
	4.000000000	      -1.051	     -81.131	      17.053	     129.907	     -22.771	      43.776	      -7.844	     -68.447
	4.500000000	      -1.182	     -87.912	      16.549	     125.575	     -22.268	      40.102	      -8.006	     -74.436
	5.000000000	      -1.266	     -94.122	      16.063	     121.838	     -21.870	      36.908	      -8.161	     -79.638
	5.500000000	      -1.354	     -99.738	      15.581	     118.285	     -21.559	      34.068	      -8.322	     -84.361
	6.000000000	      -1.432	    -104.901	      15.111	     115.023	     -21.291	      31.458	      -8.425	     -88.555
	6.500000000	      -1.492	    -109.473	      14.648	     112.091	     -21.079	      29.101	      -8.518	     -92.356
	7.000000000	      -1.553	    -113.658	      14.197	     109.290	     -20.906	      26.918	      -8.592	     -95.785
	7.500000000	      -1.596	    -117.453	      13.757	     106.718	     -20.762	      24.935	      -8.651	     -98.967
	8.000000000	      -1.621	    -120.688	      13.348	     104.438	     -20.632	      23.281	      -8.703	    -101.150
	8.500000000	      -1.661	    -123.925	      12.937	     102.175	     -20.529	      21.587	      -8.747	    -103.726
	9.000000000	      -1.702	    -126.829	      12.529	     100.046	     -20.444	      19.972	      -8.773	    -106.038
	9.500000000	      -1.732	    -129.575	      12.149	      97.969	     -20.372	      18.456	      -8.787	    -108.142
	10.000000000	      -1.755	    -132.100	      11.776	      96.042	     -20.320	      17.025	      -8.793	    -110.170
	10.500000000	      -1.784	    -134.474	      11.416	      94.151	     -20.282	      15.744	      -8.797	    -111.971
	11.000000000	      -1.800	    -136.644	      11.069	      92.401	     -20.250	      14.547	      -8.790	    -113.578
	11.500000000	      -1.825	    -138.692	      10.728	      90.688	     -20.228	      13.362	      -8.776	    -115.083
	12.000000000	      -1.842	    -140.617	      10.404	      89.061	     -20.212	      12.327	      -8.748	    -116.481
	12.500000000	      -1.853	    -142.403	      10.088	      87.507	     -20.199	      11.317	      -8.713	    -117.892
	13.000000000	      -1.865	    -144.068	       9.780	      85.948	     -20.191	      10.357	      -8.679	    -119.162
	13.500000000	      -1.874	    -145.681	       9.484	      84.473	     -20.190	       9.364	      -8.636	    -120.295
	14.000000000	      -1.889	    -147.212	       9.192	      83.037	     -20.201	       8.511	      -8.589	    -121.279
	14.500000000	      -1.895	    -148.597	       8.911	      81.641	     -20.211	       7.717	      -8.545	    -122.346
	15.000000000	      -1.900	    -149.845	       8.633	      80.296	     -20.219	       6.942	      -8.502	    -123.301
	15.500000000	      -1.907	    -151.086	       8.365	      78.963	     -20.233	       6.217	      -8.448	    -124.153
	16.000000000	      -1.913	    -152.323	       8.103	      77.655	     -20.237	       5.446	      -8.384	    -124.968
	16.500000000	      -1.919	    -153.494	       7.849	      76.375	     -20.259	       4.734	      -8.325	    -125.693
	17.000000000	      -1.920	    -154.599	       7.602	      75.132	     -20.288	       4.002	      -8.268	    -126.459
	17.500000000	      -1.928	    -155.599	       7.355	      73.905	     -20.308	       3.397	      -8.205	    -127.256
	18.000000000	      -1.938	    -156.586	       7.120	      72.715	     -20.342	       2.734	      -8.141	    -128.000
	18.500000000	      -1.939	    -157.549	       6.889	      71.550	     -20.356	       2.097	      -8.066	    -128.645
	19.000000000	      -1.938	    -158.461	       6.661	      70.389	     -20.392	       1.479	      -7.996	    -129.268
	19.500000000	      -1.934	    -159.331	       6.441	      69.265	     -20.442	       0.895	      -7.935	    -129.865
	20.000000000	      -1.940	    -160.166	       6.225	      68.162	     -20.508	       0.456	      -7.878	    -130.429
	20.500000000	      -1.944	    -160.962	       6.018	      67.065	     -20.538	       0.138	      -7.801	    -130.938
	21.000000000	      -1.940	    -161.741	       5.813	      65.972	     -20.557	      -0.299	      -7.722	    -131.507
	21.500000000	      -1.933	    -162.514	       5.609	      64.878	     -20.582	      -0.757	      -7.641	    -132.011
	22.000000000	      -1.924	    -163.186	       5.412	      63.819	     -20.605	      -1.295	      -7.564	    -132.524
	22.500000000	      -1.922	    -163.901	       5.213	      62.735	     -20.635	      -1.856	      -7.498	    -133.058
	23.000000000	      -1.922	    -164.601	       5.016	      61.694	     -20.673	      -2.392	      -7.425	    -133.658
	23.500000000	      -1.922	    -165.302	       4.823	      60.687	     -20.761	      -3.022	      -7.359	    -134.286
	24.000000000	      -1.928	    -165.958	       4.637	      59.725	     -20.849	      -3.254	      -7.301	    -134.680
	24.500000000	      -1.919	    -166.466	       4.462	      58.746	     -20.874	      -3.369	      -7.224	    -134.965
	25.000000000	      -1.908	    -167.012	       4.285	      57.713	     -20.872	      -3.708	      -7.141	    -135.362
	25.500000000	      -1.904	    -167.663	       4.105	      56.733	     -20.920	      -4.171	      -7.057	    -135.855
	26.000000000	      -1.907	    -168.271	       3.927	      55.768	     -20.967	      -4.647	      -6.970	    -136.413
	26.500000000	      -1.904	    -168.807	       3.756	      54.804	     -21.009	      -4.935	      -6.888	    -136.878
	27.000000000	      -1.895	    -169.247	       3.587	      53.871	     -21.064	      -5.462	      -6.818	    -137.279
	27.500000000	      -1.896	    -169.684	       3.421	      53.023	     -21.185	      -5.776	      -6.764	    -137.559
	28.000000000	      -1.896	    -170.215	       3.264	      52.127	     -21.274	      -5.742	      -6.692	    -138.052
	28.500000000	      -1.871	    -170.715	       3.120	      51.112	     -21.261	      -5.671	      -6.594	    -138.515
	29.000000000	      -1.863	    -171.234	       2.955	      50.110	     -21.271	      -6.259	      -6.520	    -139.020
	29.500000000	      -1.859	    -171.722	       2.793	      49.198	     -21.341	      -6.616	      -6.445	    -139.449
	30.000000000	      -1.860	    -172.155	       2.635	      48.348	     -21.412	      -6.974	      -6.383	    -139.801
	30.500000000	      -1.854	    -172.585	       2.485	      47.452	     -21.445	      -7.366	      -6.314	    -140.235
	31.000000000	      -1.847	    -173.051	       2.333	      46.605	     -21.514	      -7.552	      -6.249	    -140.653
	31.500000000	      -1.831	    -173.462	       2.200	      45.727	     -21.613	      -7.427	      -6.182	    -141.060
	32.000000000	      -1.824	    -173.818	       2.056	      44.835	     -21.630	      -7.489	      -6.100	    -141.414
	32.500000000	      -1.829	    -174.293	       1.910	      43.852	     -21.632	      -7.816	      -6.020	    -141.788
	33.000000000	      -1.823	    -174.760	       1.765	      43.012	     -21.697	      -8.033	      -5.955	    -142.226
	33.500000000	      -1.809	    -175.192	       1.617	      42.167	     -21.767	      -8.527	      -5.890	    -142.669
	34.000000000	      -1.802	    -175.579	       1.471	      41.277	     -21.796	      -8.683	      -5.817	    -143.162
	34.500000000	      -1.802	    -176.010	       1.320	      40.420	     -21.879	      -9.372	      -5.735	    -143.538
	35.000000000	      -1.805	    -176.352	       1.179	      39.614	     -21.969	      -9.454	      -5.679	    -144.065
	35.500000000	      -1.795	    -176.727	       1.061	      38.813	     -22.031	      -9.087	      -5.620	    -144.303
	36.000000000	      -1.791	    -177.103	       0.929	      37.952	     -22.022	      -9.159	      -5.540	    -144.699
	36.500000000	      -1.778	    -177.384	       0.797	      37.096	     -22.031	      -9.707	      -5.466	    -145.158
	37.000000000	      -1.772	    -177.673	       0.661	      36.289	     -22.082	      -9.927	      -5.403	    -145.571
	37.500000000	      -1.772	    -178.042	       0.523	      35.471	     -22.183	     -10.317	      -5.352	    -145.974
	38.000000000	      -1.766	    -178.399	       0.392	      34.712	     -22.243	     -10.280	      -5.285	    -146.286
	38.500000000	      -1.750	    -178.770	       0.257	      33.898	     -22.362	     -10.708	      -5.223	    -146.879
	39.000000000	      -1.750	    -179.050	       0.134	      33.162	     -22.439	     -10.896	      -5.161	    -147.244
	39.500000000	      -1.741	    -179.243	       0.017	      32.456	     -22.475	     -10.743	      -5.095	    -147.673
	40.000000000	      -1.720	    -179.646	      -0.093	      31.589	     -22.514	     -10.670	      -5.021	    -148.101
	40.500000000	      -1.713	     179.881	      -0.223	      30.750	     -22.521	     -11.090	      -4.957	    -148.503
	41.000000000	      -1.697	     179.517	      -0.349	      29.912	     -22.617	     -11.147	      -4.903	    -148.987
	41.500000000	      -1.691	     179.305	      -0.472	      29.170	     -22.680	     -11.368	      -4.867	    -149.249
	42.000000000	      -1.691	     179.012	      -0.591	      28.408	     -22.707	     -11.615	      -4.794	    -149.533
	42.500000000	      -1.701	     178.619	      -0.713	      27.686	     -22.830	     -11.970	      -4.724	    -149.722
	43.000000000	      -1.693	     178.337	      -0.819	      26.971	     -22.914	     -11.358	      -4.659	    -150.196
	43.500000000	      -1.676	     178.084	      -0.935	      26.111	     -22.918	     -11.600	      -4.610	    -150.677
	44.000000000	      -1.681	     177.787	      -1.055	      25.322	     -22.974	     -11.391	      -4.534	    -151.116
	44.500000000	      -1.692	     177.378	      -1.183	      24.556	     -22.996	     -11.519	      -4.474	    -151.545
	45.000000000	      -1.703	     177.034	      -1.305	      23.836	     -22.977	     -11.773	      -4.411	    -151.968
	45.500000000	      -1.654	     176.628	      -1.586	      23.154	     -23.236	     -12.394	      -4.299	    -153.106
	46.000000000	      -1.632	     176.404	      -1.709	      22.488	     -23.363	     -12.834	      -4.255	    -153.470
	46.500000000	      -1.615	     176.005	      -1.818	      21.824	     -23.525	     -12.450	      -4.176	    -153.712
	47.000000000	      -1.613	     175.731	      -1.916	      21.073	     -23.592	     -12.480	      -4.110	    -154.063
	47.500000000	      -1.608	     175.371	      -2.033	      20.366	     -23.647	     -11.578	      -4.061	    -154.369
	48.000000000	      -1.591	     175.083	      -2.148	      19.572	     -23.619	     -11.663	      -4.024	    -154.722
	48.500000000	      -1.588	     174.775	      -2.260	      19.022	     -23.581	     -11.444	      -3.980	    -155.034
	49.000000000	      -1.593	     174.511	      -2.385	      18.252	     -23.636	     -12.425	      -3.914	    -155.377
	49.500000000	      -1.602	     174.274	      -2.504	      17.617	     -23.700	     -12.603	      -3.857	    -155.861
	50.000000000	      -1.579	     174.037	      -2.604	      16.903	     -23.899	     -12.468	      -3.787	    -156.207
	50.500000000	      -1.568	     173.704	      -2.709	      16.332	     -23.885	     -11.855	      -3.795	    -156.978
	51.000000000	      -1.564	     173.465	      -2.823	      15.583	     -24.044	     -11.231	      -3.769	    -157.205
	51.500000000	      -1.558	     173.207	      -2.925	      14.972	     -23.926	     -11.216	      -3.703	    -157.711
	52.000000000	      -1.542	     173.022	      -3.033	      14.304	     -24.087	     -11.809	      -3.671	    -157.990
	52.500000000	      -1.536	     172.644	      -3.146	      13.627	     -24.116	     -12.211	      -3.639	    -158.164
	53.000000000	      -1.534	     172.280	      -3.261	      12.964	     -24.118	     -12.114	      -3.581	    -158.317
	53.500000000	      -1.526	     172.135	      -3.355	      12.404	     -24.146	     -12.412	      -3.538	    -158.701
	54.000000000	      -1.515	     171.840	      -3.446	      11.801	     -24.307	     -12.438	      -3.474	    -159.047
	54.500000000	      -1.513	     171.466	      -3.537	      11.165	     -24.178	     -11.657	      -3.424	    -159.286
	55.000000000	      -1.523	     171.063	      -3.623	      10.480	     -24.291	     -12.089	      -3.384	    -159.500
	55.500000000	      -1.517	     170.803	      -3.725	       9.776	     -24.250	     -12.560	      -3.338	    -159.992
	56.000000000	      -1.512	     170.428	      -3.813	       9.025	     -24.333	     -12.659	      -3.287	    -160.453
	56.500000000	      -1.500	     170.287	      -3.914	       8.319	     -24.431	     -11.897	      -3.263	    -161.101
	57.000000000	      -1.514	     170.104	      -4.024	       7.718	     -24.364	     -13.381	      -3.243	    -161.326
	57.500000000	      -1.499	     169.880	      -4.124	       7.168	     -24.469	     -13.098	      -3.195	    -161.584
	58.000000000	      -1.480	     169.746	      -4.219	       6.418	     -24.630	     -13.452	      -3.156	    -161.921
	58.500000000	      -1.466	     169.465	      -4.315	       5.839	     -24.848	     -12.734	      -3.112	    -162.198
	59.000000000	      -1.470	     169.190	      -4.380	       5.175	     -24.593	     -12.453	      -3.059	    -162.463
	59.500000000	      -1.474	     168.904	      -4.490	       4.450	     -24.597	     -13.226	      -3.024	    -162.961
	60.000000000	      -1.449	     168.766	      -4.596	       3.779	     -24.832	     -12.749	      -3.042	    -163.183
	60.500000000	      -1.423	     168.394	      -4.677	       3.086	     -24.947	     -12.956	      -3.011	    -163.433
	61.000000000	      -1.403	     168.199	      -4.791	       2.583	     -24.926	     -12.571	      -2.975	    -163.620
	61.500000000	      -1.393	     167.915	      -4.886	       2.044	     -24.963	     -12.666	      -2.935	    -163.890
	62.000000000	      -1.365	     167.636	      -4.946	       1.178	     -25.442	     -13.497	      -2.909	    -164.081
	62.500000000	      -1.386	     167.220	      -5.041	       0.625	     -25.442	     -10.929	      -2.899	    -164.350
	63.000000000	      -1.370	     166.783	      -5.135	       0.025	     -25.268	     -11.705	      -2.843	    -164.346
	63.500000000	      -1.362	     166.548	      -5.204	      -0.786	     -25.105	     -11.047	      -2.771	    -164.777
	64.000000000	      -1.352	     166.625	      -5.273	      -1.699	     -25.142	      -9.776	      -2.736	    -164.993
	64.500000000	      -1.344	     166.454	      -5.328	      -2.357	     -24.920	      -9.780	      -2.661	    -164.892
	65.000000000	      -1.353	     166.067	      -5.494	      -3.415	     -25.229	     -13.002	      -2.603	    -165.251
	65.500000000	      -1.347	     165.578	      -5.598	      -4.137	     -25.317	     -11.387	      -2.587	    -166.285
	66.000000000	      -1.337	     165.375	      -5.728	      -4.908	     -25.388	     -13.240	      -2.574	    -166.651
	66.500000000	      -1.354	     165.204	      -5.846	      -5.847	     -25.427	     -13.531	      -2.537	    -166.644
	67.000000000	      -1.387	     164.843	      -5.992	      -6.359	     -25.023	     -11.707	      -2.513	    -166.968
	67.500000000	      -1.396	     164.180	      -6.133	      -7.226	     -25.313	     -11.982	      -2.514	    -167.328
	68.000000000	      -1.423	     164.030	      -6.239	      -7.862	     -25.283	     -12.367	      -2.550	    -167.670
	68.500000000	      -1.448	     163.830	      -6.345	      -8.379	     -25.287	     -12.625	      -2.516	    -167.889
	69.000000000	      -1.472	     163.619	      -6.463	      -9.040	     -25.355	     -13.057	      -2.456	    -168.136
	69.500000000	      -1.469	     163.379	      -6.587	      -9.484	     -25.458	     -13.254	      -2.437	    -168.376
	70.000000000	      -1.454	     163.182	      -6.694	      -9.931	     -25.517	     -12.920	      -2.410	    -168.504
	70.500000000	      -1.440	     162.974	      -6.794	     -10.455	     -25.466	     -12.522	      -2.367	    -168.717
	71.000000000	      -1.437	     162.702	      -6.895	     -10.837	     -25.488	     -12.782	      -2.340	    -168.946
	71.500000000	      -1.416	     162.491	      -7.004	     -11.372	     -25.439	     -13.124	      -2.283	    -169.120
	72.000000000	      -1.400	     162.222	      -7.111	     -11.952	     -25.470	     -13.770	      -2.283	    -169.452
	72.500000000	      -1.428	     161.848	      -7.209	     -12.688	     -25.520	     -14.573	      -2.258	    -169.755
	73.000000000	      -1.447	     161.667	      -7.328	     -13.273	     -25.667	     -15.352	      -2.224	    -169.986
	73.500000000	      -1.462	     161.561	      -7.451	     -13.757	     -25.891	     -15.358	      -2.161	    -170.342
	74.000000000	      -1.466	     161.340	      -7.570	     -14.211	     -25.999	     -15.035	      -2.158	    -170.886
	74.500000000	      -1.492	     161.099	      -7.667	     -14.654	     -26.094	     -14.682	      -2.176	    -171.120
	75.000000000	      -1.518	     160.970	      -7.773	     -15.207	     -26.213	     -14.530	      -2.164	    -171.306
	75.500000000	      -1.546	     160.889	      -7.901	     -15.696	     -26.437	     -14.428	      -2.163	    -171.479
	76.000000000	      -1.556	     160.968	      -8.024	     -16.082	     -26.776	     -13.217	      -2.167	    -171.578
	76.500000000	      -1.556	     161.087	      -8.159	     -16.229	     -27.050	      -9.723	      -2.155	    -171.511
	77.000000000	      -1.535	     161.123	      -8.247	     -16.230	     -26.864	      -5.432	      -2.100	    -171.513
	77.500000000	      -1.465	     161.003	      -8.269	     -16.166	     -26.283	      -2.694	      -2.021	    -171.641
	78.000000000	      -1.384	     160.667	      -8.277	     -16.440	     -25.722	      -2.508	      -1.980	    -171.827
	78.500000000	      -1.341	     160.204	      -8.313	     -17.032	     -25.352	      -3.752	      -1.947	    -172.196
	79.000000000	      -1.348	     159.557	      -8.362	     -17.717	     -25.104	      -4.889	      -1.891	    -172.501
	79.500000000	      -1.368	     159.091	      -8.396	     -18.494	     -24.831	      -6.233	      -1.845	    -172.789
