!File name = EG0520U_1010_6x60_2SDBCB2EV_1915934D06_RC2943_3Vd_45mA.s2p
!Base file name = EG0520U_1010_6x60_2SDBCB2EV_1915934D06_RC2943
!Date = 8/23/2019
!Time = 1:03 PM
!Test duration(min) = 0.15
!Test = S-Parameters
!MPTS version = 8.91.5
!State File = C:\Data\PNA\20190821205423\S-Parameters_2019-08-23.sta
!Cal File = 
!ComputerName = CMPE-LAB-6
!Comments = 
!Attenuation = 0
!Z0 = 50
!Input Power(dBm) = -13.00
!Device ID = EG0520U_1010_6x60_2SDBCB2EV
!Row = 29
!Column = 43
!Technology = QPHT09
!Lot/Wafer = 1915934D06
!Gate Size = 360
!Mask = EG0520
!Cal Standards = GaAs BCB
!Cal Kit = EG2306
!Job Number = 20190821205423
!Device Type = FET
!set_Vg(v) = -1.500
!set_Vd(v) = 3.000
!set_Vd(mA) = 45.000
!file_name = EG0520U_1010_6x60_2SDBCB2EV_1915934D06_RC2943_3Vd_45mA.s2p
!Vd(V) = 3.000
!Vd(mA) = 45.039
!Vg(V) = -0.469
!Vg(mA) = -0.001
# GHz   S   DB   R   50
!%	Freq(GHz)	     s11(dB)	    s11(deg)	     s21(dB)	    s21(deg)	     s12(dB)	    s12(deg)	     s22(dB)	    s22(deg)
	0.500000000	      -0.040	     -14.857	      22.210	     170.955	     -39.139	      81.313	      -9.687	     -16.939
	1.000000000	      -0.125	     -29.367	      21.771	     162.332	     -33.376	      73.478	      -9.638	     -32.314
	1.500000000	      -0.168	     -43.019	      21.408	     154.920	     -30.232	      66.061	      -9.457	     -46.802
	2.000000000	      -0.316	     -55.395	      21.134	     147.494	     -28.236	      59.199	      -9.307	     -60.693
	2.500000000	      -0.414	     -66.844	      20.687	     141.034	     -26.867	      53.360	      -9.287	     -71.727
	3.000000000	      -0.809	     -74.555	      19.994	     135.910	     -26.062	      49.012	      -9.633	     -76.373
	3.500000000	      -0.928	     -83.397	      19.427	     130.806	     -25.315	      44.587	      -9.574	     -84.587
	4.000000000	      -1.025	     -91.178	      18.855	     126.343	     -24.751	      40.683	      -9.516	     -91.704
	4.500000000	      -1.129	     -98.075	      18.288	     122.195	     -24.329	      37.177	      -9.455	     -98.121
	5.000000000	      -1.201	    -104.190	      17.728	     118.582	     -23.995	      34.161	      -9.418	    -103.506
	5.500000000	      -1.270	    -109.698	      17.190	     115.216	     -23.735	      31.525	      -9.395	    -108.221
	6.000000000	      -1.328	    -114.595	      16.660	     112.195	     -23.524	      29.111	      -9.343	    -112.254
	6.500000000	      -1.375	    -118.948	      16.153	     109.469	     -23.357	      26.962	      -9.300	    -115.818
	7.000000000	      -1.416	    -122.876	      15.664	     106.899	     -23.215	      25.049	      -9.255	    -118.952
	7.500000000	      -1.447	    -126.429	      15.189	     104.550	     -23.113	      23.316	      -9.210	    -121.711
	8.000000000	      -1.457	    -129.410	      14.754	     102.490	     -22.992	      21.888	      -9.203	    -123.515
	8.500000000	      -1.485	    -132.397	      14.317	     100.448	     -22.916	      20.412	      -9.164	    -125.738
	9.000000000	      -1.514	    -135.073	      13.889	      98.540	     -22.853	      19.006	      -9.119	    -127.681
	9.500000000	      -1.531	    -137.577	      13.490	      96.682	     -22.803	      17.693	      -9.071	    -129.460
	10.000000000	      -1.544	    -139.892	      13.101	      94.943	     -22.777	      16.485	      -9.028	    -131.089
	10.500000000	      -1.564	    -142.057	      12.727	      93.251	     -22.757	      15.428	      -8.984	    -132.553
	11.000000000	      -1.576	    -144.033	      12.366	      91.676	     -22.743	      14.410	      -8.941	    -133.870
	11.500000000	      -1.594	    -145.906	      12.013	      90.141	     -22.735	      13.452	      -8.899	    -135.041
	12.000000000	      -1.608	    -147.629	      11.676	      88.689	     -22.736	      12.630	      -8.847	    -136.093
	12.500000000	      -1.616	    -149.230	      11.347	      87.289	     -22.733	      11.851	      -8.792	    -137.153
	13.000000000	      -1.626	    -150.738	      11.029	      85.919	     -22.741	      11.120	      -8.743	    -138.096
	13.500000000	      -1.634	    -152.165	      10.724	      84.616	     -22.751	      10.311	      -8.682	    -138.854
	14.000000000	      -1.643	    -153.541	      10.426	      83.339	     -22.772	       9.631	      -8.623	    -139.613
	14.500000000	      -1.645	    -154.782	      10.137	      82.090	     -22.791	       9.008	      -8.571	    -140.406
	15.000000000	      -1.651	    -155.905	       9.853	      80.897	     -22.817	       8.480	      -8.525	    -141.112
	15.500000000	      -1.658	    -157.022	       9.578	      79.709	     -22.843	       8.011	      -8.471	    -141.691
	16.000000000	      -1.662	    -158.127	       9.312	      78.549	     -22.848	       7.474	      -8.405	    -142.225
	16.500000000	      -1.666	    -159.185	       9.052	      77.414	     -22.879	       6.901	      -8.345	    -142.724
	17.000000000	      -1.667	    -160.181	       8.799	      76.309	     -22.920	       6.455	      -8.293	    -143.238
	17.500000000	      -1.674	    -161.069	       8.550	      75.232	     -22.938	       6.019	      -8.228	    -143.784
	18.000000000	      -1.684	    -161.950	       8.311	      74.175	     -22.985	       5.603	      -8.166	    -144.311
	18.500000000	      -1.683	    -162.822	       8.076	      73.131	     -22.997	       5.095	      -8.093	    -144.726
	19.000000000	      -1.683	    -163.655	       7.845	      72.097	     -23.047	       4.580	      -8.031	    -145.150
	19.500000000	      -1.682	    -164.439	       7.620	      71.104	     -23.123	       4.269	      -7.980	    -145.577
	20.000000000	      -1.690	    -165.171	       7.402	      70.135	     -23.180	       4.236	      -7.928	    -145.901
	20.500000000	      -1.690	    -165.869	       7.194	      69.152	     -23.200	       4.096	      -7.857	    -146.218
	21.000000000	      -1.691	    -166.555	       6.983	      68.181	     -23.199	       3.790	      -7.784	    -146.593
	21.500000000	      -1.684	    -167.288	       6.777	      67.212	     -23.245	       3.472	      -7.717	    -146.917
	22.000000000	      -1.682	    -167.865	       6.576	      66.283	     -23.280	       3.051	      -7.647	    -147.251
	22.500000000	      -1.680	    -168.489	       6.376	      65.327	     -23.309	       2.596	      -7.586	    -147.611
	23.000000000	      -1.685	    -169.082	       6.178	      64.409	     -23.379	       2.264	      -7.523	    -148.042
	23.500000000	      -1.685	    -169.693	       5.985	      63.549	     -23.490	       2.076	      -7.466	    -148.452
	24.000000000	      -1.684	    -170.262	       5.803	      62.691	     -23.569	       2.420	      -7.409	    -148.681
	24.500000000	      -1.674	    -170.751	       5.626	      61.791	     -23.557	       2.494	      -7.346	    -148.830
	25.000000000	      -1.659	    -171.179	       5.449	      60.865	     -23.535	       2.254	      -7.277	    -149.059
	25.500000000	      -1.651	    -171.767	       5.270	      59.985	     -23.586	       1.917	      -7.205	    -149.351
	26.000000000	      -1.653	    -172.357	       5.092	      59.118	     -23.639	       1.595	      -7.123	    -149.724
	26.500000000	      -1.653	    -172.845	       4.919	      58.265	     -23.694	       1.322	      -7.051	    -150.024
	27.000000000	      -1.644	    -173.218	       4.751	      57.448	     -23.780	       0.981	      -6.986	    -150.329
	27.500000000	      -1.639	    -173.591	       4.594	      56.666	     -23.874	       1.351	      -6.941	    -150.424
	28.000000000	      -1.631	    -174.106	       4.440	      55.825	     -23.908	       1.540	      -6.869	    -150.793
	28.500000000	      -1.618	    -174.618	       4.283	      54.901	     -23.881	       1.608	      -6.783	    -151.068
	29.000000000	      -1.609	    -175.026	       4.120	      54.020	     -23.927	       1.243	      -6.711	    -151.388
	29.500000000	      -1.605	    -175.414	       3.961	      53.202	     -23.983	       0.921	      -6.652	    -151.714
	30.000000000	      -1.596	    -175.830	       3.806	      52.431	     -24.036	       0.903	      -6.591	    -151.974
	30.500000000	      -1.590	    -176.296	       3.655	      51.593	     -24.068	       0.655	      -6.528	    -152.256
	31.000000000	      -1.579	    -176.727	       3.504	      50.805	     -24.157	       0.487	      -6.474	    -152.584
	31.500000000	      -1.567	    -177.167	       3.362	      50.028	     -24.262	       0.714	      -6.425	    -152.853
	32.000000000	      -1.565	    -177.489	       3.218	      49.172	     -24.268	       1.015	      -6.355	    -153.058
	32.500000000	      -1.573	    -177.950	       3.072	      48.337	     -24.266	       0.941	      -6.279	    -153.252
	33.000000000	      -1.573	    -178.349	       2.927	      47.574	     -24.338	       0.767	      -6.216	    -153.526
	33.500000000	      -1.557	    -178.719	       2.779	      46.809	     -24.399	       0.746	      -6.160	    -153.876
	34.000000000	      -1.543	    -179.053	       2.639	      46.026	     -24.420	       0.735	      -6.086	    -154.230
	34.500000000	      -1.543	    -179.468	       2.489	      45.199	     -24.506	       0.598	      -6.009	    -154.459
	35.000000000	      -1.541	    -179.832	       2.347	      44.463	     -24.590	       0.787	      -5.955	    -154.848
	35.500000000	      -1.539	     179.779	       2.220	      43.719	     -24.613	       0.922	      -5.903	    -155.047
	36.000000000	      -1.532	     179.428	       2.086	      42.888	     -24.609	       1.308	      -5.831	    -155.303
	36.500000000	      -1.523	     179.140	       1.950	      42.143	     -24.558	       0.796	      -5.761	    -155.599
	37.000000000	      -1.518	     178.871	       1.814	      41.389	     -24.651	       0.696	      -5.711	    -155.918
	37.500000000	      -1.525	     178.486	       1.677	      40.649	     -24.724	       0.536	      -5.663	    -156.214
	38.000000000	      -1.518	     178.152	       1.543	      39.956	     -24.819	       0.395	      -5.600	    -156.424
	38.500000000	      -1.504	     177.767	       1.405	      39.217	     -24.876	       0.000	      -5.534	    -156.811
	39.000000000	      -1.508	     177.487	       1.272	      38.543	     -24.942	       0.380	      -5.480	    -157.105
	39.500000000	      -1.514	     177.230	       1.144	      37.902	     -25.054	       0.559	      -5.424	    -157.401
	40.000000000	      -1.517	     176.887	       1.028	      37.233	     -25.128	       1.035	      -5.353	    -157.664
	40.500000000	      -1.518	     176.556	       0.909	      36.530	     -25.093	       1.687	      -5.275	    -157.916
	41.000000000	      -1.500	     176.293	       0.789	      35.773	     -25.126	       1.382	      -5.225	    -158.328
	41.500000000	      -1.493	     176.126	       0.671	      35.094	     -25.158	       1.537	      -5.185	    -158.549
	42.000000000	      -1.493	     175.825	       0.551	      34.422	     -25.178	       1.317	      -5.121	    -158.802
	42.500000000	      -1.507	     175.435	       0.424	      33.750	     -25.309	       0.968	      -5.068	    -158.909
	43.000000000	      -1.508	     175.265	       0.319	      33.176	     -25.380	       1.899	      -5.002	    -159.162
	43.500000000	      -1.490	     175.077	       0.206	      32.391	     -25.347	       2.200	      -4.954	    -159.604
	44.000000000	      -1.501	     174.826	       0.091	      31.698	     -25.291	       2.394	      -4.892	    -159.942
	44.500000000	      -1.499	     174.413	      -0.032	      30.954	     -25.398	       2.307	      -4.824	    -160.227
	45.000000000	      -1.501	     174.143	      -0.150	      30.302	     -25.403	       2.052	      -4.765	    -160.531
	45.500000000	      -1.457	     173.827	      -0.432	      29.776	     -25.576	       1.998	      -4.625	    -161.417
	46.000000000	      -1.440	     173.600	      -0.553	      29.152	     -25.808	       1.664	      -4.580	    -161.760
	46.500000000	      -1.428	     173.214	      -0.657	      28.593	     -25.941	       2.705	      -4.505	    -161.873
	47.000000000	      -1.433	     172.919	      -0.756	      27.954	     -25.987	       4.350	      -4.442	    -162.103
	47.500000000	      -1.422	     172.662	      -0.877	      27.210	     -25.875	       3.529	      -4.410	    -162.316
	48.000000000	      -1.405	     172.382	      -0.986	      26.546	     -25.847	       4.128	      -4.366	    -162.603
	48.500000000	      -1.408	     172.090	      -1.107	      25.923	     -25.874	       3.909	      -4.325	    -162.895
	49.000000000	      -1.416	     171.878	      -1.221	      25.352	     -25.889	       2.873	      -4.241	    -163.252
	49.500000000	      -1.421	     171.711	      -1.329	      24.676	     -25.971	       3.003	      -4.166	    -163.426
	50.000000000	      -1.407	     171.431	      -1.447	      24.238	     -26.208	       3.420	      -4.166	    -163.878
	50.500000000	      -1.398	     171.161	      -1.538	      23.643	     -26.368	       4.421	      -4.149	    -164.314
	51.000000000	      -1.390	     170.895	      -1.652	      23.036	     -26.295	       5.166	      -4.090	    -164.677
	51.500000000	      -1.380	     170.776	      -1.749	      22.410	     -26.118	       5.415	      -4.059	    -164.899
	52.000000000	      -1.369	     170.556	      -1.858	      21.759	     -26.172	       5.021	      -4.019	    -165.117
	52.500000000	      -1.361	     170.181	      -1.967	      21.193	     -26.074	       5.467	      -3.971	    -165.236
	53.000000000	      -1.356	     169.866	      -2.068	      20.535	     -26.198	       4.617	      -3.927	    -165.443
	53.500000000	      -1.352	     169.708	      -2.166	      20.064	     -26.231	       4.817	      -3.869	    -165.685
	54.000000000	      -1.340	     169.500	      -2.264	      19.531	     -26.292	       5.281	      -3.807	    -165.903
	54.500000000	      -1.341	     169.138	      -2.356	      18.902	     -26.272	       5.964	      -3.766	    -166.113
	55.000000000	      -1.349	     168.757	      -2.439	      18.324	     -26.257	       6.275	      -3.721	    -166.330
	55.500000000	      -1.345	     168.487	      -2.536	      17.685	     -26.176	       5.981	      -3.680	    -166.710
	56.000000000	      -1.331	     168.227	      -2.613	      17.001	     -26.265	       4.877	      -3.637	    -167.077
	56.500000000	      -1.350	     168.120	      -2.740	      16.484	     -26.313	       4.558	      -3.598	    -167.673
	57.000000000	      -1.346	     167.913	      -2.827	      15.892	     -26.562	       5.720	      -3.603	    -167.784
	57.500000000	      -1.331	     167.646	      -2.930	      15.327	     -26.459	       4.645	      -3.551	    -168.131
	58.000000000	      -1.319	     167.602	      -3.003	      14.736	     -26.417	       4.460	      -3.518	    -168.312
	58.500000000	      -1.300	     167.384	      -3.088	      14.188	     -26.607	       5.741	      -3.477	    -168.673
	59.000000000	      -1.284	     167.091	      -3.188	      13.476	     -26.462	       6.708	      -3.419	    -168.824
	59.500000000	      -1.299	     166.856	      -3.291	      12.759	     -26.673	       5.417	      -3.372	    -169.049
	60.000000000	      -1.282	     166.721	      -3.378	      12.254	     -26.533	       6.429	      -3.408	    -169.389
	60.500000000	      -1.270	     166.501	      -3.483	      11.583	     -26.536	       5.391	      -3.394	    -169.461
	61.000000000	      -1.217	     166.209	      -3.591	      11.103	     -26.551	       5.464	      -3.348	    -169.787
	61.500000000	      -1.225	     165.886	      -3.687	      10.677	     -26.828	       6.010	      -3.316	    -169.850
	62.000000000	      -1.211	     165.705	      -3.742	       9.879	     -26.771	       7.897	      -3.286	    -170.059
	62.500000000	      -1.223	     165.309	      -3.832	       9.431	     -26.784	       8.640	      -3.276	    -170.039
	63.000000000	      -1.203	     164.951	      -3.922	       8.770	     -26.394	       8.144	      -3.216	    -170.227
	63.500000000	      -1.199	     164.835	      -3.991	       8.083	     -26.609	       7.622	      -3.170	    -170.546
	64.000000000	      -1.191	     164.864	      -4.073	       7.367	     -26.523	       8.542	      -3.143	    -170.567
	64.500000000	      -1.183	     164.709	      -4.158	       6.532	     -26.496	       6.808	      -3.085	    -170.549
	65.000000000	      -1.178	     164.321	      -4.269	       5.810	     -26.499	       6.541	      -3.058	    -170.681
	65.500000000	      -1.169	     163.886	      -4.389	       5.235	     -26.585	       6.454	      -3.022	    -171.306
	66.000000000	      -1.159	     163.664	      -4.483	       4.444	     -26.790	       6.570	      -2.980	    -171.763
	66.500000000	      -1.185	     163.325	      -4.617	       3.577	     -27.010	       9.490	      -2.957	    -171.797
	67.000000000	      -1.214	     163.032	      -4.701	       3.144	     -26.417	       8.264	      -2.926	    -171.891
	67.500000000	      -1.214	     162.383	      -4.848	       2.430	     -26.589	       7.398	      -2.916	    -172.185
	68.000000000	      -1.249	     162.236	      -4.944	       1.808	     -26.585	       7.136	      -2.935	    -172.454
	68.500000000	      -1.279	     162.062	      -5.048	       1.305	     -26.603	       6.749	      -2.905	    -172.533
	69.000000000	      -1.305	     161.872	      -5.182	       0.802	     -26.654	       6.140	      -2.839	    -172.678
	69.500000000	      -1.303	     161.663	      -5.297	       0.371	     -26.743	       6.423	      -2.823	    -172.906
	70.000000000	      -1.289	     161.483	      -5.396	      -0.077	     -26.792	       7.099	      -2.787	    -172.965
	70.500000000	      -1.271	     161.340	      -5.488	      -0.530	     -26.717	       7.118	      -2.747	    -173.090
	71.000000000	      -1.262	     161.158	      -5.569	      -0.899	     -26.697	       6.978	      -2.714	    -173.268
	71.500000000	      -1.223	     161.051	      -5.666	      -1.362	     -26.661	       6.651	      -2.639	    -173.419
	72.000000000	      -1.223	     160.673	      -5.776	      -1.830	     -26.637	       6.206	      -2.657	    -173.712
	72.500000000	      -1.238	     160.326	      -5.869	      -2.487	     -26.662	       5.489	      -2.627	    -173.943
	73.000000000	      -1.252	     160.144	      -5.959	      -2.990	     -26.790	       4.932	      -2.592	    -174.096
	73.500000000	      -1.280	     160.026	      -6.064	      -3.575	     -26.950	       5.006	      -2.518	    -174.360
	74.000000000	      -1.283	     159.769	      -6.156	      -4.065	     -26.975	       5.344	      -2.509	    -174.872
	74.500000000	      -1.312	     159.584	      -6.243	      -4.563	     -26.982	       5.532	      -2.526	    -175.067
	75.000000000	      -1.339	     159.519	      -6.346	      -5.163	     -27.011	       5.369	      -2.491	    -175.239
	75.500000000	      -1.362	     159.519	      -6.465	      -5.814	     -27.174	       5.119	      -2.498	    -175.379
	76.000000000	      -1.366	     159.588	      -6.596	      -6.394	     -27.452	       5.512	      -2.502	    -175.531
	76.500000000	      -1.354	     159.706	      -6.750	      -6.747	     -27.769	       8.005	      -2.498	    -175.469
	77.000000000	      -1.339	     159.662	      -6.888	      -6.852	     -27.713	      11.873	      -2.457	    -175.308
	77.500000000	      -1.284	     159.629	      -6.970	      -6.630	     -27.220	      15.120	      -2.383	    -175.297
	78.000000000	      -1.181	     159.558	      -7.001	      -6.517	     -26.664	      15.600	      -2.334	    -175.385
	78.500000000	      -1.126	     159.062	      -7.023	      -6.891	     -26.236	      14.545	      -2.284	    -175.713
	79.000000000	      -1.125	     158.479	      -7.065	      -7.430	     -25.944	      13.184	      -2.228	    -175.995
	79.500000000	      -1.126	     157.952	      -7.100	      -8.067	     -25.682	      11.403	      -2.174	    -176.235
