!File name = EG0520U_1010_6x60_2SDBCB2EV_1915934D06_RC2943_4Vd_36mA.s2p
!Base file name = EG0520U_1010_6x60_2SDBCB2EV_1915934D06_RC2943
!Date = 8/23/2019
!Time = 1:05 PM
!Test duration(min) = 0.15
!Test = S-Parameters
!MPTS version = 8.91.5
!State File = C:\Data\PNA\20190821205423\S-Parameters_2019-08-23.sta
!Cal File = 
!ComputerName = CMPE-LAB-6
!Comments = 
!Attenuation = 0
!Z0 = 50
!Input Power(dBm) = -13.00
!Device ID = EG0520U_1010_6x60_2SDBCB2EV
!Row = 29
!Column = 43
!Technology = QPHT09
!Lot/Wafer = 1915934D06
!Gate Size = 360
!Mask = EG0520
!Cal Standards = GaAs BCB
!Cal Kit = EG2306
!Job Number = 20190821205423
!Device Type = FET
!set_Vg(v) = -1.500
!set_Vd(v) = 4.000
!set_Vd(mA) = 36.000
!file_name = EG0520U_1010_6x60_2SDBCB2EV_1915934D06_RC2943_4Vd_36mA.s2p
!Vd(V) = 4.000
!Vd(mA) = 35.997
!Vg(V) = -0.540
!Vg(mA) = -0.005
# GHz   S   DB   R   50
!%	Freq(GHz)	     s11(dB)	    s11(deg)	     s21(dB)	    s21(deg)	     s12(dB)	    s12(deg)	     s22(dB)	    s22(deg)
	0.500000000	      -0.081	     -14.499	      21.757	     171.065	     -38.960	      80.666	      -8.078	     -14.031
	1.000000000	      -0.168	     -28.652	      21.342	     162.644	     -33.185	      73.426	      -8.157	     -26.817
	1.500000000	      -0.208	     -42.025	      20.988	     155.254	     -30.024	      66.245	      -8.186	     -39.193
	2.000000000	      -0.346	     -54.138	      20.723	     147.927	     -28.005	      59.536	      -8.278	     -51.314
	2.500000000	      -0.445	     -65.450	      20.278	     141.477	     -26.619	      53.770	      -8.462	     -61.246
	3.000000000	      -0.831	     -73.039	      19.594	     136.243	     -25.806	      49.378	      -8.866	     -65.261
	3.500000000	      -0.949	     -81.831	      19.043	     131.141	     -25.043	      44.958	      -8.994	     -72.935
	4.000000000	      -1.046	     -89.598	      18.486	     126.597	     -24.467	      41.021	      -9.107	     -79.737
	4.500000000	      -1.152	     -96.482	      17.928	     122.400	     -24.027	      37.483	      -9.204	     -85.993
	5.000000000	      -1.226	    -102.634	      17.377	     118.708	     -23.688	      34.419	      -9.295	     -91.320
	5.500000000	      -1.297	    -108.145	      16.848	     115.285	     -23.415	      31.709	      -9.383	     -96.051
	6.000000000	      -1.357	    -113.090	      16.326	     112.189	     -23.198	      29.263	      -9.426	    -100.192
	6.500000000	      -1.405	    -117.475	      15.825	     109.383	     -23.022	      27.063	      -9.462	    -103.889
	7.000000000	      -1.449	    -121.452	      15.341	     106.738	     -22.881	      25.101	      -9.484	    -107.137
	7.500000000	      -1.480	    -125.047	      14.871	     104.317	     -22.769	      23.304	      -9.495	    -110.088
	8.000000000	      -1.492	    -128.063	      14.439	     102.193	     -22.652	      21.836	      -9.517	    -111.998
	8.500000000	      -1.522	    -131.092	      14.004	     100.073	     -22.569	      20.320	      -9.517	    -114.371
	9.000000000	      -1.551	    -133.810	      13.579	      98.089	     -22.504	      18.859	      -9.503	    -116.502
	9.500000000	      -1.570	    -136.344	      13.182	      96.164	     -22.450	      17.494	      -9.483	    -118.363
	10.000000000	      -1.585	    -138.692	      12.795	      94.353	     -22.423	      16.236	      -9.460	    -120.130
	10.500000000	      -1.605	    -140.891	      12.422	      92.593	     -22.405	      15.100	      -9.431	    -121.755
	11.000000000	      -1.617	    -142.902	      12.062	      90.948	     -22.380	      14.065	      -9.401	    -123.166
	11.500000000	      -1.636	    -144.797	      11.711	      89.350	     -22.381	      13.044	      -9.364	    -124.484
	12.000000000	      -1.650	    -146.555	      11.374	      87.830	     -22.383	      12.154	      -9.316	    -125.653
	12.500000000	      -1.657	    -148.183	      11.047	      86.367	     -22.379	      11.325	      -9.262	    -126.845
	13.000000000	      -1.668	    -149.715	      10.730	      84.930	     -22.382	      10.505	      -9.213	    -127.894
	13.500000000	      -1.676	    -151.164	      10.424	      83.565	     -22.392	       9.702	      -9.148	    -128.775
	14.000000000	      -1.685	    -152.561	      10.126	      82.223	     -22.411	       8.994	      -9.086	    -129.638
	14.500000000	      -1.688	    -153.835	       9.838	      80.910	     -22.436	       8.323	      -9.031	    -130.534
	15.000000000	      -1.693	    -154.975	       9.554	      79.652	     -22.465	       7.702	      -8.976	    -131.324
	15.500000000	      -1.700	    -156.106	       9.280	      78.410	     -22.486	       7.194	      -8.912	    -131.987
	16.000000000	      -1.704	    -157.221	       9.013	      77.196	     -22.500	       6.604	      -8.836	    -132.628
	16.500000000	      -1.708	    -158.301	       8.752	      76.001	     -22.529	       5.997	      -8.767	    -133.259
	17.000000000	      -1.709	    -159.316	       8.500	      74.837	     -22.567	       5.460	      -8.704	    -133.830
	17.500000000	      -1.716	    -160.223	       8.250	      73.694	     -22.590	       5.035	      -8.626	    -134.454
	18.000000000	      -1.725	    -161.118	       8.010	      72.583	     -22.634	       4.507	      -8.554	    -135.065
	18.500000000	      -1.725	    -162.005	       7.775	      71.484	     -22.651	       4.038	      -8.471	    -135.576
	19.000000000	      -1.724	    -162.855	       7.543	      70.393	     -22.704	       3.497	      -8.396	    -136.041
	19.500000000	      -1.723	    -163.646	       7.317	      69.344	     -22.774	       3.089	      -8.332	    -136.571
	20.000000000	      -1.731	    -164.386	       7.099	      68.320	     -22.840	       2.970	      -8.267	    -136.978
	20.500000000	      -1.731	    -165.098	       6.890	      67.283	     -22.854	       2.771	      -8.180	    -137.387
	21.000000000	      -1.730	    -165.831	       6.679	      66.252	     -22.870	       2.457	      -8.095	    -137.835
	21.500000000	      -1.723	    -166.540	       6.472	      65.233	     -22.913	       2.090	      -8.014	    -138.243
	22.000000000	      -1.721	    -167.134	       6.269	      64.244	     -22.948	       1.653	      -7.930	    -138.659
	22.500000000	      -1.718	    -167.791	       6.068	      63.239	     -22.982	       1.165	      -7.857	    -139.112
	23.000000000	      -1.723	    -168.360	       5.868	      62.271	     -23.049	       0.764	      -7.781	    -139.623
	23.500000000	      -1.722	    -168.978	       5.675	      61.356	     -23.169	       0.495	      -7.711	    -140.107
	24.000000000	      -1.721	    -169.556	       5.492	      60.448	     -23.260	       0.689	      -7.641	    -140.409
	24.500000000	      -1.711	    -170.052	       5.314	      59.493	     -23.251	       0.769	      -7.560	    -140.629
	25.000000000	      -1.695	    -170.488	       5.136	      58.504	     -23.248	       0.430	      -7.479	    -140.944
	25.500000000	      -1.687	    -171.094	       4.956	      57.589	     -23.304	       0.162	      -7.389	    -141.368
	26.000000000	      -1.689	    -171.696	       4.775	      56.665	     -23.346	      -0.150	      -7.298	    -141.822
	26.500000000	      -1.686	    -172.200	       4.601	      55.765	     -23.409	      -0.607	      -7.212	    -142.204
	27.000000000	      -1.676	    -172.560	       4.431	      54.893	     -23.493	      -0.761	      -7.141	    -142.566
	27.500000000	      -1.672	    -172.939	       4.271	      54.076	     -23.602	      -0.679	      -7.078	    -142.742
	28.000000000	      -1.662	    -173.469	       4.117	      53.179	     -23.630	      -0.455	      -6.997	    -143.198
	28.500000000	      -1.650	    -173.987	       3.960	      52.206	     -23.628	      -0.461	      -6.903	    -143.604
	29.000000000	      -1.642	    -174.418	       3.795	      51.280	     -23.660	      -0.732	      -6.816	    -144.007
	29.500000000	      -1.633	    -174.833	       3.632	      50.418	     -23.720	      -1.091	      -6.743	    -144.397
	30.000000000	      -1.626	    -175.229	       3.479	      49.593	     -23.786	      -1.208	      -6.675	    -144.715
	30.500000000	      -1.623	    -175.680	       3.325	      48.723	     -23.850	      -1.447	      -6.607	    -145.082
	31.000000000	      -1.609	    -176.141	       3.172	      47.839	     -23.936	      -1.810	      -6.542	    -145.476
	31.500000000	      -1.594	    -176.567	       3.032	      47.018	     -24.033	      -1.513	      -6.479	    -145.808
	32.000000000	      -1.594	    -176.964	       2.882	      46.152	     -24.060	      -1.135	      -6.404	    -146.103
	32.500000000	      -1.603	    -177.340	       2.734	      45.271	     -24.061	      -1.330	      -6.315	    -146.361
	33.000000000	      -1.601	    -177.781	       2.587	      44.462	     -24.104	      -1.578	      -6.242	    -146.712
	33.500000000	      -1.585	    -178.147	       2.438	      43.660	     -24.201	      -1.393	      -6.172	    -147.155
	34.000000000	      -1.571	    -178.501	       2.296	      42.821	     -24.247	      -1.569	      -6.093	    -147.584
	34.500000000	      -1.568	    -178.913	       2.143	      41.949	     -24.321	      -1.783	      -6.014	    -147.910
	35.000000000	      -1.566	    -179.294	       1.998	      41.172	     -24.401	      -1.605	      -5.946	    -148.335
	35.500000000	      -1.562	    -179.678	       1.872	      40.344	     -24.431	      -1.479	      -5.887	    -148.609
	36.000000000	      -1.556	     179.961	       1.735	      39.509	     -24.455	      -1.290	      -5.804	    -148.961
	36.500000000	      -1.548	     179.664	       1.597	      38.691	     -24.427	      -1.121	      -5.728	    -149.372
	37.000000000	      -1.538	     179.417	       1.458	      37.908	     -24.514	      -1.576	      -5.668	    -149.725
	37.500000000	      -1.544	     179.034	       1.315	      37.147	     -24.597	      -1.532	      -5.611	    -150.072
	38.000000000	      -1.542	     178.651	       1.179	      36.393	     -24.664	      -1.750	      -5.548	    -150.427
	38.500000000	      -1.523	     178.282	       1.042	      35.622	     -24.745	      -2.111	      -5.473	    -150.827
	39.000000000	      -1.526	     177.976	       0.909	      34.921	     -24.887	      -2.127	      -5.408	    -151.233
	39.500000000	      -1.531	     177.730	       0.776	      34.224	     -24.934	      -2.051	      -5.344	    -151.594
	40.000000000	      -1.538	     177.387	       0.655	      33.525	     -25.006	      -1.170	      -5.267	    -151.903
	40.500000000	      -1.536	     177.034	       0.533	      32.750	     -25.029	      -0.846	      -5.188	    -152.280
	41.000000000	      -1.518	     176.768	       0.414	      31.986	     -25.066	      -0.523	      -5.128	    -152.692
	41.500000000	      -1.509	     176.575	       0.289	      31.267	     -25.134	      -0.811	      -5.083	    -153.021
	42.000000000	      -1.514	     176.325	       0.168	      30.527	     -25.118	      -1.341	      -5.013	    -153.292
	42.500000000	      -1.526	     175.914	       0.041	      29.837	     -25.229	      -1.520	      -4.957	    -153.495
	43.000000000	      -1.527	     175.742	      -0.067	      29.208	     -25.418	      -0.693	      -4.887	    -153.864
	43.500000000	      -1.512	     175.533	      -0.181	      28.402	     -25.328	      -0.243	      -4.836	    -154.288
	44.000000000	      -1.518	     175.294	      -0.298	      27.648	     -25.326	      -0.221	      -4.769	    -154.722
	44.500000000	      -1.519	     174.903	      -0.427	      26.914	     -25.387	      -0.446	      -4.691	    -155.055
	45.000000000	      -1.526	     174.610	      -0.545	      26.188	     -25.401	      -0.647	      -4.636	    -155.449
	45.500000000	      -1.471	     174.231	      -0.826	      25.586	     -25.625	      -0.340	      -4.500	    -156.468
	46.000000000	      -1.451	     174.004	      -0.954	      24.944	     -25.727	      -0.865	      -4.449	    -156.892
	46.500000000	      -1.443	     173.655	      -1.072	      24.334	     -25.889	      -0.030	      -4.379	    -157.108
	47.000000000	      -1.446	     173.331	      -1.172	      23.642	     -25.907	       0.975	      -4.307	    -157.446
	47.500000000	      -1.440	     173.056	      -1.291	      22.876	     -26.041	       1.221	      -4.276	    -157.729
	48.000000000	      -1.423	     172.785	      -1.401	      22.183	     -25.951	       1.056	      -4.208	    -158.082
	48.500000000	      -1.420	     172.487	      -1.526	      21.510	     -25.835	       1.187	      -4.162	    -158.379
	49.000000000	      -1.430	     172.257	      -1.642	      20.852	     -25.923	       0.416	      -4.092	    -158.636
	49.500000000	      -1.445	     172.044	      -1.772	      20.286	     -26.129	      -0.802	      -4.051	    -159.123
	50.000000000	      -1.427	     171.805	      -1.871	      19.651	     -26.091	       0.962	      -3.985	    -159.563
	50.500000000	      -1.411	     171.571	      -1.961	      19.156	     -26.450	       1.512	      -3.973	    -159.964
	51.000000000	      -1.400	     171.301	      -2.088	      18.447	     -26.404	       2.123	      -3.929	    -160.438
	51.500000000	      -1.402	     171.136	      -2.186	      17.852	     -26.094	       2.852	      -3.886	    -160.691
	52.000000000	      -1.378	     170.939	      -2.300	      17.167	     -26.188	       2.754	      -3.840	    -160.992
	52.500000000	      -1.373	     170.589	      -2.415	      16.477	     -26.255	       2.614	      -3.809	    -161.181
	53.000000000	      -1.373	     170.231	      -2.515	      15.802	     -26.305	       2.608	      -3.752	    -161.295
	53.500000000	      -1.362	     170.039	      -2.624	      15.324	     -26.446	       3.178	      -3.695	    -161.626
	54.000000000	      -1.359	     169.893	      -2.711	      14.739	     -26.272	       2.789	      -3.633	    -161.884
	54.500000000	      -1.358	     169.465	      -2.814	      14.212	     -26.452	       2.817	      -3.583	    -162.172
	55.000000000	      -1.363	     169.113	      -2.905	      13.497	     -26.377	       3.959	      -3.532	    -162.455
	55.500000000	      -1.356	     168.828	      -2.997	      12.912	     -26.180	       3.017	      -3.476	    -162.834
	56.000000000	      -1.340	     168.623	      -3.099	      12.150	     -26.109	       2.900	      -3.445	    -163.408
	56.500000000	      -1.347	     168.426	      -3.214	      11.469	     -26.199	       3.685	      -3.423	    -163.999
	57.000000000	      -1.348	     168.188	      -3.315	      10.811	     -26.346	       3.787	      -3.396	    -163.967
	57.500000000	      -1.343	     168.025	      -3.415	      10.364	     -26.607	       3.824	      -3.346	    -164.357
	58.000000000	      -1.313	     167.918	      -3.500	       9.743	     -26.740	       3.689	      -3.328	    -164.711
	58.500000000	      -1.298	     167.638	      -3.586	       9.171	     -26.751	       4.458	      -3.289	    -164.980
	59.000000000	      -1.296	     167.254	      -3.682	       8.418	     -26.510	       2.973	      -3.228	    -165.339
	59.500000000	      -1.304	     167.171	      -3.767	       7.671	     -26.444	       3.257	      -3.196	    -165.551
	60.000000000	      -1.307	     167.039	      -3.863	       7.120	     -26.754	       3.229	      -3.202	    -165.982
	60.500000000	      -1.267	     166.731	      -3.978	       6.433	     -26.867	       5.266	      -3.166	    -166.131
	61.000000000	      -1.236	     166.480	      -4.079	       5.924	     -26.960	       4.927	      -3.132	    -166.354
	61.500000000	      -1.236	     166.196	      -4.183	       5.480	     -26.929	       3.016	      -3.099	    -166.564
	62.000000000	      -1.219	     165.933	      -4.252	       4.804	     -27.067	       4.620	      -3.085	    -166.811
	62.500000000	      -1.232	     165.613	      -4.357	       4.123	     -27.115	       4.300	      -3.062	    -166.825
	63.000000000	      -1.209	     165.138	      -4.428	       3.641	     -27.111	       5.137	      -3.003	    -166.993
	63.500000000	      -1.209	     165.033	      -4.498	       2.723	     -26.927	       6.123	      -2.946	    -167.383
	64.000000000	      -1.197	     165.090	      -4.592	       1.851	     -26.868	       6.625	      -2.902	    -167.370
	64.500000000	      -1.179	     165.108	      -4.654	       1.036	     -26.947	       6.238	      -2.856	    -167.431
	65.000000000	      -1.199	     164.664	      -4.786	       0.387	     -26.489	       6.126	      -2.782	    -167.615
	65.500000000	      -1.171	     164.182	      -4.915	      -0.361	     -26.802	       4.780	      -2.752	    -168.459
	66.000000000	      -1.175	     163.812	      -5.042	      -1.254	     -26.947	       6.021	      -2.733	    -168.823
	66.500000000	      -1.183	     163.671	      -5.140	      -1.822	     -26.705	       8.134	      -2.671	    -169.050
	67.000000000	      -1.238	     163.247	      -5.263	      -2.582	     -26.615	       8.214	      -2.696	    -168.917
	67.500000000	      -1.229	     162.637	      -5.391	      -3.256	     -26.726	       6.344	      -2.677	    -169.496
	68.000000000	      -1.266	     162.482	      -5.511	      -3.926	     -26.718	       6.012	      -2.695	    -169.755
	68.500000000	      -1.296	     162.277	      -5.617	      -4.508	     -26.724	       5.926	      -2.659	    -169.924
	69.000000000	      -1.324	     162.100	      -5.755	      -5.071	     -26.714	       4.979	      -2.601	    -170.194
	69.500000000	      -1.318	     161.906	      -5.887	      -5.422	     -26.884	       5.084	      -2.581	    -170.376
	70.000000000	      -1.302	     161.732	      -5.983	      -5.903	     -26.936	       5.847	      -2.553	    -170.522
	70.500000000	      -1.283	     161.576	      -6.088	      -6.339	     -26.865	       6.112	      -2.514	    -170.659
	71.000000000	      -1.277	     161.380	      -6.174	      -6.722	     -26.853	       6.061	      -2.482	    -170.841
	71.500000000	      -1.230	     161.118	      -6.291	      -7.297	     -26.784	       5.606	      -2.409	    -171.105
	72.000000000	      -1.226	     160.885	      -6.399	      -7.728	     -26.763	       5.169	      -2.416	    -171.338
	72.500000000	      -1.245	     160.576	      -6.497	      -8.353	     -26.834	       4.362	      -2.393	    -171.613
	73.000000000	      -1.270	     160.347	      -6.595	      -8.946	     -26.969	       3.996	      -2.353	    -171.811
	73.500000000	      -1.288	     160.253	      -6.708	      -9.514	     -27.107	       4.146	      -2.281	    -172.128
	74.000000000	      -1.290	     159.982	      -6.806	      -9.957	     -27.168	       4.587	      -2.276	    -172.676
	74.500000000	      -1.322	     159.772	      -6.900	     -10.434	     -27.145	       4.779	      -2.285	    -172.908
	75.000000000	      -1.350	     159.689	      -7.008	     -11.017	     -27.216	       4.652	      -2.267	    -173.138
	75.500000000	      -1.373	     159.705	      -7.126	     -11.643	     -27.363	       4.591	      -2.262	    -173.276
	76.000000000	      -1.374	     159.790	      -7.253	     -12.176	     -27.637	       5.191	      -2.267	    -173.463
	76.500000000	      -1.367	     159.820	      -7.409	     -12.546	     -27.940	       7.775	      -2.260	    -173.420
	77.000000000	      -1.351	     159.859	      -7.548	     -12.627	     -27.909	      11.904	      -2.222	    -173.340
	77.500000000	      -1.296	     159.821	      -7.627	     -12.418	     -27.376	      15.207	      -2.146	    -173.385
	78.000000000	      -1.190	     159.669	      -7.646	     -12.317	     -26.779	      15.669	      -2.098	    -173.575
	78.500000000	      -1.145	     159.236	      -7.667	     -12.780	     -26.306	      14.794	      -2.057	    -173.831
	79.000000000	      -1.148	     158.619	      -7.711	     -13.348	     -25.986	      13.102	      -2.000	    -174.190
	79.500000000	      -1.138	     158.074	      -7.735	     -14.022	     -25.719	      11.528	      -1.964	    -174.386
