!File name = EG0520U_1010_6x60_2SDBCB2EV_1915934D06_RC2952_3Vd_36mA.s2p
!Base file name = EG0520U_1010_6x60_2SDBCB2EV_1915934D06_RC2952
!Date = 8/23/2019
!Time = 1:15 PM
!Test duration(min) = 0.15
!Test = S-Parameters
!MPTS version = 8.91.5
!State File = C:\Data\PNA\20190821205423\S-Parameters_2019-08-23.sta
!Cal File = 
!ComputerName = CMPE-LAB-6
!Comments = 
!Attenuation = 0
!Z0 = 50
!Input Power(dBm) = -13.00
!Device ID = EG0520U_1010_6x60_2SDBCB2EV
!Row = 29
!Column = 52
!Technology = QPHT09
!Lot/Wafer = 1915934D06
!Gate Size = 360
!Mask = EG0520
!Cal Standards = GaAs BCB
!Cal Kit = EG2306
!Job Number = 20190821205423
!Device Type = FET
!set_Vg(v) = -1.500
!set_Vd(v) = 3.000
!set_Vd(mA) = 36.000
!file_name = EG0520U_1010_6x60_2SDBCB2EV_1915934D06_RC2952_3Vd_36mA.s2p
!Vd(V) = 3.000
!Vd(mA) = 36.181
!Vg(V) = -0.504
!Vg(mA) = -0.002
# GHz   S   DB   R   50
!%	Freq(GHz)	     s11(dB)	    s11(deg)	     s21(dB)	    s21(deg)	     s12(dB)	    s12(deg)	     s22(dB)	    s22(deg)
	0.500000000	      -0.042	     -14.561	      21.798	     171.147	     -38.727	      81.221	      -9.190	     -16.069
	1.000000000	      -0.129	     -28.804	      21.390	     162.562	     -32.952	      73.652	      -9.172	     -30.778
	1.500000000	      -0.169	     -42.248	      21.042	     155.319	     -29.796	      66.277	      -9.041	     -44.769
	2.000000000	      -0.320	     -54.494	      20.770	     147.857	     -27.791	      59.421	      -8.950	     -58.313
	2.500000000	      -0.418	     -65.860	      20.336	     141.439	     -26.415	      53.632	      -8.987	     -69.135
	3.000000000	      -0.814	     -73.553	      19.649	     136.276	     -25.600	      49.299	      -9.346	     -73.697
	3.500000000	      -0.934	     -82.399	      19.100	     131.167	     -24.842	      44.858	      -9.328	     -81.859
	4.000000000	      -1.034	     -90.201	      18.539	     126.697	     -24.268	      40.920	      -9.304	     -88.990
	4.500000000	      -1.144	     -97.121	      17.977	     122.499	     -23.837	      37.371	      -9.278	     -95.469
	5.000000000	      -1.217	    -103.274	      17.425	     118.875	     -23.498	      34.334	      -9.270	    -100.932
	5.500000000	      -1.289	    -108.847	      16.893	     115.472	     -23.234	      31.653	      -9.273	    -105.723
	6.000000000	      -1.351	    -113.801	      16.371	     112.414	     -23.015	      29.217	      -9.240	    -109.853
	6.500000000	      -1.400	    -118.220	      15.867	     109.653	     -22.845	      27.018	      -9.214	    -113.509
	7.000000000	      -1.443	    -122.208	      15.383	     107.055	     -22.700	      25.060	      -9.183	    -116.709
	7.500000000	      -1.476	    -125.815	      14.912	     104.668	     -22.589	      23.275	      -9.150	    -119.605
	8.000000000	      -1.490	    -128.860	      14.479	     102.577	     -22.476	      21.849	      -9.154	    -121.489
	8.500000000	      -1.519	    -131.899	      14.044	     100.503	     -22.393	      20.311	      -9.124	    -123.806
	9.000000000	      -1.548	    -134.624	      13.619	      98.560	     -22.328	      18.883	      -9.088	    -125.834
	9.500000000	      -1.568	    -137.182	      13.220	      96.670	     -22.279	      17.528	      -9.050	    -127.666
	10.000000000	      -1.583	    -139.547	      12.832	      94.900	     -22.255	      16.238	      -9.020	    -129.385
	10.500000000	      -1.608	    -141.752	      12.456	      93.185	     -22.238	      15.217	      -8.992	    -130.894
	11.000000000	      -1.620	    -143.749	      12.096	      91.601	     -22.214	      14.228	      -8.946	    -132.261
	11.500000000	      -1.637	    -145.648	      11.746	      90.046	     -22.204	      13.239	      -8.907	    -133.469
	12.000000000	      -1.648	    -147.410	      11.411	      88.580	     -22.197	      12.374	      -8.858	    -134.549
	12.500000000	      -1.654	    -149.068	      11.085	      87.157	     -22.190	      11.515	      -8.800	    -135.687
	13.000000000	      -1.663	    -150.621	      10.770	      85.752	     -22.197	      10.704	      -8.747	    -136.706
	13.500000000	      -1.673	    -152.101	      10.463	      84.420	     -22.212	       9.890	      -8.697	    -137.593
	14.000000000	      -1.684	    -153.506	      10.164	      83.129	     -22.235	       9.239	      -8.641	    -138.311
	14.500000000	      -1.688	    -154.781	       9.875	      81.860	     -22.258	       8.611	      -8.592	    -139.111
	15.000000000	      -1.691	    -155.923	       9.593	      80.650	     -22.281	       8.073	      -8.547	    -139.881
	15.500000000	      -1.696	    -157.059	       9.320	      79.449	     -22.280	       7.615	      -8.493	    -140.475
	16.000000000	      -1.698	    -158.184	       9.055	      78.274	     -22.286	       6.982	      -8.426	    -141.046
	16.500000000	      -1.700	    -159.285	       8.796	      77.117	     -22.314	       6.357	      -8.366	    -141.614
	17.000000000	      -1.699	    -160.313	       8.546	      75.991	     -22.349	       5.844	      -8.310	    -142.165
	17.500000000	      -1.706	    -161.242	       8.296	      74.884	     -22.373	       5.357	      -8.247	    -142.722
	18.000000000	      -1.714	    -162.161	       8.058	      73.799	     -22.413	       4.814	      -8.184	    -143.293
	18.500000000	      -1.713	    -163.060	       7.824	      72.739	     -22.444	       4.300	      -8.117	    -143.730
	19.000000000	      -1.713	    -163.927	       7.593	      71.680	     -22.490	       3.873	      -8.056	    -144.165
	19.500000000	      -1.711	    -164.750	       7.369	      70.664	     -22.554	       3.553	      -8.003	    -144.596
	20.000000000	      -1.716	    -165.506	       7.152	      69.665	     -22.603	       3.419	      -7.949	    -144.983
	20.500000000	      -1.719	    -166.235	       6.942	      68.663	     -22.608	       3.283	      -7.877	    -145.324
	21.000000000	      -1.717	    -166.988	       6.732	      67.669	     -22.630	       2.781	      -7.804	    -145.746
	21.500000000	      -1.710	    -167.716	       6.527	      66.682	     -22.665	       2.413	      -7.735	    -146.080
	22.000000000	      -1.706	    -168.318	       6.325	      65.735	     -22.703	       1.986	      -7.671	    -146.438
	22.500000000	      -1.701	    -168.958	       6.126	      64.749	     -22.737	       1.608	      -7.611	    -146.827
	23.000000000	      -1.701	    -169.599	       5.929	      63.798	     -22.788	       1.227	      -7.542	    -147.283
	23.500000000	      -1.702	    -170.292	       5.735	      62.892	     -22.894	       0.808	      -7.480	    -147.749
	24.000000000	      -1.706	    -170.912	       5.547	      62.003	     -22.976	       0.894	      -7.428	    -148.030
	24.500000000	      -1.696	    -171.411	       5.370	      61.085	     -22.994	       0.891	      -7.370	    -148.202
	25.000000000	      -1.682	    -171.857	       5.191	      60.154	     -23.008	       0.663	      -7.302	    -148.401
	25.500000000	      -1.675	    -172.442	       5.012	      59.259	     -23.048	       0.522	      -7.226	    -148.749
	26.000000000	      -1.679	    -173.104	       4.831	      58.374	     -23.086	       0.211	      -7.141	    -149.139
	26.500000000	      -1.678	    -173.632	       4.655	      57.486	     -23.134	      -0.067	      -7.068	    -149.461
	27.000000000	      -1.670	    -174.044	       4.485	      56.636	     -23.191	      -0.612	      -7.009	    -149.799
	27.500000000	      -1.680	    -174.464	       4.314	      55.865	     -23.336	      -0.517	      -6.971	    -149.974
	28.000000000	      -1.682	    -174.959	       4.157	      55.059	     -23.401	      -0.172	      -6.906	    -150.255
	28.500000000	      -1.666	    -175.386	       4.009	      54.158	     -23.389	      -0.041	      -6.817	    -150.559
	29.000000000	      -1.654	    -175.826	       3.844	      53.265	     -23.396	      -0.177	      -6.747	    -150.885
	29.500000000	      -1.644	    -176.271	       3.685	      52.434	     -23.431	      -0.489	      -6.678	    -151.168
	30.000000000	      -1.642	    -176.675	       3.530	      51.656	     -23.496	      -0.729	      -6.624	    -151.414
	30.500000000	      -1.642	    -177.145	       3.378	      50.819	     -23.550	      -0.921	      -6.561	    -151.701
	31.000000000	      -1.630	    -177.590	       3.224	      50.025	     -23.608	      -1.023	      -6.508	    -152.049
	31.500000000	      -1.619	    -178.014	       3.084	      49.270	     -23.716	      -0.627	      -6.450	    -152.297
	32.000000000	      -1.617	    -178.305	       2.940	      48.426	     -23.742	      -0.389	      -6.388	    -152.514
	32.500000000	      -1.630	    -178.727	       2.794	      47.562	     -23.700	      -0.375	      -6.299	    -152.735
	33.000000000	      -1.625	    -179.181	       2.649	      46.780	     -23.733	      -0.441	      -6.239	    -153.065
	33.500000000	      -1.613	    -179.559	       2.500	      46.023	     -23.792	      -0.923	      -6.180	    -153.419
	34.000000000	      -1.601	    -179.857	       2.357	      45.256	     -23.856	      -1.080	      -6.111	    -153.819
	34.500000000	      -1.602	     179.767	       2.210	      44.431	     -23.896	      -1.489	      -6.036	    -154.041
	35.000000000	      -1.598	     179.413	       2.068	      43.709	     -24.002	      -1.520	      -5.975	    -154.463
	35.500000000	      -1.590	     179.071	       1.948	      42.969	     -24.064	      -0.817	      -5.929	    -154.667
	36.000000000	      -1.573	     178.733	       1.820	      42.123	     -24.002	      -0.785	      -5.857	    -154.921
	36.500000000	      -1.561	     178.437	       1.684	      41.315	     -24.041	      -0.933	      -5.783	    -155.235
	37.000000000	      -1.554	     178.163	       1.546	      40.569	     -24.131	      -1.284	      -5.729	    -155.552
	37.500000000	      -1.564	     177.706	       1.403	      39.817	     -24.194	      -1.503	      -5.687	    -155.817
	38.000000000	      -1.566	     177.367	       1.266	      39.132	     -24.228	      -1.632	      -5.625	    -156.073
	38.500000000	      -1.562	     177.082	       1.128	      38.493	     -24.374	      -2.037	      -5.567	    -156.452
	39.000000000	      -1.552	     176.896	       1.013	      37.857	     -24.432	      -1.288	      -5.504	    -156.731
	39.500000000	      -1.544	     176.696	       0.897	      37.164	     -24.488	      -1.067	      -5.439	    -157.048
	40.000000000	      -1.533	     176.278	       0.784	      36.374	     -24.451	      -0.839	      -5.369	    -157.338
	40.500000000	      -1.529	     175.887	       0.660	      35.646	     -24.543	      -0.904	      -5.291	    -157.629
	41.000000000	      -1.510	     175.627	       0.541	      34.842	     -24.568	      -0.623	      -5.234	    -158.056
	41.500000000	      -1.498	     175.417	       0.421	      34.156	     -24.539	      -1.138	      -5.208	    -158.276
	42.000000000	      -1.500	     175.121	       0.299	      33.436	     -24.616	      -1.337	      -5.141	    -158.416
	42.500000000	      -1.516	     174.706	       0.173	      32.772	     -24.785	      -1.423	      -5.088	    -158.550
	43.000000000	      -1.509	     174.504	       0.070	      32.161	     -24.851	      -0.734	      -5.026	    -158.778
	43.500000000	      -1.492	     174.339	      -0.050	      31.332	     -24.812	      -0.377	      -4.974	    -159.214
	44.000000000	      -1.494	     174.027	      -0.173	      30.589	     -24.870	      -0.305	      -4.905	    -159.654
	44.500000000	      -1.512	     173.578	      -0.296	      29.883	     -24.825	      -0.019	      -4.843	    -159.935
	45.000000000	      -1.520	     173.330	      -0.425	      29.259	     -24.935	      -0.584	      -4.781	    -160.276
	45.500000000	      -1.475	     172.975	      -0.699	      28.747	     -25.109	      -0.811	      -4.649	    -161.200
	46.000000000	      -1.452	     172.815	      -0.826	      28.178	     -25.228	      -0.657	      -4.606	    -161.570
	46.500000000	      -1.437	     172.427	      -0.922	      27.619	     -25.349	      -0.125	      -4.530	    -161.685
	47.000000000	      -1.434	     172.125	      -1.028	      26.894	     -25.316	       0.063	      -4.481	    -161.826
	47.500000000	      -1.434	     171.839	      -1.145	      26.216	     -25.475	       0.648	      -4.438	    -162.065
	48.000000000	      -1.419	     171.609	      -1.270	      25.601	     -25.335	       0.965	      -4.393	    -162.374
	48.500000000	      -1.410	     171.315	      -1.374	      25.025	     -25.356	       0.800	      -4.346	    -162.740
	49.000000000	      -1.426	     171.160	      -1.485	      24.432	     -25.352	       0.947	      -4.283	    -162.792
	49.500000000	      -1.434	     170.906	      -1.590	      23.861	     -25.502	       1.821	      -4.236	    -162.920
	50.000000000	      -1.420	     170.658	      -1.689	      23.431	     -25.598	       1.469	      -4.186	    -163.330
	50.500000000	      -1.397	     170.418	      -1.768	      22.653	     -25.562	       1.739	      -4.146	    -163.888
	51.000000000	      -1.393	     170.108	      -1.875	      22.020	     -25.570	       2.035	      -4.112	    -164.124
	51.500000000	      -1.390	     169.982	      -1.974	      21.346	     -25.510	       2.477	      -4.052	    -164.444
	52.000000000	      -1.372	     169.770	      -2.088	      20.578	     -25.538	       2.154	      -3.999	    -164.685
	52.500000000	      -1.373	     169.412	      -2.192	      19.935	     -25.515	       2.220	      -3.963	    -164.807
	53.000000000	      -1.366	     169.062	      -2.315	      19.285	     -25.631	       1.902	      -3.904	    -165.043
	53.500000000	      -1.363	     168.943	      -2.420	      18.788	     -25.736	       1.701	      -3.840	    -165.320
	54.000000000	      -1.358	     168.746	      -2.508	      18.268	     -25.793	       2.310	      -3.792	    -165.565
	54.500000000	      -1.354	     168.334	      -2.607	      17.646	     -25.732	       1.932	      -3.737	    -165.754
	55.000000000	      -1.364	     167.921	      -2.702	      17.010	     -25.675	       2.266	      -3.700	    -165.986
	55.500000000	      -1.351	     167.682	      -2.800	      16.355	     -25.666	       1.741	      -3.663	    -166.419
	56.000000000	      -1.346	     167.365	      -2.872	      15.775	     -25.755	       0.615	      -3.618	    -166.936
	56.500000000	      -1.351	     167.210	      -2.979	      15.108	     -25.592	       0.986	      -3.570	    -167.567
	57.000000000	      -1.356	     167.099	      -3.107	      14.645	     -25.867	       1.623	      -3.583	    -167.505
	57.500000000	      -1.361	     166.938	      -3.216	      14.000	     -26.033	       0.465	      -3.546	    -167.904
	58.000000000	      -1.337	     166.885	      -3.314	      13.395	     -26.121	       1.897	      -3.501	    -168.077
	58.500000000	      -1.305	     166.613	      -3.402	      12.955	     -26.051	       3.041	      -3.460	    -168.362
	59.000000000	      -1.299	     166.384	      -3.479	      12.322	     -26.080	       1.308	      -3.418	    -168.509
	59.500000000	      -1.321	     166.125	      -3.580	      11.658	     -26.183	       2.416	      -3.351	    -168.945
	60.000000000	      -1.305	     165.999	      -3.663	      11.188	     -26.055	       2.704	      -3.398	    -169.216
	60.500000000	      -1.280	     165.905	      -3.776	      10.574	     -26.178	       2.758	      -3.371	    -169.291
	61.000000000	      -1.243	     165.567	      -3.878	      10.118	     -26.290	       2.704	      -3.333	    -169.596
	61.500000000	      -1.230	     165.316	      -3.954	       9.714	     -26.393	       3.878	      -3.311	    -169.692
	62.000000000	      -1.206	     165.090	      -4.009	       9.078	     -26.421	       3.796	      -3.292	    -169.845
	62.500000000	      -1.233	     164.767	      -4.125	       8.522	     -26.421	       3.830	      -3.273	    -169.886
	63.000000000	      -1.205	     164.348	      -4.171	       7.797	     -26.040	       4.469	      -3.226	    -169.934
	63.500000000	      -1.198	     164.231	      -4.242	       7.105	     -26.334	       5.219	      -3.159	    -170.317
	64.000000000	      -1.193	     164.274	      -4.305	       6.498	     -26.449	       5.885	      -3.086	    -170.258
	64.500000000	      -1.159	     164.150	      -4.392	       5.529	     -26.043	       2.680	      -3.043	    -170.141
	65.000000000	      -1.174	     163.803	      -4.511	       4.910	     -26.049	       4.806	      -3.008	    -170.488
	65.500000000	      -1.173	     163.331	      -4.590	       4.152	     -26.200	       4.986	      -2.973	    -171.252
	66.000000000	      -1.182	     163.033	      -4.713	       3.288	     -26.048	       4.759	      -2.958	    -171.455
	66.500000000	      -1.191	     162.856	      -4.852	       2.621	     -26.412	       6.540	      -2.902	    -171.516
	67.000000000	      -1.241	     162.393	      -4.945	       2.051	     -26.332	       4.406	      -2.920	    -171.269
	67.500000000	      -1.234	     161.857	      -5.110	       1.056	     -26.155	       4.338	      -2.901	    -171.948
	68.000000000	      -1.285	     161.644	      -5.207	       0.414	     -26.128	       4.156	      -2.931	    -172.276
	68.500000000	      -1.328	     161.408	      -5.304	      -0.037	     -26.107	       3.784	      -2.881	    -172.393
	69.000000000	      -1.358	     161.253	      -5.431	      -0.512	     -26.165	       3.073	      -2.820	    -172.585
	69.500000000	      -1.350	     161.107	      -5.546	      -0.988	     -26.300	       2.986	      -2.796	    -172.781
	70.000000000	      -1.330	     160.950	      -5.635	      -1.435	     -26.307	       3.701	      -2.767	    -172.829
	70.500000000	      -1.309	     160.809	      -5.732	      -1.894	     -26.250	       3.778	      -2.724	    -172.945
	71.000000000	      -1.300	     160.644	      -5.806	      -2.368	     -26.252	       3.467	      -2.702	    -173.079
	71.500000000	      -1.252	     160.615	      -5.947	      -2.651	     -26.216	       2.951	      -2.628	    -173.279
	72.000000000	      -1.244	     160.197	      -6.031	      -3.321	     -26.243	       2.319	      -2.627	    -173.597
	72.500000000	      -1.272	     159.840	      -6.125	      -3.960	     -26.298	       1.963	      -2.600	    -173.896
	73.000000000	      -1.314	     159.637	      -6.233	      -4.574	     -26.422	       1.101	      -2.560	    -174.063
	73.500000000	      -1.332	     159.577	      -6.344	      -5.056	     -26.601	       1.152	      -2.494	    -174.317
	74.000000000	      -1.338	     159.311	      -6.445	      -5.475	     -26.714	       1.721	      -2.490	    -174.880
	74.500000000	      -1.376	     159.053	      -6.535	      -5.857	     -26.789	       2.232	      -2.513	    -175.139
	75.000000000	      -1.420	     159.012	      -6.630	      -6.428	     -26.870	       2.369	      -2.506	    -175.287
	75.500000000	      -1.456	     159.005	      -6.761	      -6.975	     -27.081	       3.096	      -2.498	    -175.320
	76.000000000	      -1.471	     159.206	      -6.886	      -7.311	     -27.340	       5.004	      -2.502	    -175.389
	76.500000000	      -1.460	     159.401	      -7.008	      -7.421	     -27.400	       8.912	      -2.483	    -175.249
	77.000000000	      -1.421	     159.424	      -7.081	      -7.486	     -26.995	      12.639	      -2.427	    -175.177
	77.500000000	      -1.331	     159.307	      -7.104	      -7.449	     -26.308	      14.042	      -2.344	    -175.295
	78.000000000	      -1.250	     159.028	      -7.102	      -7.767	     -25.712	      13.190	      -2.310	    -175.477
	78.500000000	      -1.215	     158.590	      -7.133	      -8.554	     -25.324	      11.008	      -2.266	    -175.699
	79.000000000	      -1.243	     157.946	      -7.207	      -9.363	     -25.106	       8.595	      -2.203	    -175.995
	79.500000000	      -1.265	     157.537	      -7.275	     -10.164	     -24.970	       6.433	      -2.154	    -176.222
