!File name = EG0520U_1010_6x60_2SDBCB2EV_1915934D06_RC4034_3Vd_45mA.s2p
!Base file name = EG0520U_1010_6x60_2SDBCB2EV_1915934D06_RC4034
!Date = 8/23/2019
!Time = 12:57 PM
!Test duration(min) = 0.15
!Test = S-Parameters
!MPTS version = 8.91.5
!State File = C:\Data\PNA\20190821205423\S-Parameters_2019-08-23.sta
!Cal File = 
!ComputerName = CMPE-LAB-6
!Comments = 
!Attenuation = 0
!Z0 = 50
!Input Power(dBm) = -13.00
!Device ID = EG0520U_1010_6x60_2SDBCB2EV
!Row = 40
!Column = 34
!Technology = QPHT09
!Lot/Wafer = 1915934D06
!Gate Size = 360
!Mask = EG0520
!Cal Standards = GaAs BCB
!Cal Kit = EG2306
!Job Number = 20190821205423
!Device Type = FET
!set_Vg(v) = -1.500
!set_Vd(v) = 3.000
!set_Vd(mA) = 45.000
!file_name = EG0520U_1010_6x60_2SDBCB2EV_1915934D06_RC4034_3Vd_45mA.s2p
!Vd(V) = 3.000
!Vd(mA) = 45.154
!Vg(V) = -0.481
!Vg(mA) = -0.001
# GHz   S   DB   R   50
!%	Freq(GHz)	     s11(dB)	    s11(deg)	     s21(dB)	    s21(deg)	     s12(dB)	    s12(deg)	     s22(dB)	    s22(deg)
	0.500000000	      -0.041	     -14.821	      22.188	     170.982	     -39.131	      81.290	      -9.850	     -17.233
	1.000000000	      -0.125	     -29.295	      21.754	     162.395	     -33.362	      73.597	      -9.780	     -32.821
	1.500000000	      -0.167	     -42.923	      21.393	     155.010	     -30.212	      66.153	      -9.572	     -47.484
	2.000000000	      -0.313	     -55.281	      21.118	     147.600	     -28.216	      59.329	      -9.387	     -61.485
	2.500000000	      -0.409	     -66.716	      20.674	     141.165	     -26.847	      53.489	      -9.339	     -72.583
	3.000000000	      -0.804	     -74.425	      19.981	     136.053	     -26.035	      49.154	      -9.671	     -77.261
	3.500000000	      -0.922	     -83.250	      19.418	     130.968	     -25.289	      44.749	      -9.590	     -85.481
	4.000000000	      -1.019	     -91.027	      18.847	     126.521	     -24.723	      40.842	      -9.511	     -92.587
	4.500000000	      -1.122	     -97.926	      18.279	     122.377	     -24.299	      37.351	      -9.436	     -98.984
	5.000000000	      -1.194	    -104.029	      17.721	     118.785	     -23.960	      34.342	      -9.385	    -104.329
	5.500000000	      -1.263	    -109.539	      17.183	     115.431	     -23.702	      31.702	      -9.348	    -109.016
	6.000000000	      -1.321	    -114.430	      16.656	     112.425	     -23.486	      29.317	      -9.288	    -113.008
	6.500000000	      -1.368	    -118.784	      16.148	     109.709	     -23.314	      27.175	      -9.237	    -116.522
	7.000000000	      -1.410	    -122.718	      15.661	     107.154	     -23.180	      25.263	      -9.185	    -119.589
	7.500000000	      -1.439	    -126.259	      15.187	     104.815	     -23.069	      23.545	      -9.135	    -122.356
	8.000000000	      -1.449	    -129.241	      14.754	     102.769	     -22.948	      22.114	      -9.124	    -124.155
	8.500000000	      -1.477	    -132.233	      14.316	     100.737	     -22.872	      20.618	      -9.083	    -126.336
	9.000000000	      -1.505	    -134.911	      13.890	      98.838	     -22.812	      19.253	      -9.037	    -128.252
	9.500000000	      -1.524	    -137.412	      13.489	      96.993	     -22.759	      17.944	      -8.990	    -129.959
	10.000000000	      -1.537	    -139.722	      13.102	      95.265	     -22.729	      16.741	      -8.945	    -131.596
	10.500000000	      -1.556	    -141.877	      12.728	      93.591	     -22.711	      15.686	      -8.904	    -133.023
	11.000000000	      -1.567	    -143.843	      12.368	      92.036	     -22.690	      14.721	      -8.858	    -134.290
	11.500000000	      -1.585	    -145.710	      12.016	      90.516	     -22.683	      13.746	      -8.815	    -135.425
	12.000000000	      -1.597	    -147.432	      11.680	      89.080	     -22.678	      12.957	      -8.762	    -136.426
	12.500000000	      -1.604	    -149.035	      11.354	      87.690	     -22.674	      12.141	      -8.708	    -137.478
	13.000000000	      -1.612	    -150.540	      11.038	      86.329	     -22.675	      11.404	      -8.655	    -138.391
	13.500000000	      -1.619	    -151.983	      10.733	      85.034	     -22.684	      10.597	      -8.597	    -139.156
	14.000000000	      -1.630	    -153.368	      10.434	      83.763	     -22.712	       9.963	      -8.543	    -139.878
	14.500000000	      -1.635	    -154.600	      10.145	      82.532	     -22.727	       9.394	      -8.490	    -140.598
	15.000000000	      -1.639	    -155.712	       9.864	      81.349	     -22.744	       8.828	      -8.446	    -141.314
	15.500000000	      -1.643	    -156.833	       9.591	      80.173	     -22.758	       8.345	      -8.390	    -141.873
	16.000000000	      -1.647	    -157.944	       9.325	      79.027	     -22.772	       7.722	      -8.327	    -142.414
	16.500000000	      -1.651	    -159.000	       9.066	      77.903	     -22.794	       7.228	      -8.269	    -142.922
	17.000000000	      -1.651	    -159.993	       8.816	      76.809	     -22.835	       6.713	      -8.215	    -143.432
	17.500000000	      -1.658	    -160.894	       8.567	      75.732	     -22.860	       6.337	      -8.156	    -143.923
	18.000000000	      -1.666	    -161.783	       8.328	      74.682	     -22.897	       5.838	      -8.098	    -144.429
	18.500000000	      -1.667	    -162.648	       8.095	      73.654	     -22.915	       5.343	      -8.030	    -144.820
	19.000000000	      -1.665	    -163.471	       7.865	      72.639	     -22.964	       4.916	      -7.968	    -145.208
	19.500000000	      -1.663	    -164.263	       7.643	      71.646	     -23.020	       4.546	      -7.915	    -145.606
	20.000000000	      -1.669	    -165.021	       7.425	      70.677	     -23.098	       4.355	      -7.870	    -145.956
	20.500000000	      -1.674	    -165.723	       7.215	      69.708	     -23.116	       4.344	      -7.805	    -146.237
	21.000000000	      -1.672	    -166.395	       7.008	      68.749	     -23.131	       4.119	      -7.736	    -146.569
	21.500000000	      -1.663	    -167.128	       6.804	      67.789	     -23.160	       3.813	      -7.669	    -146.863
	22.000000000	      -1.654	    -167.763	       6.605	      66.850	     -23.174	       3.439	      -7.601	    -147.164
	22.500000000	      -1.653	    -168.382	       6.405	      65.892	     -23.208	       3.012	      -7.543	    -147.509
	23.000000000	      -1.655	    -168.986	       6.209	      64.977	     -23.261	       2.684	      -7.480	    -147.912
	23.500000000	      -1.654	    -169.660	       6.015	      64.095	     -23.360	       2.289	      -7.424	    -148.354
	24.000000000	      -1.662	    -170.264	       5.828	      63.245	     -23.460	       2.397	      -7.381	    -148.571
	24.500000000	      -1.657	    -170.699	       5.653	      62.376	     -23.457	       2.593	      -7.321	    -148.654
	25.000000000	      -1.643	    -171.197	       5.475	      61.450	     -23.455	       2.393	      -7.249	    -148.846
	25.500000000	      -1.642	    -171.757	       5.296	      60.587	     -23.491	       2.051	      -7.182	    -149.158
	26.000000000	      -1.646	    -172.348	       5.117	      59.744	     -23.541	       1.629	      -7.099	    -149.485
	26.500000000	      -1.643	    -172.845	       4.946	      58.892	     -23.578	       1.608	      -7.027	    -149.771
	27.000000000	      -1.637	    -173.247	       4.778	      58.063	     -23.645	       1.248	      -6.971	    -150.074
	27.500000000	      -1.640	    -173.634	       4.613	      57.320	     -23.793	       1.387	      -6.930	    -150.248
	28.000000000	      -1.641	    -174.138	       4.457	      56.525	     -23.858	       1.597	      -6.873	    -150.470
	28.500000000	      -1.618	    -174.577	       4.314	      55.618	     -23.795	       2.034	      -6.780	    -150.678
	29.000000000	      -1.611	    -175.059	       4.147	      54.715	     -23.785	       1.576	      -6.713	    -151.037
	29.500000000	      -1.610	    -175.456	       3.985	      53.922	     -23.858	       1.486	      -6.649	    -151.332
	30.000000000	      -1.610	    -175.889	       3.829	      53.176	     -23.949	       1.049	      -6.599	    -151.537
	30.500000000	      -1.609	    -176.316	       3.680	      52.369	     -23.987	       0.812	      -6.536	    -151.814
	31.000000000	      -1.599	    -176.737	       3.529	      51.613	     -24.048	       0.786	      -6.480	    -152.073
	31.500000000	      -1.587	    -177.114	       3.396	      50.870	     -24.112	       1.215	      -6.425	    -152.308
	32.000000000	      -1.584	    -177.467	       3.253	      50.033	     -24.128	       1.543	      -6.357	    -152.522
	32.500000000	      -1.586	    -177.916	       3.108	      49.165	     -24.114	       1.428	      -6.279	    -152.716
	33.000000000	      -1.585	    -178.311	       2.963	      48.412	     -24.154	       1.315	      -6.227	    -153.000
	33.500000000	      -1.573	    -178.694	       2.817	      47.654	     -24.244	       1.258	      -6.162	    -153.311
	34.000000000	      -1.566	    -179.075	       2.673	      46.900	     -24.273	       1.054	      -6.101	    -153.651
	34.500000000	      -1.570	    -179.462	       2.525	      46.114	     -24.316	       0.626	      -6.030	    -153.847
	35.000000000	      -1.575	    -179.786	       2.384	      45.422	     -24.417	       0.791	      -5.976	    -154.225
	35.500000000	      -1.565	     179.885	       2.266	      44.665	     -24.483	       1.457	      -5.924	    -154.351
	36.000000000	      -1.559	     179.536	       2.139	      43.883	     -24.421	       1.520	      -5.857	    -154.603
	36.500000000	      -1.551	     179.273	       2.006	      43.135	     -24.389	       1.229	      -5.788	    -154.899
	37.000000000	      -1.548	     178.997	       1.870	      42.399	     -24.495	       1.162	      -5.730	    -155.178
	37.500000000	      -1.548	     178.652	       1.736	      41.683	     -24.596	       0.805	      -5.692	    -155.454
	38.000000000	      -1.540	     178.301	       1.607	      40.989	     -24.692	       0.848	      -5.629	    -155.681
	38.500000000	      -1.534	     177.974	       1.472	      40.281	     -24.698	       0.851	      -5.565	    -156.089
	39.000000000	      -1.529	     177.733	       1.354	      39.629	     -24.832	       1.050	      -5.510	    -156.380
	39.500000000	      -1.524	     177.563	       1.237	      38.987	     -24.904	       1.135	      -5.445	    -156.666
	40.000000000	      -1.506	     177.174	       1.130	      38.206	     -24.807	       1.727	      -5.383	    -156.930
	40.500000000	      -1.499	     176.748	       1.001	      37.442	     -24.883	       1.399	      -5.317	    -157.205
	41.000000000	      -1.486	     176.401	       0.876	      36.691	     -24.840	       1.163	      -5.277	    -157.606
	41.500000000	      -1.486	     176.185	       0.760	      36.039	     -24.920	       1.139	      -5.233	    -157.774
	42.000000000	      -1.487	     175.909	       0.637	      35.337	     -25.017	       1.068	      -5.176	    -157.891
	42.500000000	      -1.496	     175.518	       0.519	      34.679	     -25.128	       1.198	      -5.113	    -158.024
	43.000000000	      -1.494	     175.278	       0.418	      34.076	     -25.210	       1.882	      -5.051	    -158.297
	43.500000000	      -1.473	     175.059	       0.299	      33.260	     -25.178	       1.985	      -4.998	    -158.714
	44.000000000	      -1.489	     174.739	       0.180	      32.536	     -25.037	       1.986	      -4.940	    -158.998
	44.500000000	      -1.486	     174.354	       0.055	      31.857	     -25.138	       2.422	      -4.878	    -159.308
	45.000000000	      -1.499	     174.094	      -0.061	      31.212	     -25.252	       1.770	      -4.812	    -159.648
	45.500000000	      -1.454	     173.761	      -0.340	      30.703	     -25.461	       1.555	      -4.681	    -160.546
	46.000000000	      -1.440	     173.511	      -0.458	      30.107	     -25.540	       1.441	      -4.638	    -160.824
	46.500000000	      -1.421	     173.155	      -0.561	      29.511	     -25.648	       1.492	      -4.560	    -160.939
	47.000000000	      -1.426	     172.860	      -0.668	      28.819	     -25.661	       3.499	      -4.503	    -161.247
	47.500000000	      -1.417	     172.571	      -0.773	      28.131	     -25.693	       3.242	      -4.466	    -161.402
	48.000000000	      -1.403	     172.290	      -0.886	      27.455	     -25.602	       3.799	      -4.415	    -161.671
	48.500000000	      -1.399	     171.942	      -1.009	      26.845	     -25.607	       3.009	      -4.363	    -161.869
	49.000000000	      -1.417	     171.782	      -1.119	      26.222	     -25.765	       2.539	      -4.304	    -162.275
	49.500000000	      -1.414	     171.527	      -1.218	      25.615	     -25.813	       2.302	      -4.246	    -162.525
	50.000000000	      -1.406	     171.207	      -1.335	      25.063	     -25.822	       2.937	      -4.208	    -162.809
	50.500000000	      -1.389	     170.958	      -1.432	      24.515	     -25.980	       3.387	      -4.199	    -163.253
	51.000000000	      -1.390	     170.672	      -1.551	      23.911	     -25.894	       4.600	      -4.158	    -163.665
	51.500000000	      -1.389	     170.594	      -1.645	      23.282	     -25.894	       4.184	      -4.120	    -164.005
	52.000000000	      -1.364	     170.327	      -1.754	      22.636	     -25.921	       3.958	      -4.081	    -164.219
	52.500000000	      -1.362	     169.991	      -1.862	      22.079	     -25.991	       4.086	      -4.041	    -164.281
	53.000000000	      -1.361	     169.660	      -1.966	      21.559	     -25.954	       4.810	      -4.013	    -164.389
	53.500000000	      -1.354	     169.543	      -2.056	      20.978	     -25.986	       4.700	      -3.950	    -164.661
	54.000000000	      -1.339	     169.266	      -2.149	      20.497	     -26.010	       4.862	      -3.883	    -164.955
	54.500000000	      -1.336	     168.880	      -2.234	      19.850	     -26.048	       4.948	      -3.837	    -165.109
	55.000000000	      -1.349	     168.487	      -2.324	      19.217	     -26.028	       4.508	      -3.804	    -165.348
	55.500000000	      -1.344	     168.237	      -2.412	      18.556	     -25.913	       4.364	      -3.763	    -165.631
	56.000000000	      -1.337	     167.922	      -2.493	      18.001	     -25.998	       3.528	      -3.718	    -166.053
	56.500000000	      -1.337	     167.690	      -2.597	      17.335	     -25.870	       4.303	      -3.694	    -166.569
	57.000000000	      -1.347	     167.604	      -2.716	      16.732	     -26.194	       3.531	      -3.664	    -166.702
	57.500000000	      -1.351	     167.386	      -2.799	      16.140	     -26.297	       4.344	      -3.618	    -166.852
	58.000000000	      -1.317	     167.243	      -2.901	      15.533	     -26.204	       5.275	      -3.593	    -167.238
	58.500000000	      -1.310	     166.943	      -2.985	      14.973	     -26.489	       5.180	      -3.558	    -167.535
	59.000000000	      -1.312	     166.690	      -3.069	      14.280	     -26.281	       5.702	      -3.496	    -167.737
	59.500000000	      -1.323	     166.418	      -3.163	      13.636	     -26.238	       6.029	      -3.447	    -168.020
	60.000000000	      -1.312	     166.327	      -3.257	      12.986	     -26.215	       4.814	      -3.469	    -168.275
	60.500000000	      -1.277	     166.085	      -3.360	      12.424	     -26.322	       5.197	      -3.451	    -168.368
	61.000000000	      -1.255	     165.830	      -3.447	      11.917	     -26.408	       5.187	      -3.410	    -168.541
	61.500000000	      -1.249	     165.534	      -3.555	      11.410	     -26.296	       4.557	      -3.393	    -168.773
	62.000000000	      -1.235	     165.211	      -3.596	      10.887	     -26.588	       5.980	      -3.385	    -168.985
	62.500000000	      -1.233	     164.974	      -3.710	      10.072	     -26.417	       5.323	      -3.361	    -168.887
	63.000000000	      -1.209	     164.478	      -3.779	       9.598	     -26.203	       7.010	      -3.292	    -169.047
	63.500000000	      -1.210	     164.338	      -3.852	       8.832	     -26.420	       5.585	      -3.229	    -169.342
	64.000000000	      -1.199	     164.293	      -3.905	       8.196	     -26.101	       7.840	      -3.193	    -169.472
	64.500000000	      -1.175	     164.065	      -4.009	       7.201	     -26.114	       7.958	      -3.145	    -169.327
	65.000000000	      -1.193	     163.772	      -4.110	       6.529	     -26.118	       5.584	      -3.105	    -169.501
	65.500000000	      -1.202	     163.296	      -4.224	       5.915	     -26.271	       6.923	      -3.050	    -170.266
	66.000000000	      -1.181	     163.081	      -4.370	       5.055	     -26.248	       7.348	      -3.028	    -170.682
	66.500000000	      -1.209	     162.818	      -4.476	       4.211	     -26.476	       6.630	      -2.972	    -170.614
	67.000000000	      -1.266	     162.387	      -4.584	       3.753	     -26.382	       6.365	      -2.975	    -170.793
	67.500000000	      -1.247	     161.928	      -4.721	       3.004	     -26.319	       5.856	      -2.979	    -171.134
	68.000000000	      -1.276	     161.710	      -4.836	       2.375	     -26.305	       5.718	      -2.994	    -171.358
	68.500000000	      -1.298	     161.505	      -4.925	       1.851	     -26.345	       5.177	      -2.948	    -171.527
	69.000000000	      -1.324	     161.308	      -5.042	       1.364	     -26.376	       4.707	      -2.892	    -171.707
	69.500000000	      -1.320	     161.053	      -5.163	       0.983	     -26.464	       4.970	      -2.868	    -171.914
	70.000000000	      -1.310	     160.864	      -5.250	       0.488	     -26.511	       5.413	      -2.838	    -171.973
	70.500000000	      -1.299	     160.652	      -5.344	      -0.003	     -26.428	       5.404	      -2.809	    -172.120
	71.000000000	      -1.300	     160.377	      -5.439	      -0.394	     -26.403	       5.090	      -2.754	    -172.337
	71.500000000	      -1.284	     160.116	      -5.554	      -0.898	     -26.407	       4.671	      -2.703	    -172.456
	72.000000000	      -1.289	     159.928	      -5.646	      -1.476	     -26.398	       4.012	      -2.703	    -172.636
	72.500000000	      -1.305	     159.599	      -5.744	      -2.128	     -26.452	       3.351	      -2.679	    -172.944
	73.000000000	      -1.329	     159.383	      -5.845	      -2.707	     -26.613	       2.556	      -2.643	    -173.103
	73.500000000	      -1.344	     159.315	      -5.960	      -3.185	     -26.806	       2.687	      -2.574	    -173.422
	74.000000000	      -1.353	     159.120	      -6.067	      -3.667	     -26.896	       3.214	      -2.569	    -173.916
	74.500000000	      -1.377	     158.902	      -6.158	      -4.118	     -26.971	       3.619	      -2.583	    -174.170
	75.000000000	      -1.404	     158.791	      -6.259	      -4.680	     -27.055	       3.889	      -2.580	    -174.238
	75.500000000	      -1.436	     158.787	      -6.387	      -5.190	     -27.284	       4.444	      -2.574	    -174.420
	76.000000000	      -1.446	     158.823	      -6.512	      -5.621	     -27.536	       6.287	      -2.580	    -174.473
	76.500000000	      -1.441	     159.077	      -6.644	      -5.788	     -27.596	      10.126	      -2.566	    -174.324
	77.000000000	      -1.429	     159.007	      -6.742	      -5.916	     -27.189	      13.590	      -2.501	    -174.194
	77.500000000	      -1.349	     159.015	      -6.778	      -5.903	     -26.525	      14.798	      -2.417	    -174.277
	78.000000000	      -1.269	     158.756	      -6.804	      -6.138	     -26.000	      13.908	      -2.369	    -174.454
	78.500000000	      -1.214	     158.271	      -6.856	      -6.698	     -25.679	      11.897	      -2.315	    -174.738
	79.000000000	      -1.224	     157.650	      -6.910	      -7.259	     -25.501	      10.422	      -2.273	    -175.014
	79.500000000	      -1.239	     157.097	      -6.946	      -8.006	     -25.266	       8.603	      -2.227	    -175.217
