!File name = EG0520U_1010_6x60_2SDBCB2EV_1915934D06_RC4034_3.5Vd_36mA.s2p
!Base file name = EG0520U_1010_6x60_2SDBCB2EV_1915934D06_RC4034
!Date = 8/23/2019
!Time = 12:58 PM
!Test duration(min) = 0.15
!Test = S-Parameters
!MPTS version = 8.91.5
!State File = C:\Data\PNA\20190821205423\S-Parameters_2019-08-23.sta
!Cal File = 
!ComputerName = CMPE-LAB-6
!Comments = 
!Attenuation = 0
!Z0 = 50
!Input Power(dBm) = -13.00
!Device ID = EG0520U_1010_6x60_2SDBCB2EV
!Row = 40
!Column = 34
!Technology = QPHT09
!Lot/Wafer = 1915934D06
!Gate Size = 360
!Mask = EG0520
!Cal Standards = GaAs BCB
!Cal Kit = EG2306
!Job Number = 20190821205423
!Device Type = FET
!set_Vg(v) = -1.500
!set_Vd(v) = 3.500
!set_Vd(mA) = 36.000
!file_name = EG0520U_1010_6x60_2SDBCB2EV_1915934D06_RC4034_3.5Vd_36mA.s2p
!Vd(V) = 3.500
!Vd(mA) = 36.122
!Vg(V) = -0.538
!Vg(mA) = -0.003
# GHz   S   DB   R   50
!%	Freq(GHz)	     s11(dB)	    s11(deg)	     s21(dB)	    s21(deg)	     s12(dB)	    s12(deg)	     s22(dB)	    s22(deg)
	0.500000000	      -0.061	     -14.403	      21.730	     171.165	     -38.891	      81.118	      -8.716	     -15.001
	1.000000000	      -0.146	     -28.481	      21.323	     162.750	     -33.113	      73.760	      -8.741	     -28.723
	1.500000000	      -0.184	     -41.788	      20.978	     155.473	     -29.946	      66.487	      -8.688	     -41.896
	2.000000000	      -0.328	     -53.884	      20.713	     148.149	     -27.925	      59.756	      -8.679	     -54.724
	2.500000000	      -0.424	     -65.156	      20.276	     141.749	     -26.535	      54.016	      -8.779	     -65.126
	3.000000000	      -0.814	     -72.763	      19.598	     136.566	     -25.717	      49.633	      -9.152	     -69.421
	3.500000000	      -0.932	     -81.543	      19.051	     131.485	     -24.951	      45.215	      -9.199	     -77.361
	4.000000000	      -1.030	     -89.298	      18.497	     126.990	     -24.371	      41.296	      -9.235	     -84.346
	4.500000000	      -1.139	     -96.185	      17.942	     122.809	     -23.934	      37.756	      -9.262	     -90.734
	5.000000000	      -1.212	    -102.322	      17.393	     119.159	     -23.585	      34.689	      -9.294	     -96.123
	5.500000000	      -1.284	    -107.861	      16.867	     115.754	     -23.318	      31.996	      -9.331	    -100.915
	6.000000000	      -1.345	    -112.805	      16.347	     112.689	     -23.096	      29.563	      -9.330	    -105.040
	6.500000000	      -1.394	    -117.204	      15.847	     109.912	     -22.916	      27.397	      -9.328	    -108.695
	7.000000000	      -1.438	    -121.187	      15.366	     107.300	     -22.772	      25.418	      -9.318	    -111.959
	7.500000000	      -1.470	    -124.772	      14.897	     104.907	     -22.661	      23.648	      -9.301	    -114.834
	8.000000000	      -1.482	    -127.806	      14.467	     102.803	     -22.538	      22.188	      -9.309	    -116.736
	8.500000000	      -1.512	    -130.831	      14.033	     100.719	     -22.458	      20.631	      -9.292	    -119.060
	9.000000000	      -1.542	    -133.558	      13.610	      98.762	     -22.389	      19.195	      -9.265	    -121.098
	9.500000000	      -1.562	    -136.100	      13.213	      96.863	     -22.336	      17.874	      -9.232	    -122.925
	10.000000000	      -1.577	    -138.448	      12.827	      95.087	     -22.307	      16.579	      -9.203	    -124.639
	10.500000000	      -1.597	    -140.642	      12.456	      93.354	     -22.284	      15.530	      -9.170	    -126.215
	11.000000000	      -1.609	    -142.642	      12.097	      91.753	     -22.264	      14.490	      -9.130	    -127.576
	11.500000000	      -1.628	    -144.544	      11.747	      90.184	     -22.252	      13.507	      -9.093	    -128.803
	12.000000000	      -1.641	    -146.297	      11.413	      88.696	     -22.249	      12.652	      -9.038	    -129.951
	12.500000000	      -1.648	    -147.935	      11.087	      87.262	     -22.242	      11.784	      -8.989	    -131.041
	13.000000000	      -1.657	    -149.460	      10.772	      85.857	     -22.245	      10.995	      -8.936	    -132.052
	13.500000000	      -1.663	    -150.938	      10.468	      84.514	     -22.250	      10.149	      -8.877	    -132.896
	14.000000000	      -1.675	    -152.342	      10.171	      83.199	     -22.271	       9.468	      -8.820	    -133.689
	14.500000000	      -1.680	    -153.603	       9.883	      81.924	     -22.286	       8.814	      -8.768	    -134.524
	15.000000000	      -1.683	    -154.736	       9.602	      80.701	     -22.303	       8.260	      -8.716	    -135.262
	15.500000000	      -1.689	    -155.874	       9.329	      79.481	     -22.316	       7.665	      -8.657	    -135.890
	16.000000000	      -1.692	    -157.004	       9.064	      78.293	     -22.331	       7.068	      -8.589	    -136.491
	16.500000000	      -1.696	    -158.079	       8.805	      77.128	     -22.362	       6.514	      -8.525	    -137.060
	17.000000000	      -1.696	    -159.098	       8.555	      75.990	     -22.398	       5.939	      -8.465	    -137.625
	17.500000000	      -1.704	    -160.015	       8.306	      74.873	     -22.422	       5.518	      -8.401	    -138.183
	18.000000000	      -1.712	    -160.910	       8.067	      73.788	     -22.460	       4.945	      -8.336	    -138.743
	18.500000000	      -1.712	    -161.798	       7.834	      72.719	     -22.487	       4.501	      -8.261	    -139.197
	19.000000000	      -1.711	    -162.641	       7.604	      71.662	     -22.525	       3.976	      -8.192	    -139.630
	19.500000000	      -1.708	    -163.441	       7.381	      70.636	     -22.588	       3.552	      -8.132	    -140.078
	20.000000000	      -1.714	    -164.211	       7.163	      69.623	     -22.663	       3.367	      -8.080	    -140.472
	20.500000000	      -1.718	    -164.925	       6.954	      68.619	     -22.688	       3.242	      -8.006	    -140.810
	21.000000000	      -1.716	    -165.614	       6.746	      67.624	     -22.703	       2.967	      -7.928	    -141.188
	21.500000000	      -1.707	    -166.358	       6.542	      66.623	     -22.732	       2.650	      -7.852	    -141.534
	22.000000000	      -1.700	    -166.969	       6.343	      65.650	     -22.755	       2.256	      -7.777	    -141.903
	22.500000000	      -1.697	    -167.628	       6.142	      64.660	     -22.779	       1.753	      -7.712	    -142.286
	23.000000000	      -1.699	    -168.251	       5.945	      63.708	     -22.833	       1.386	      -7.644	    -142.734
	23.500000000	      -1.698	    -168.933	       5.751	      62.784	     -22.922	       0.917	      -7.579	    -143.229
	24.000000000	      -1.705	    -169.548	       5.564	      61.902	     -23.029	       0.979	      -7.528	    -143.493
	24.500000000	      -1.698	    -170.004	       5.387	      61.002	     -23.028	       1.121	      -7.456	    -143.608
	25.000000000	      -1.685	    -170.497	       5.209	      60.046	     -23.047	       1.024	      -7.376	    -143.844
	25.500000000	      -1.684	    -171.072	       5.029	      59.148	     -23.069	       0.619	      -7.301	    -144.200
	26.000000000	      -1.687	    -171.674	       4.850	      58.272	     -23.137	       0.292	      -7.210	    -144.631
	26.500000000	      -1.684	    -172.172	       4.679	      57.378	     -23.170	      -0.115	      -7.137	    -144.955
	27.000000000	      -1.676	    -172.584	       4.509	      56.524	     -23.242	      -0.476	      -7.069	    -145.291
	27.500000000	      -1.682	    -172.980	       4.343	      55.747	     -23.382	      -0.422	      -7.026	    -145.418
	28.000000000	      -1.681	    -173.483	       4.188	      54.926	     -23.474	      -0.103	      -6.954	    -145.755
	28.500000000	      -1.657	    -173.920	       4.043	      53.988	     -23.424	       0.174	      -6.856	    -146.063
	29.000000000	      -1.652	    -174.423	       3.876	      53.058	     -23.420	      -0.052	      -6.783	    -146.446
	29.500000000	      -1.649	    -174.870	       3.713	      52.221	     -23.479	      -0.563	      -6.715	    -146.779
	30.000000000	      -1.653	    -175.219	       3.557	      51.448	     -23.548	      -0.840	      -6.656	    -147.043
	30.500000000	      -1.646	    -175.695	       3.406	      50.617	     -23.597	      -0.891	      -6.590	    -147.381
	31.000000000	      -1.638	    -176.128	       3.255	      49.832	     -23.683	      -0.980	      -6.529	    -147.680
	31.500000000	      -1.622	    -176.503	       3.122	      49.017	     -23.771	      -0.632	      -6.469	    -147.953
	32.000000000	      -1.619	    -176.817	       2.981	      48.189	     -23.793	      -0.437	      -6.392	    -148.185
	32.500000000	      -1.625	    -177.268	       2.833	      47.287	     -23.768	      -0.618	      -6.305	    -148.473
	33.000000000	      -1.620	    -177.722	       2.687	      46.503	     -23.781	      -0.808	      -6.248	    -148.789
	33.500000000	      -1.610	    -178.113	       2.537	      45.721	     -23.864	      -0.947	      -6.187	    -149.146
	34.000000000	      -1.598	    -178.481	       2.394	      44.932	     -23.938	      -1.278	      -6.119	    -149.547
	34.500000000	      -1.605	    -178.900	       2.242	      44.116	     -23.981	      -1.576	      -6.036	    -149.798
	35.000000000	      -1.608	    -179.219	       2.102	      43.392	     -24.062	      -1.609	      -5.979	    -150.204
	35.500000000	      -1.601	    -179.555	       1.981	      42.649	     -24.128	      -0.884	      -5.924	    -150.372
	36.000000000	      -1.595	    -179.900	       1.851	      41.845	     -24.108	      -0.902	      -5.848	    -150.644
	36.500000000	      -1.584	     179.833	       1.721	      41.022	     -24.131	      -1.241	      -5.775	    -151.033
	37.000000000	      -1.580	     179.532	       1.586	      40.264	     -24.147	      -1.090	      -5.718	    -151.351
	37.500000000	      -1.584	     179.225	       1.452	      39.521	     -24.249	      -1.648	      -5.663	    -151.673
	38.000000000	      -1.575	     178.859	       1.319	      38.805	     -24.342	      -1.487	      -5.604	    -151.903
	38.500000000	      -1.564	     178.539	       1.185	      38.073	     -24.448	      -1.798	      -5.535	    -152.391
	39.000000000	      -1.556	     178.267	       1.062	      37.376	     -24.503	      -1.195	      -5.470	    -152.711
	39.500000000	      -1.551	     178.088	       0.947	      36.715	     -24.545	      -1.177	      -5.409	    -153.039
	40.000000000	      -1.536	     177.698	       0.838	      35.907	     -24.539	      -1.058	      -5.337	    -153.354
	40.500000000	      -1.532	     177.254	       0.706	      35.110	     -24.532	      -1.172	      -5.274	    -153.691
	41.000000000	      -1.517	     176.912	       0.582	      34.337	     -24.610	      -1.098	      -5.222	    -154.086
	41.500000000	      -1.513	     176.703	       0.461	      33.653	     -24.736	      -1.218	      -5.183	    -154.311
	42.000000000	      -1.514	     176.388	       0.338	      32.935	     -24.729	      -1.492	      -5.114	    -154.488
	42.500000000	      -1.528	     176.057	       0.217	      32.275	     -24.877	      -1.123	      -5.050	    -154.618
	43.000000000	      -1.522	     175.799	       0.117	      31.618	     -24.913	      -0.627	      -4.985	    -154.957
	43.500000000	      -1.506	     175.585	       0.000	      30.816	     -24.940	       0.011	      -4.940	    -155.303
	44.000000000	      -1.508	     175.282	      -0.119	      30.040	     -24.996	      -0.062	      -4.869	    -155.746
	44.500000000	      -1.515	     174.886	      -0.249	      29.360	     -24.904	      -0.113	      -4.799	    -156.048
	45.000000000	      -1.529	     174.565	      -0.372	      28.667	     -24.930	      -0.802	      -4.734	    -156.462
	45.500000000	      -1.479	     174.214	      -0.648	      28.088	     -25.219	      -1.039	      -4.612	    -157.462
	46.000000000	      -1.461	     173.987	      -0.774	      27.482	     -25.307	      -1.004	      -4.561	    -157.770
	46.500000000	      -1.454	     173.640	      -0.872	      26.861	     -25.464	      -0.388	      -4.482	    -157.943
	47.000000000	      -1.448	     173.320	      -0.980	      26.115	     -25.537	       0.140	      -4.420	    -158.273
	47.500000000	      -1.450	     173.018	      -1.089	      25.450	     -25.490	       1.057	      -4.369	    -158.510
	48.000000000	      -1.430	     172.741	      -1.202	      24.786	     -25.391	       0.620	      -4.328	    -158.742
	48.500000000	      -1.423	     172.390	      -1.317	      24.098	     -25.446	       0.554	      -4.283	    -159.090
	49.000000000	      -1.439	     172.200	      -1.429	      23.465	     -25.586	       0.064	      -4.220	    -159.387
	49.500000000	      -1.451	     171.933	      -1.544	      22.815	     -25.588	       0.738	      -4.146	    -159.739
	50.000000000	      -1.426	     171.741	      -1.665	      22.298	     -25.808	       0.415	      -4.096	    -160.149
	50.500000000	      -1.421	     171.460	      -1.741	      21.651	     -25.833	       0.441	      -4.076	    -160.643
	51.000000000	      -1.412	     171.133	      -1.878	      21.067	     -25.844	       1.334	      -4.065	    -161.014
	51.500000000	      -1.411	     170.999	      -1.973	      20.459	     -25.799	       1.452	      -4.015	    -161.290
	52.000000000	      -1.394	     170.777	      -2.080	      19.730	     -25.704	       1.561	      -3.980	    -161.558
	52.500000000	      -1.390	     170.410	      -2.194	      19.195	     -25.665	       1.837	      -3.945	    -161.718
	53.000000000	      -1.381	     170.052	      -2.297	      18.522	     -25.904	       2.098	      -3.900	    -161.798
	53.500000000	      -1.381	     169.948	      -2.390	      18.049	     -25.846	       0.131	      -3.851	    -162.136
	54.000000000	      -1.359	     169.636	      -2.488	      17.485	     -25.847	       2.379	      -3.777	    -162.444
	54.500000000	      -1.367	     169.272	      -2.577	      16.891	     -26.015	       2.251	      -3.732	    -162.601
	55.000000000	      -1.380	     168.874	      -2.657	      16.198	     -25.944	       2.051	      -3.686	    -162.810
	55.500000000	      -1.373	     168.605	      -2.756	      15.603	     -25.739	       1.770	      -3.647	    -163.142
	56.000000000	      -1.355	     168.357	      -2.846	      14.830	     -25.778	       1.470	      -3.607	    -163.614
	56.500000000	      -1.372	     168.196	      -2.945	      14.208	     -26.052	       0.874	      -3.544	    -164.166
	57.000000000	      -1.369	     167.867	      -3.052	      13.551	     -26.021	       2.298	      -3.553	    -164.326
	57.500000000	      -1.361	     167.691	      -3.163	      13.008	     -26.203	       1.576	      -3.514	    -164.557
	58.000000000	      -1.343	     167.553	      -3.257	      12.360	     -26.249	       0.919	      -3.477	    -164.898
	58.500000000	      -1.325	     167.327	      -3.330	      11.896	     -26.306	       1.604	      -3.426	    -165.121
	59.000000000	      -1.325	     167.003	      -3.427	      11.220	     -26.109	       2.393	      -3.381	    -165.474
	59.500000000	      -1.325	     166.926	      -3.503	      10.411	     -25.990	       3.649	      -3.344	    -165.729
	60.000000000	      -1.328	     166.697	      -3.607	       9.768	     -26.125	       1.799	      -3.341	    -166.154
	60.500000000	      -1.295	     166.389	      -3.717	       9.196	     -26.239	       2.567	      -3.316	    -166.139
	61.000000000	      -1.267	     166.105	      -3.813	       8.662	     -26.542	       3.192	      -3.284	    -166.364
	61.500000000	      -1.256	     165.859	      -3.915	       8.243	     -26.490	       2.617	      -3.251	    -166.567
	62.000000000	      -1.244	     165.593	      -3.986	       7.551	     -26.459	       1.995	      -3.251	    -166.733
	62.500000000	      -1.251	     165.261	      -4.066	       6.977	     -26.757	       4.668	      -3.212	    -166.867
	63.000000000	      -1.239	     164.794	      -4.130	       6.256	     -26.435	       3.108	      -3.150	    -166.995
	63.500000000	      -1.238	     164.619	      -4.215	       5.545	     -26.474	       3.759	      -3.105	    -167.355
	64.000000000	      -1.229	     164.665	      -4.298	       4.709	     -26.101	       3.707	      -3.039	    -167.371
	64.500000000	      -1.208	     164.430	      -4.375	       3.839	     -26.231	       5.679	      -2.978	    -167.373
	65.000000000	      -1.224	     164.198	      -4.507	       2.879	     -26.207	       3.901	      -2.923	    -167.598
	65.500000000	      -1.213	     163.681	      -4.611	       2.479	     -26.449	       4.623	      -2.893	    -168.463
	66.000000000	      -1.201	     163.387	      -4.740	       1.629	     -26.394	       3.693	      -2.881	    -168.946
	66.500000000	      -1.228	     163.009	      -4.862	       0.873	     -26.304	       5.194	      -2.847	    -168.786
	67.000000000	      -1.284	     162.857	      -4.977	       0.315	     -26.783	       1.943	      -2.838	    -168.945
	67.500000000	      -1.268	     162.190	      -5.104	      -0.540	     -26.310	       3.594	      -2.831	    -169.326
	68.000000000	      -1.295	     162.031	      -5.210	      -1.158	     -26.304	       3.431	      -2.849	    -169.684
	68.500000000	      -1.321	     161.827	      -5.309	      -1.646	     -26.273	       2.814	      -2.807	    -169.766
	69.000000000	      -1.345	     161.617	      -5.441	      -2.220	     -26.311	       2.753	      -2.742	    -170.051
	69.500000000	      -1.347	     161.382	      -5.560	      -2.687	     -26.424	       2.277	      -2.718	    -170.246
	70.000000000	      -1.335	     161.190	      -5.655	      -3.142	     -26.444	       2.875	      -2.696	    -170.320
	70.500000000	      -1.321	     161.004	      -5.759	      -3.613	     -26.424	       3.064	      -2.654	    -170.524
	71.000000000	      -1.326	     160.727	      -5.849	      -4.042	     -26.418	       2.565	      -2.616	    -170.625
	71.500000000	      -1.300	     160.453	      -5.958	      -4.693	     -26.391	       2.200	      -2.570	    -170.800
	72.000000000	      -1.297	     160.351	      -6.063	      -5.162	     -26.394	       1.651	      -2.563	    -171.142
	72.500000000	      -1.319	     159.944	      -6.172	      -5.796	     -26.430	       0.650	      -2.537	    -171.440
	73.000000000	      -1.341	     159.711	      -6.277	      -6.368	     -26.582	      -0.066	      -2.500	    -171.635
	73.500000000	      -1.362	     159.633	      -6.394	      -6.892	     -26.811	       0.221	      -2.433	    -171.959
	74.000000000	      -1.366	     159.395	      -6.502	      -7.336	     -26.907	       0.924	      -2.432	    -172.529
	74.500000000	      -1.393	     159.198	      -6.605	      -7.793	     -26.964	       1.278	      -2.445	    -172.769
	75.000000000	      -1.424	     159.096	      -6.704	      -8.296	     -27.090	       1.556	      -2.426	    -172.842
	75.500000000	      -1.452	     159.037	      -6.836	      -8.832	     -27.309	       1.962	      -2.429	    -173.026
	76.000000000	      -1.465	     159.098	      -6.961	      -9.241	     -27.585	       3.979	      -2.436	    -173.111
	76.500000000	      -1.459	     159.294	      -7.092	      -9.402	     -27.656	       7.891	      -2.426	    -172.998
	77.000000000	      -1.435	     159.319	      -7.181	      -9.468	     -27.285	      11.781	      -2.358	    -172.914
	77.500000000	      -1.374	     159.265	      -7.217	      -9.487	     -26.591	      13.023	      -2.278	    -173.024
	78.000000000	      -1.302	     159.032	      -7.244	      -9.752	     -26.051	      12.126	      -2.241	    -173.181
	78.500000000	      -1.237	     158.515	      -7.281	     -10.306	     -25.719	      10.435	      -2.192	    -173.521
	79.000000000	      -1.237	     157.907	      -7.339	     -10.900	     -25.521	       8.894	      -2.126	    -173.815
	79.500000000	      -1.262	     157.362	      -7.372	     -11.689	     -25.276	       6.956	      -2.100	    -174.046
