!File name = EG0520U_1010_6x60_2SDBCB2EV_1915934D06_RC2943_4Vd_54mA.s2p
!Base file name = EG0520U_1010_6x60_2SDBCB2EV_1915934D06_RC2943
!Date = 8/23/2019
!Time = 1:06 PM
!Test duration(min) = 0.15
!Test = S-Parameters
!MPTS version = 8.91.5
!State File = C:\Data\PNA\20190821205423\S-Parameters_2019-08-23.sta
!Cal File = 
!ComputerName = CMPE-LAB-6
!Comments = 
!Attenuation = 0
!Z0 = 50
!Input Power(dBm) = -13.00
!Device ID = EG0520U_1010_6x60_2SDBCB2EV
!Row = 29
!Column = 43
!Technology = QPHT09
!Lot/Wafer = 1915934D06
!Gate Size = 360
!Mask = EG0520
!Cal Standards = GaAs BCB
!Cal Kit = EG2306
!Job Number = 20190821205423
!Device Type = FET
!set_Vg(v) = -1.500
!set_Vd(v) = 4.000
!set_Vd(mA) = 54.000
!file_name = EG0520U_1010_6x60_2SDBCB2EV_1915934D06_RC2943_4Vd_54mA.s2p
!Vd(V) = 4.000
!Vd(mA) = 54.059
!Vg(V) = -0.453
!Vg(mA) = -0.002
# GHz   S   DB   R   50
!%	Freq(GHz)	     s11(dB)	    s11(deg)	     s21(dB)	    s21(deg)	     s12(dB)	    s12(deg)	     s22(dB)	    s22(deg)
	0.500000000	      -0.060	     -15.322	      22.612	     170.592	     -39.470	      80.835	      -8.611	     -15.301
	1.000000000	      -0.149	     -30.241	      22.127	     161.921	     -33.722	      73.045	      -8.680	     -29.020
	1.500000000	      -0.192	     -44.229	      21.736	     154.167	     -30.594	      65.521	      -8.678	     -42.222
	2.000000000	      -0.335	     -56.787	      21.469	     146.754	     -28.613	      58.633	      -8.737	     -55.057
	2.500000000	      -0.435	     -68.387	      20.991	     140.195	     -27.264	      52.735	      -8.890	     -65.402
	3.000000000	      -0.827	     -76.133	      20.287	     134.990	     -26.478	      48.326	      -9.309	     -69.554
	3.500000000	      -0.943	     -84.991	      19.695	     129.867	     -25.751	      43.906	      -9.408	     -77.420
	4.000000000	      -1.036	     -92.774	      19.109	     125.349	     -25.198	      40.024	      -9.487	     -84.324
	4.500000000	      -1.132	     -99.656	      18.532	     121.215	     -24.788	      36.555	      -9.553	     -90.601
	5.000000000	      -1.203	    -105.741	      17.958	     117.564	     -24.464	      33.543	      -9.618	     -95.893
	5.500000000	      -1.268	    -111.192	      17.411	     114.194	     -24.211	      30.907	      -9.676	    -100.566
	6.000000000	      -1.322	    -116.030	      16.871	     111.180	     -24.009	      28.567	      -9.697	    -104.610
	6.500000000	      -1.366	    -120.332	      16.356	     108.423	     -23.849	      26.411	      -9.711	    -108.204
	7.000000000	      -1.403	    -124.204	      15.862	     105.858	     -23.718	      24.549	      -9.714	    -111.331
	7.500000000	      -1.431	    -127.707	      15.382	     103.495	     -23.616	      22.825	      -9.709	    -114.164
	8.000000000	      -1.440	    -130.637	      14.941	     101.429	     -23.505	      21.467	      -9.721	    -115.942
	8.500000000	      -1.466	    -133.568	      14.499	      99.377	     -23.432	      19.987	      -9.707	    -118.207
	9.000000000	      -1.492	    -136.214	      14.069	      97.446	     -23.373	      18.606	      -9.681	    -120.195
	9.500000000	      -1.508	    -138.668	      13.665	      95.579	     -23.328	      17.314	      -9.650	    -121.977
	10.000000000	      -1.519	    -140.947	      13.274	      93.817	     -23.302	      16.098	      -9.616	    -123.695
	10.500000000	      -1.536	    -143.071	      12.897	      92.111	     -23.287	      15.045	      -9.583	    -125.186
	11.000000000	      -1.548	    -145.014	      12.534	      90.512	     -23.276	      14.072	      -9.543	    -126.526
	11.500000000	      -1.565	    -146.848	      12.178	      88.965	     -23.281	      13.142	      -9.503	    -127.705
	12.000000000	      -1.578	    -148.548	      11.839	      87.485	     -23.286	      12.309	      -9.449	    -128.802
	12.500000000	      -1.585	    -150.114	      11.508	      86.062	     -23.285	      11.553	      -9.391	    -129.899
	13.000000000	      -1.596	    -151.588	      11.187	      84.659	     -23.300	      10.824	      -9.337	    -130.861
	13.500000000	      -1.602	    -152.984	      10.880	      83.344	     -23.308	      10.084	      -9.271	    -131.664
	14.000000000	      -1.610	    -154.331	      10.580	      82.042	     -23.333	       9.441	      -9.206	    -132.439
	14.500000000	      -1.613	    -155.554	      10.289	      80.768	     -23.360	       8.820	      -9.146	    -133.264
	15.000000000	      -1.617	    -156.656	      10.003	      79.541	     -23.392	       8.296	      -9.090	    -133.987
	15.500000000	      -1.624	    -157.749	       9.727	      78.331	     -23.417	       7.845	      -9.026	    -134.580
	16.000000000	      -1.627	    -158.821	       9.459	      77.153	     -23.433	       7.330	      -8.948	    -135.150
	16.500000000	      -1.630	    -159.870	       9.196	      75.987	     -23.464	       6.815	      -8.876	    -135.722
	17.000000000	      -1.632	    -160.844	       8.943	      74.860	     -23.510	       6.331	      -8.808	    -136.257
	17.500000000	      -1.638	    -161.718	       8.692	      73.751	     -23.533	       5.956	      -8.735	    -136.793
	18.000000000	      -1.646	    -162.580	       8.451	      72.669	     -23.579	       5.530	      -8.661	    -137.348
	18.500000000	      -1.647	    -163.435	       8.214	      71.601	     -23.600	       5.068	      -8.575	    -137.799
	19.000000000	      -1.646	    -164.259	       7.981	      70.539	     -23.656	       4.582	      -8.500	    -138.251
	19.500000000	      -1.645	    -165.025	       7.756	      69.515	     -23.736	       4.255	      -8.436	    -138.687
	20.000000000	      -1.652	    -165.743	       7.536	      68.517	     -23.808	       4.255	      -8.371	    -139.054
	20.500000000	      -1.652	    -166.421	       7.325	      67.509	     -23.821	       4.168	      -8.284	    -139.394
	21.000000000	      -1.653	    -167.095	       7.113	      66.509	     -23.829	       3.866	      -8.196	    -139.815
	21.500000000	      -1.645	    -167.819	       6.905	      65.509	     -23.873	       3.581	      -8.116	    -140.168
	22.000000000	      -1.643	    -168.382	       6.703	      64.553	     -23.917	       3.231	      -8.033	    -140.529
	22.500000000	      -1.641	    -168.985	       6.501	      63.572	     -23.949	       2.802	      -7.958	    -140.942
	23.000000000	      -1.642	    -169.619	       6.300	      62.617	     -24.030	       2.349	      -7.880	    -141.422
	23.500000000	      -1.644	    -170.179	       6.107	      61.737	     -24.158	       2.296	      -7.812	    -141.861
	24.000000000	      -1.642	    -170.736	       5.924	      60.847	     -24.237	       2.578	      -7.742	    -142.128
	24.500000000	      -1.632	    -171.178	       5.745	      59.921	     -24.241	       2.729	      -7.661	    -142.318
	25.000000000	      -1.615	    -171.665	       5.565	      58.957	     -24.224	       2.548	      -7.575	    -142.594
	25.500000000	      -1.608	    -172.219	       5.386	      58.056	     -24.292	       2.197	      -7.495	    -142.951
	26.000000000	      -1.610	    -172.804	       5.205	      57.162	     -24.328	       1.944	      -7.398	    -143.382
	26.500000000	      -1.609	    -173.284	       5.029	      56.276	     -24.396	       1.716	      -7.311	    -143.739
	27.000000000	      -1.602	    -173.649	       4.859	      55.420	     -24.475	       1.519	      -7.240	    -144.012
	27.500000000	      -1.596	    -174.008	       4.699	      54.625	     -24.614	       1.785	      -7.179	    -144.185
	28.000000000	      -1.586	    -174.521	       4.545	      53.747	     -24.650	       2.151	      -7.095	    -144.613
	28.500000000	      -1.574	    -175.022	       4.386	      52.791	     -24.600	       2.057	      -7.001	    -144.980
	29.000000000	      -1.566	    -175.437	       4.222	      51.880	     -24.660	       2.094	      -6.918	    -145.359
	29.500000000	      -1.558	    -175.847	       4.060	      51.033	     -24.710	       1.667	      -6.842	    -145.732
	30.000000000	      -1.557	    -176.165	       3.904	      50.241	     -24.814	       1.446	      -6.778	    -146.021
	30.500000000	      -1.547	    -176.679	       3.751	      49.371	     -24.838	       1.369	      -6.706	    -146.352
	31.000000000	      -1.533	    -177.126	       3.596	      48.544	     -24.922	       1.157	      -6.644	    -146.738
	31.500000000	      -1.522	    -177.538	       3.455	      47.754	     -25.051	       1.636	      -6.579	    -147.018
	32.000000000	      -1.522	    -177.846	       3.307	      46.881	     -25.051	       1.941	      -6.499	    -147.310
	32.500000000	      -1.528	    -178.283	       3.158	      45.999	     -25.020	       1.972	      -6.409	    -147.536
	33.000000000	      -1.527	    -178.710	       3.013	      45.197	     -25.098	       2.004	      -6.340	    -147.871
	33.500000000	      -1.511	    -179.076	       2.863	      44.411	     -25.190	       2.047	      -6.267	    -148.243
	34.000000000	      -1.498	    -179.428	       2.719	      43.590	     -25.198	       1.791	      -6.189	    -148.666
	34.500000000	      -1.492	    -179.816	       2.566	      42.722	     -25.331	       1.874	      -6.102	    -148.984
	35.000000000	      -1.491	     179.808	       2.423	      41.929	     -25.419	       1.883	      -6.041	    -149.385
	35.500000000	      -1.489	     179.409	       2.293	      41.203	     -25.406	       2.755	      -5.980	    -149.641
	36.000000000	      -1.485	     179.063	       2.159	      40.337	     -25.424	       2.690	      -5.899	    -149.976
	36.500000000	      -1.476	     178.819	       2.018	      39.544	     -25.426	       2.671	      -5.823	    -150.342
	37.000000000	      -1.473	     178.544	       1.877	      38.787	     -25.458	       2.186	      -5.760	    -150.695
	37.500000000	      -1.474	     178.158	       1.737	      38.027	     -25.514	       2.481	      -5.708	    -150.991
	38.000000000	      -1.473	     177.821	       1.603	      37.291	     -25.647	       2.265	      -5.636	    -151.273
	38.500000000	      -1.455	     177.433	       1.462	      36.540	     -25.743	       1.824	      -5.565	    -151.769
	39.000000000	      -1.453	     177.183	       1.330	      35.825	     -25.819	       2.266	      -5.505	    -152.095
	39.500000000	      -1.467	     176.920	       1.196	      35.151	     -25.908	       2.801	      -5.439	    -152.438
	40.000000000	      -1.469	     176.555	       1.076	      34.453	     -25.929	       3.578	      -5.360	    -152.728
	40.500000000	      -1.466	     176.191	       0.952	      33.710	     -25.951	       3.832	      -5.286	    -153.059
	41.000000000	      -1.449	     175.939	       0.833	      32.940	     -25.982	       3.954	      -5.217	    -153.508
	41.500000000	      -1.442	     175.780	       0.713	      32.233	     -26.012	       3.897	      -5.176	    -153.796
	42.000000000	      -1.447	     175.494	       0.587	      31.511	     -26.054	       3.285	      -5.099	    -154.063
	42.500000000	      -1.461	     175.125	       0.463	      30.838	     -26.174	       3.430	      -5.038	    -154.235
	43.000000000	      -1.463	     174.926	       0.352	      30.231	     -26.294	       4.531	      -4.976	    -154.510
	43.500000000	      -1.444	     174.747	       0.235	      29.411	     -26.184	       4.805	      -4.921	    -155.006
	44.000000000	      -1.442	     174.486	       0.120	      28.658	     -26.303	       5.292	      -4.854	    -155.429
	44.500000000	      -1.449	     174.110	      -0.012	      27.943	     -26.216	       4.816	      -4.776	    -155.765
	45.000000000	      -1.456	     173.813	      -0.130	      27.228	     -26.299	       4.921	      -4.712	    -156.155
	45.500000000	      -1.410	     173.477	      -0.412	      26.663	     -26.549	       5.244	      -4.577	    -157.194
	46.000000000	      -1.386	     173.254	      -0.541	      26.000	     -26.663	       5.042	      -4.529	    -157.534
	46.500000000	      -1.374	     172.875	      -0.654	      25.423	     -26.794	       6.064	      -4.447	    -157.777
	47.000000000	      -1.381	     172.597	      -0.754	      24.711	     -26.823	       6.213	      -4.377	    -158.012
	47.500000000	      -1.373	     172.330	      -0.874	      24.023	     -26.909	       6.504	      -4.345	    -158.282
	48.000000000	      -1.357	     172.062	      -0.984	      23.326	     -26.651	       7.935	      -4.297	    -158.581
	48.500000000	      -1.353	     171.754	      -1.108	      22.640	     -26.716	       6.792	      -4.235	    -158.960
	49.000000000	      -1.366	     171.555	      -1.227	      21.967	     -26.709	       6.513	      -4.149	    -159.289
	49.500000000	      -1.379	     171.355	      -1.345	      21.358	     -27.029	       6.978	      -4.108	    -159.679
	50.000000000	      -1.361	     171.125	      -1.447	      20.874	     -26.905	       5.971	      -4.053	    -160.010
	50.500000000	      -1.348	     170.841	      -1.554	      20.171	     -27.094	       7.483	      -4.058	    -160.416
	51.000000000	      -1.334	     170.554	      -1.658	      19.585	     -26.983	       8.537	      -4.015	    -160.712
	51.500000000	      -1.335	     170.438	      -1.768	      19.010	     -26.968	       9.226	      -3.968	    -161.189
	52.000000000	      -1.315	     170.242	      -1.886	      18.293	     -26.965	       8.891	      -3.922	    -161.426
	52.500000000	      -1.308	     169.855	      -1.999	      17.700	     -26.924	       9.617	      -3.881	    -161.641
	53.000000000	      -1.312	     169.526	      -2.113	      17.049	     -26.977	       9.133	      -3.823	    -161.717
	53.500000000	      -1.304	     169.360	      -2.212	      16.531	     -27.034	       9.369	      -3.774	    -162.071
	54.000000000	      -1.296	     169.146	      -2.302	      15.975	     -27.037	      10.122	      -3.704	    -162.398
	54.500000000	      -1.292	     168.759	      -2.399	      15.350	     -27.169	      10.149	      -3.651	    -162.639
	55.000000000	      -1.304	     168.401	      -2.492	      14.673	     -27.005	      11.048	      -3.598	    -162.887
	55.500000000	      -1.303	     168.149	      -2.588	      14.044	     -27.044	      10.786	      -3.555	    -163.316
	56.000000000	      -1.285	     167.919	      -2.679	      13.368	     -27.024	       9.368	      -3.525	    -163.804
	56.500000000	      -1.284	     167.647	      -2.799	      12.833	     -27.058	      12.604	      -3.502	    -164.457
	57.000000000	      -1.292	     167.475	      -2.888	      12.180	     -27.407	       9.692	      -3.478	    -164.460
	57.500000000	      -1.291	     167.327	      -3.012	      11.491	     -27.388	       8.954	      -3.423	    -164.835
	58.000000000	      -1.268	     167.242	      -3.092	      11.133	     -27.545	       9.971	      -3.384	    -165.028
	58.500000000	      -1.231	     167.042	      -3.183	      10.399	     -27.276	      12.750	      -3.354	    -165.420
	59.000000000	      -1.257	     166.709	      -3.257	       9.638	     -27.368	      12.386	      -3.292	    -165.627
	59.500000000	      -1.233	     166.470	      -3.363	       8.922	     -27.607	      10.895	      -3.245	    -165.933
	60.000000000	      -1.238	     166.315	      -3.475	       8.225	     -27.349	      10.475	      -3.266	    -166.235
	60.500000000	      -1.205	     166.159	      -3.570	       7.629	     -27.705	      11.854	      -3.237	    -166.432
	61.000000000	      -1.171	     165.813	      -3.680	       7.262	     -27.396	      10.637	      -3.196	    -166.605
	61.500000000	      -1.175	     165.534	      -3.774	       6.621	     -27.368	      14.134	      -3.166	    -166.875
	62.000000000	      -1.153	     165.236	      -3.845	       6.089	     -27.314	      11.368	      -3.139	    -167.009
	62.500000000	      -1.171	     165.091	      -3.944	       5.359	     -27.734	      13.320	      -3.137	    -167.035
	63.000000000	      -1.152	     164.562	      -4.032	       4.674	     -27.528	      13.593	      -3.042	    -167.244
	63.500000000	      -1.144	     164.446	      -4.112	       3.860	     -27.314	      14.063	      -3.023	    -167.627
	64.000000000	      -1.153	     164.574	      -4.174	       3.175	     -27.096	      16.229	      -2.945	    -167.721
	64.500000000	      -1.117	     164.451	      -4.267	       2.327	     -27.286	      12.548	      -2.937	    -167.614
	65.000000000	      -1.120	     163.968	      -4.395	       1.582	     -27.674	      11.431	      -2.843	    -167.950
	65.500000000	      -1.119	     163.539	      -4.488	       0.772	     -27.206	      13.984	      -2.827	    -168.575
	66.000000000	      -1.122	     163.257	      -4.632	       0.107	     -27.291	      14.513	      -2.783	    -169.188
	66.500000000	      -1.134	     162.944	      -4.730	      -0.805	     -27.323	      16.098	      -2.723	    -168.871
	67.000000000	      -1.184	     162.802	      -4.842	      -1.280	     -26.882	      13.549	      -2.765	    -169.262
	67.500000000	      -1.170	     162.041	      -5.010	      -1.998	     -27.103	      13.778	      -2.731	    -169.701
	68.000000000	      -1.206	     161.842	      -5.112	      -2.696	     -27.124	      13.768	      -2.757	    -170.030
	68.500000000	      -1.238	     161.616	      -5.221	      -3.169	     -27.116	      13.170	      -2.713	    -170.129
	69.000000000	      -1.262	     161.453	      -5.357	      -3.727	     -27.097	      12.542	      -2.653	    -170.372
	69.500000000	      -1.259	     161.247	      -5.475	      -4.137	     -27.276	      12.721	      -2.636	    -170.550
	70.000000000	      -1.242	     161.085	      -5.578	      -4.611	     -27.270	      13.334	      -2.609	    -170.679
	70.500000000	      -1.227	     160.925	      -5.683	      -5.028	     -27.212	      13.572	      -2.573	    -170.842
	71.000000000	      -1.217	     160.712	      -5.760	      -5.355	     -27.184	      13.477	      -2.524	    -171.032
	71.500000000	      -1.170	     160.720	      -5.877	      -5.956	     -27.153	      13.185	      -2.455	    -171.271
	72.000000000	      -1.176	     160.271	      -5.993	      -6.452	     -27.123	      12.413	      -2.471	    -171.525
	72.500000000	      -1.195	     159.903	      -6.090	      -7.119	     -27.201	      11.760	      -2.446	    -171.781
	73.000000000	      -1.223	     159.707	      -6.195	      -7.697	     -27.281	      11.329	      -2.401	    -171.973
	73.500000000	      -1.238	     159.614	      -6.309	      -8.246	     -27.459	      11.556	      -2.324	    -172.273
	74.000000000	      -1.243	     159.395	      -6.417	      -8.707	     -27.491	      12.080	      -2.320	    -172.831
	74.500000000	      -1.271	     159.150	      -6.504	      -9.163	     -27.464	      12.235	      -2.332	    -173.051
	75.000000000	      -1.302	     159.081	      -6.610	      -9.740	     -27.523	      12.399	      -2.320	    -173.170
	75.500000000	      -1.327	     159.116	      -6.730	     -10.355	     -27.691	      12.263	      -2.308	    -173.395
	76.000000000	      -1.328	     159.175	      -6.858	     -10.918	     -27.952	      13.077	      -2.313	    -173.558
	76.500000000	      -1.318	     159.257	      -7.014	     -11.245	     -28.192	      16.030	      -2.308	    -173.518
	77.000000000	      -1.297	     159.318	      -7.151	     -11.328	     -28.043	      19.950	      -2.259	    -173.422
	77.500000000	      -1.223	     159.274	      -7.231	     -11.107	     -27.450	      22.709	      -2.190	    -173.511
	78.000000000	      -1.148	     159.142	      -7.261	     -11.088	     -26.843	      22.910	      -2.147	    -173.665
	78.500000000	      -1.085	     158.682	      -7.282	     -11.514	     -26.412	      21.496	      -2.099	    -173.947
	79.000000000	      -1.080	     158.058	      -7.326	     -12.089	     -26.103	      19.660	      -2.037	    -174.276
	79.500000000	      -1.082	     157.525	      -7.357	     -12.789	     -25.876	      17.733	      -2.009	    -174.528
