#  GHZ  S  MA  R 50									
! 1915934D06 QPHT09 360 um ID No. EG0520U_1212_6x60_2SDBCB2EV R/C 29 52 8/23/2019 1:18 PM
! Vds= 0.000 V Ids= 0.002 mA Vg1s= -1.000 V Ig1s= -0.00000 mA BiasType= Fixed_Vg_Vd
! JobName= EG0520 Calstds= GaAs BCB Calkit= EG2306
! WEIGHT 1
!File name = EG0520U_1212_6x60_2SDBCB2EV_1915934D06_RC2952_Vg_N1.0V_Vd_0v.s2p									
!Base file name = EG0520U_1212_6x60_2SDBCB2EV_1915934D06_RC2952									
!Date = 8/23/2019									
!Time = 1:18 PM									
!Test duration(min) = 0.15									
!Test = S-Parameters									
!MPTS version = 8.91.5									
!Cal File = 									
!ComputerName = CMPE-LAB-6									
!Comments = 									
!Attenuation = 0									
!Z0 = 50									
!Input Power(dBm) = -13.00									
!Device ID = EG0520U_1212_6x60_2SDBCB2EV									
!Row = 29									
!Column = 52									
!Technology = QPHT09									
!Lot/Wafer = 1915934D06									
!Gate Size = 360									
!Mask = EG0520									
!Cal Standards = GaAs BCB									
!Cal Kit = EG2306									
!Job Number = 20190821205423									
!Device Type = FET									
!set_Vg(v) = -1.000									
!set_Vd(v) = 0.000									
!file_name = EG0520U_1212_6x60_2SDBCB2EV_1915934D06_RC2952_Vg_N1.0V_Vd_0v.s2p									
!Vd(V) = 0.000									
!Vd(mA) = 0.002									
!Vg(V) = -1.000									
!Vg(mA) = -0.000									
! Freq  S11Mag S11Ang  S21Mag  S21Ang  S12Mag  S12Ang  S22Mag  S22Ang
	0.500000000	      0.9997	     -4.5700	      0.0386	     85.5540	      0.0386	     85.6170	      0.9991	     -4.0220
	1.000000000	      0.9977	     -9.1360	      0.0767	     81.4160	      0.0768	     81.3790	      0.9971	     -8.0560
	1.500000000	      0.9948	    -13.6600	      0.1142	     77.2780	      0.1142	     77.1890	      0.9944	    -12.0560
	2.000000000	      0.9907	    -18.1160	      0.1506	     73.1740	      0.1506	     73.1160	      0.9904	    -15.9990
	2.500000000	      0.9856	    -22.4900	      0.1857	     69.1280	      0.1858	     69.0460	      0.9854	    -19.8790
	3.000000000	      0.9691	    -25.9160	      0.2108	     64.3900	      0.2108	     64.3700	      0.9708	    -22.9060
	3.500000000	      0.9613	    -29.9500	      0.2411	     60.7260	      0.2409	     60.6450	      0.9632	    -26.4740
	4.000000000	      0.9526	    -33.8690	      0.2694	     57.0490	      0.2692	     56.9910	      0.9553	    -29.9600
	4.500000000	      0.9434	    -37.6660	      0.2961	     53.4520	      0.2958	     53.4140	      0.9469	    -33.3510
	5.000000000	      0.9342	    -41.3370	      0.3207	     50.0050	      0.3204	     49.9630	      0.9383	    -36.6350
	5.500000000	      0.9252	    -44.9140	      0.3436	     46.6180	      0.3433	     46.5880	      0.9298	    -39.8330
	6.000000000	      0.9162	    -48.3610	      0.3646	     43.3770	      0.3643	     43.3230	      0.9214	    -42.9460
	6.500000000	      0.9074	    -51.6650	      0.3836	     40.2370	      0.3834	     40.1680	      0.9132	    -45.9500
	7.000000000	      0.8990	    -54.8470	      0.4011	     37.2140	      0.4007	     37.1270	      0.9053	    -48.8560
	7.500000000	      0.8913	    -57.9620	      0.4169	     34.2800	      0.4165	     34.2060	      0.8978	    -51.6650
	8.000000000	      0.8847	    -60.7240	      0.4303	     31.6560	      0.4299	     31.5950	      0.8908	    -54.1840
	8.500000000	      0.8770	    -63.5900	      0.4431	     28.8990	      0.4427	     28.8260	      0.8839	    -56.8260
	9.000000000	      0.8699	    -66.3240	      0.4545	     26.2290	      0.4542	     26.1620	      0.8774	    -59.3850
	9.500000000	      0.8637	    -68.9550	      0.4648	     23.6780	      0.4644	     23.6030	      0.8714	    -61.8510
	10.000000000	      0.8578	    -71.5130	      0.4738	     21.2040	      0.4734	     21.1220	      0.8658	    -64.2410
	10.500000000	      0.8525	    -73.9830	      0.4818	     18.8060	      0.4813	     18.6920	      0.8607	    -66.5480
	11.000000000	      0.8475	    -76.3470	      0.4888	     16.5110	      0.4883	     16.4380	      0.8564	    -68.7960
	11.500000000	      0.8432	    -78.6160	      0.4949	     14.2710	      0.4945	     14.1950	      0.8527	    -70.9890
	12.000000000	      0.8394	    -80.8370	      0.5002	     12.0840	      0.4996	     11.9940	      0.8494	    -73.1110
	12.500000000	      0.8362	    -82.9970	      0.5046	     10.0150	      0.5041	      9.9100	      0.8463	    -75.2390
	13.000000000	      0.8332	    -85.0540	      0.5084	      7.9540	      0.5079	      7.8670	      0.8436	    -77.2960
	13.500000000	      0.8307	    -87.0630	      0.5116	      5.9750	      0.5109	      5.8800	      0.8415	    -79.2450
	14.000000000	      0.8286	    -89.0270	      0.5139	      4.0510	      0.5133	      3.9670	      0.8399	    -81.1440
	14.500000000	      0.8269	    -90.9170	      0.5159	      2.1620	      0.5152	      2.0680	      0.8385	    -83.0620
	15.000000000	      0.8258	    -92.7180	      0.5171	      0.3580	      0.5165	      0.2680	      0.8370	    -84.9180
	15.500000000	      0.8249	    -94.4520	      0.5180	     -1.4010	      0.5174	     -1.5330	      0.8361	    -86.7140
	16.000000000	      0.8239	    -96.1840	      0.5187	     -3.0980	      0.5181	     -3.2500	      0.8356	    -88.4510
	16.500000000	      0.8230	    -97.8750	      0.5188	     -4.7920	      0.5181	     -4.8970	      0.8352	    -90.1490
	17.000000000	      0.8227	    -99.5140	      0.5188	     -6.4310	      0.5181	     -6.5450	      0.8354	    -91.8120
	17.500000000	      0.8226	   -101.0650	      0.5181	     -8.0410	      0.5175	     -8.1950	      0.8353	    -93.5010
	18.000000000	      0.8223	   -102.5590	      0.5172	     -9.6050	      0.5165	     -9.7690	      0.8355	    -95.1290
	18.500000000	      0.8225	   -104.0570	      0.5162	    -11.1180	      0.5154	    -11.2930	      0.8364	    -96.6950
	19.000000000	      0.8231	   -105.5240	      0.5147	    -12.6350	      0.5137	    -12.7590	      0.8371	    -98.2240
	19.500000000	      0.8241	   -106.9600	      0.5128	    -14.1120	      0.5119	    -14.2310	      0.8382	    -99.7270
	20.000000000	      0.8253	   -108.3330	      0.5106	    -15.5180	      0.5097	    -15.6750	      0.8389	   -101.1940
	20.500000000	      0.8258	   -109.6870	      0.5085	    -16.9260	      0.5075	    -17.0380	      0.8405	   -102.6710
	21.000000000	      0.8261	   -110.9890	      0.5063	    -18.2620	      0.5055	    -18.3850	      0.8423	   -104.1270
	21.500000000	      0.8275	   -112.3000	      0.5040	    -19.6090	      0.5031	    -19.7310	      0.8438	   -105.5160
	22.000000000	      0.8294	   -113.5080	      0.5015	    -20.9170	      0.5006	    -21.0480	      0.8455	   -106.8720
	22.500000000	      0.8317	   -114.7190	      0.4989	    -22.2220	      0.4981	    -22.3450	      0.8461	   -108.2350
	23.000000000	      0.8328	   -115.9170	      0.4962	    -23.5150	      0.4953	    -23.6440	      0.8477	   -109.6420
	23.500000000	      0.8342	   -117.1200	      0.4929	    -24.8440	      0.4920	    -24.9740	      0.8498	   -111.0210
	24.000000000	      0.8355	   -118.2530	      0.4892	    -26.0620	      0.4882	    -26.2080	      0.8512	   -112.3040
	24.500000000	      0.8388	   -119.3640	      0.4858	    -27.2030	      0.4850	    -27.3340	      0.8529	   -113.5140
	25.000000000	      0.8418	   -120.4270	      0.4824	    -28.3360	      0.4816	    -28.4820	      0.8543	   -114.7350
	25.500000000	      0.8435	   -121.6080	      0.4789	    -29.4760	      0.4780	    -29.6320	      0.8562	   -115.9910
	26.000000000	      0.8439	   -122.7410	      0.4754	    -30.6250	      0.4745	    -30.7760	      0.8585	   -117.2740
	26.500000000	      0.8454	   -123.7960	      0.4718	    -31.7520	      0.4711	    -31.8920	      0.8605	   -118.4640
	27.000000000	      0.8477	   -124.7240	      0.4683	    -32.8420	      0.4676	    -32.9900	      0.8624	   -119.5750
	27.500000000	      0.8496	   -125.6220	      0.4637	    -33.9810	      0.4630	    -34.0920	      0.8635	   -120.6300
	28.000000000	      0.8508	   -126.5730	      0.4595	    -35.0120	      0.4587	    -35.1450	      0.8659	   -121.8020
	28.500000000	      0.8546	   -127.5590	      0.4557	    -35.9420	      0.4548	    -36.0700	      0.8681	   -123.0140
	29.000000000	      0.8572	   -128.5610	      0.4520	    -36.9530	      0.4511	    -37.0650	      0.8691	   -124.1420
	29.500000000	      0.8595	   -129.4770	      0.4485	    -37.9180	      0.4476	    -38.0490	      0.8713	   -125.1370
	30.000000000	      0.8610	   -130.3690	      0.4445	    -38.9210	      0.4439	    -39.0260	      0.8727	   -126.1120
	30.500000000	      0.8619	   -131.2120	      0.4408	    -39.8460	      0.4401	    -40.0010	      0.8744	   -127.1510
	31.000000000	      0.8644	   -132.1630	      0.4368	    -40.8080	      0.4360	    -40.9220	      0.8756	   -128.2190
	31.500000000	      0.8678	   -133.0570	      0.4321	    -41.7490	      0.4313	    -41.9330	      0.8775	   -129.2340
	32.000000000	      0.8695	   -133.9240	      0.4279	    -42.6060	      0.4273	    -42.7520	      0.8795	   -130.1880
	32.500000000	      0.8698	   -134.7070	      0.4244	    -43.4770	      0.4236	    -43.5700	      0.8822	   -131.1260
	33.000000000	      0.8703	   -135.5670	      0.4208	    -44.2590	      0.4200	    -44.4010	      0.8839	   -132.1120
	33.500000000	      0.8723	   -136.3690	      0.4168	    -45.1800	      0.4162	    -45.3320	      0.8851	   -133.0800
	34.000000000	      0.8751	   -137.1150	      0.4133	    -46.0040	      0.4125	    -46.2390	      0.8868	   -134.0510
	34.500000000	      0.8780	   -137.9440	      0.4094	    -47.0010	      0.4089	    -47.1690	      0.8894	   -134.9170
	35.000000000	      0.8796	   -138.6930	      0.4051	    -47.8950	      0.4042	    -48.1110	      0.8913	   -135.9100
	35.500000000	      0.8816	   -139.4280	      0.4008	    -48.6610	      0.3999	    -48.8430	      0.8921	   -136.7350
	36.000000000	      0.8840	   -140.2420	      0.3971	    -49.3420	      0.3963	    -49.5950	      0.8942	   -137.6370
	36.500000000	      0.8874	   -140.9610	      0.3932	    -50.1470	      0.3927	    -50.3500	      0.8955	   -138.5070
	37.000000000	      0.8890	   -141.6450	      0.3900	    -50.9320	      0.3892	    -51.1650	      0.8972	   -139.3080
	37.500000000	      0.8890	   -142.4170	      0.3861	    -51.7680	      0.3850	    -51.9660	      0.8977	   -140.1310
	38.000000000	      0.8884	   -143.1470	      0.3820	    -52.5320	      0.3809	    -52.7790	      0.8990	   -140.9070
	38.500000000	      0.8900	   -143.8340	      0.3777	    -53.4100	      0.3769	    -53.6450	      0.9016	   -141.7750
	39.000000000	      0.8925	   -144.4670	      0.3733	    -54.0510	      0.3726	    -54.2490	      0.9033	   -142.5540
	39.500000000	      0.8943	   -144.9700	      0.3697	    -54.6870	      0.3687	    -54.9350	      0.9051	   -143.4150
	40.000000000	      0.8950	   -145.7190	      0.3664	    -55.3840	      0.3652	    -55.6040	      0.9075	   -144.1870
	40.500000000	      0.8963	   -146.4980	      0.3627	    -56.0420	      0.3615	    -56.2910	      0.9095	   -144.9490
	41.000000000	      0.8994	   -147.1760	      0.3592	    -56.7610	      0.3586	    -57.0250	      0.9108	   -145.7820
	41.500000000	      0.9017	   -147.6680	      0.3562	    -57.4660	      0.3553	    -57.6520	      0.9103	   -146.4690
	42.000000000	      0.9039	   -148.2400	      0.3531	    -58.2450	      0.3524	    -58.4910	      0.9129	   -147.0710
	42.500000000	      0.9033	   -148.9290	      0.3495	    -58.9680	      0.3490	    -59.1820	      0.9157	   -147.5890
	43.000000000	      0.9046	   -149.5050	      0.3450	    -59.7120	      0.3444	    -59.9580	      0.9186	   -148.3540
	43.500000000	      0.9074	   -150.1160	      0.3410	    -60.2480	      0.3405	    -60.4700	      0.9189	   -149.2460
	44.000000000	      0.9066	   -150.6930	      0.3372	    -60.8410	      0.3363	    -61.0710	      0.9202	   -150.0210
	44.500000000	      0.9054	   -151.4220	      0.3339	    -61.4920	      0.3335	    -61.6560	      0.9213	   -150.6100
	45.000000000	      0.9047	   -151.9350	      0.3309	    -62.0750	      0.3303	    -62.2450	      0.9228	   -151.3150
	45.500000000	      0.9074	   -153.2860	      0.3203	    -63.0540	      0.3197	    -63.2800	      0.9232	   -152.4590
	46.000000000	      0.9109	   -153.8940	      0.3171	    -63.7940	      0.3162	    -64.0060	      0.9243	   -153.1140
	46.500000000	      0.9131	   -154.5900	      0.3128	    -64.4250	      0.3128	    -64.5780	      0.9284	   -153.5880
	47.000000000	      0.9142	   -155.1620	      0.3104	    -65.0810	      0.3097	    -65.2040	      0.9297	   -154.2260
	47.500000000	      0.9139	   -155.8070	      0.3054	    -65.3660	      0.3057	    -65.6880	      0.9303	   -154.7860
	48.000000000	      0.9154	   -156.3630	      0.3025	    -65.7200	      0.3015	    -65.9650	      0.9289	   -155.3220
	48.500000000	      0.9162	   -156.9580	      0.2991	    -66.2980	      0.2997	    -66.6040	      0.9304	   -155.7570
	49.000000000	      0.9156	   -157.3130	      0.2982	    -66.8300	      0.2968	    -67.1420	      0.9361	   -156.2090
	49.500000000	      0.9146	   -157.7990	      0.2957	    -67.4720	      0.2953	    -67.7290	      0.9395	   -156.7770
	50.000000000	      0.9147	   -158.3570	      0.2908	    -67.9730	      0.2914	    -68.3310	      0.9402	   -157.4030
	50.500000000	      0.9167	   -158.8000	      0.2882	    -68.5100	      0.2875	    -68.8450	      0.9405	   -158.1570
	51.000000000	      0.9177	   -159.4290	      0.2848	    -68.9430	      0.2836	    -69.3880	      0.9382	   -158.7780
	51.500000000	      0.9195	   -159.7820	      0.2826	    -69.3610	      0.2813	    -69.6720	      0.9399	   -159.3780
	52.000000000	      0.9223	   -160.1770	      0.2806	    -69.9990	      0.2796	    -70.2190	      0.9410	   -159.8950
	52.500000000	      0.9219	   -160.8520	      0.2770	    -70.5840	      0.2769	    -70.8410	      0.9432	   -160.3020
	53.000000000	      0.9218	   -161.4880	      0.2743	    -71.1150	      0.2742	    -71.3520	      0.9446	   -160.7170
	53.500000000	      0.9227	   -161.8020	      0.2718	    -71.5320	      0.2711	    -71.9150	      0.9463	   -161.2880
	54.000000000	      0.9234	   -162.1550	      0.2684	    -72.0170	      0.2688	    -72.1900	      0.9481	   -161.7740
	54.500000000	      0.9230	   -162.8370	      0.2661	    -72.3310	      0.2647	    -72.8380	      0.9492	   -162.3060
	55.000000000	      0.9217	   -163.4000	      0.2635	    -72.9680	      0.2632	    -73.1970	      0.9507	   -162.7410
	55.500000000	      0.9213	   -163.8520	      0.2617	    -73.2540	      0.2606	    -73.5730	      0.9516	   -163.1830
	56.000000000	      0.9229	   -164.3350	      0.2600	    -73.8080	      0.2586	    -74.0500	      0.9528	   -163.9080
	56.500000000	      0.9234	   -164.7270	      0.2570	    -74.8070	      0.2564	    -74.9580	      0.9510	   -164.5920
	57.000000000	      0.9259	   -165.0210	      0.2546	    -75.1890	      0.2541	    -75.4770	      0.9503	   -164.8220
	57.500000000	      0.9254	   -165.4450	      0.2521	    -75.7140	      0.2513	    -75.8050	      0.9510	   -165.3450
	58.000000000	      0.9294	   -165.7750	      0.2498	    -75.9880	      0.2490	    -76.3940	      0.9522	   -165.7660
	58.500000000	      0.9308	   -166.2040	      0.2460	    -76.1090	      0.2460	    -76.7240	      0.9531	   -166.1950
	59.000000000	      0.9329	   -166.7230	      0.2440	    -77.0320	      0.2443	    -77.0670	      0.9563	   -166.6510
	59.500000000	      0.9334	   -167.0540	      0.2434	    -77.6320	      0.2421	    -77.7590	      0.9569	   -167.0590
	60.000000000	      0.9341	   -167.3630	      0.2407	    -77.6480	      0.2392	    -78.2740	      0.9546	   -167.5540
	60.500000000	      0.9398	   -167.9850	      0.2385	    -78.6180	      0.2378	    -78.8480	      0.9540	   -167.8110
	61.000000000	      0.9420	   -168.6010	      0.2369	    -79.1400	      0.2359	    -79.4440	      0.9574	   -168.1360
	61.500000000	      0.9421	   -169.1660	      0.2333	    -79.8960	      0.2339	    -79.7850	      0.9581	   -168.5830
	62.000000000	      0.9438	   -169.5190	      0.2313	    -80.5260	      0.2297	    -80.7600	      0.9591	   -168.9760
	62.500000000	      0.9409	   -169.9260	      0.2273	    -81.0850	      0.2274	    -81.2040	      0.9569	   -169.4860
	63.000000000	      0.9424	   -170.5240	      0.2257	    -81.2410	      0.2237	    -81.6930	      0.9598	   -169.7220
	63.500000000	      0.9444	   -170.9300	      0.2225	    -81.7030	      0.2221	    -82.0410	      0.9623	   -170.2620
	64.000000000	      0.9457	   -170.8610	      0.2202	    -82.2520	      0.2192	    -82.8000	      0.9635	   -170.4900
	64.500000000	      0.9502	   -171.1110	      0.2206	    -82.8730	      0.2169	    -83.0300	      0.9619	   -170.7030
	65.000000000	      0.9512	   -171.7310	      0.2155	    -83.1130	      0.2157	    -83.7030	      0.9658	   -171.2780
	65.500000000	      0.9484	   -172.3730	      0.2137	    -84.0170	      0.2125	    -84.0790	      0.9645	   -172.0970
	66.000000000	      0.9498	   -172.8500	      0.2090	    -84.4050	      0.2072	    -84.8270	      0.9612	   -172.7660
	66.500000000	      0.9468	   -173.0800	      0.2062	    -85.2690	      0.2050	    -85.2920	      0.9611	   -172.7550
	67.000000000	      0.9441	   -173.5190	      0.2027	    -84.9570	      0.2027	    -85.2220	      0.9544	   -173.1480
	67.500000000	      0.9407	   -174.5910	      0.1999	    -85.3930	      0.1994	    -85.3030	      0.9510	   -173.4960
	68.000000000	      0.9367	   -174.7780	      0.1975	    -85.7300	      0.1973	    -85.3940	      0.9454	   -173.8510
	68.500000000	      0.9331	   -175.0140	      0.1964	    -85.7570	      0.1954	    -85.6940	      0.9455	   -174.0080
	69.000000000	      0.9306	   -175.3730	      0.1935	    -86.1550	      0.1930	    -85.9270	      0.9468	   -174.2250
	69.500000000	      0.9316	   -175.7510	      0.1907	    -86.4200	      0.1905	    -86.2360	      0.9450	   -174.4320
	70.000000000	      0.9343	   -176.0990	      0.1885	    -86.5280	      0.1881	    -86.3190	      0.9437	   -174.5070
	70.500000000	      0.9373	   -176.4800	      0.1867	    -86.5370	      0.1859	    -86.3240	      0.9444	   -174.6210
	71.000000000	      0.9400	   -176.9060	      0.1848	    -86.5660	      0.1837	    -86.4030	      0.9461	   -174.7450
	71.500000000	      0.9446	   -177.4360	      0.1833	    -86.6320	      0.1826	    -86.6400	      0.9503	   -174.9930
	72.000000000	      0.9436	   -177.9820	      0.1820	    -86.8810	      0.1816	    -86.9360	      0.9481	   -175.2920
	72.500000000	      0.9397	   -178.4480	      0.1808	    -87.2890	      0.1806	    -87.3350	      0.9479	   -175.6400
	73.000000000	      0.9363	   -178.7090	      0.1794	    -87.8020	      0.1792	    -87.7690	      0.9487	   -175.8500
	73.500000000	      0.9341	   -178.9730	      0.1772	    -88.4380	      0.1769	    -88.4620	      0.9529	   -176.1120
	74.000000000	      0.9308	   -179.3850	      0.1749	    -88.8440	      0.1746	    -88.9080	      0.9504	   -176.6080
	74.500000000	      0.9244	   -179.6160	      0.1727	    -89.3040	      0.1724	    -89.3480	      0.9466	   -176.8220
	75.000000000	      0.9193	   -179.5730	      0.1694	    -89.7870	      0.1693	    -89.8770	      0.9457	   -176.8610
	75.500000000	      0.9175	   -179.4200	      0.1649	    -90.1110	      0.1647	    -90.0820	      0.9465	   -176.9090
	76.000000000	      0.9216	   -179.2540	      0.1606	    -89.4930	      0.1607	    -89.4400	      0.9490	   -177.0740
	76.500000000	      0.9291	   -179.3190	      0.1585	    -88.4800	      0.1585	    -88.4380	      0.9520	   -177.2580
	77.000000000	      0.9343	   -179.7990	      0.1585	    -87.9340	      0.1582	    -87.7170	      0.9554	   -177.6340
	77.500000000	      0.9389	    179.5780	      0.1587	    -87.5660	      0.1585	    -87.4100	      0.9586	   -177.9930
	78.000000000	      0.9429	    179.0250	      0.1588	    -87.4780	      0.1587	    -87.3120	      0.9592	   -178.3390
