!File name = EG0520U_1010_6x60_2SDBCB2EV_1915934D06_RC2943_3.5Vd_27mA.s2p
!Base file name = EG0520U_1010_6x60_2SDBCB2EV_1915934D06_RC2943
!Date = 8/23/2019
!Time = 1:04 PM
!Test duration(min) = 0.15
!Test = S-Parameters
!MPTS version = 8.91.5
!State File = C:\Data\PNA\20190821205423\S-Parameters_2019-08-23.sta
!Cal File = 
!ComputerName = CMPE-LAB-6
!Comments = 
!Attenuation = 0
!Z0 = 50
!Input Power(dBm) = -13.00
!Device ID = EG0520U_1010_6x60_2SDBCB2EV
!Row = 29
!Column = 43
!Technology = QPHT09
!Lot/Wafer = 1915934D06
!Gate Size = 360
!Mask = EG0520
!Cal Standards = GaAs BCB
!Cal Kit = EG2306
!Job Number = 20190821205423
!Device Type = FET
!set_Vg(v) = -1.500
!set_Vd(v) = 3.500
!set_Vd(mA) = 27.000
!file_name = EG0520U_1010_6x60_2SDBCB2EV_1915934D06_RC2943_3.5Vd_27mA.s2p
!Vd(V) = 3.500
!Vd(mA) = 26.916
!Vg(V) = -0.575
!Vg(mA) = -0.004
# GHz   S   DB   R   50
!%	Freq(GHz)	     s11(dB)	    s11(deg)	     s21(dB)	    s21(deg)	     s12(dB)	    s12(deg)	     s22(dB)	    s22(deg)
	0.500000000	      -0.064	     -13.709	      21.023	     171.512	     -38.427	      81.123	      -7.977	     -13.667
	1.000000000	      -0.150	     -27.143	      20.662	     163.290	     -32.625	      74.097	      -8.027	     -26.299
	1.500000000	      -0.187	     -39.917	      20.346	     156.314	     -29.434	      67.096	      -8.027	     -38.542
	2.000000000	      -0.332	     -51.623	      20.090	     149.041	     -27.383	      60.457	      -8.080	     -50.600
	2.500000000	      -0.429	     -62.615	      19.679	     142.748	     -25.968	      54.808	      -8.241	     -60.520
	3.000000000	      -0.816	     -70.077	      19.023	     137.514	     -25.131	      50.436	      -8.617	     -64.618
	3.500000000	      -0.937	     -78.779	      18.511	     132.453	     -24.338	      45.998	      -8.717	     -72.332
	4.000000000	      -1.041	     -86.500	      17.982	     127.932	     -23.726	      42.039	      -8.802	     -79.205
	4.500000000	      -1.161	     -93.369	      17.443	     123.686	     -23.271	      38.448	      -8.876	     -85.564
	5.000000000	      -1.238	     -99.549	      16.916	     119.993	     -22.908	      35.285	      -8.952	     -90.987
	5.500000000	      -1.317	    -105.146	      16.405	     116.525	     -22.626	      32.551	      -9.034	     -95.836
	6.000000000	      -1.386	    -110.177	      15.900	     113.379	     -22.392	      30.039	      -9.066	    -100.075
	6.500000000	      -1.438	    -114.651	      15.413	     110.542	     -22.203	      27.775	      -9.095	    -103.868
	7.000000000	      -1.490	    -118.711	      14.941	     107.856	     -22.050	      25.726	      -9.112	    -107.251
	7.500000000	      -1.526	    -122.393	      14.481	     105.389	     -21.928	      23.852	      -9.119	    -110.292
	8.000000000	      -1.543	    -125.493	      14.058	     103.224	     -21.804	      22.326	      -9.140	    -112.317
	8.500000000	      -1.578	    -128.605	      13.630	     101.070	     -21.716	      20.725	      -9.141	    -114.775
	9.000000000	      -1.611	    -131.395	      13.212	      99.050	     -21.643	      19.180	      -9.128	    -116.954
	9.500000000	      -1.635	    -134.015	      12.820	      97.082	     -21.581	      17.816	      -9.109	    -118.923
	10.000000000	      -1.652	    -136.434	      12.439	      95.247	     -21.545	      16.460	      -9.087	    -120.800
	10.500000000	      -1.674	    -138.699	      12.071	      93.454	     -21.514	      15.277	      -9.065	    -122.471
	11.000000000	      -1.690	    -140.777	      11.716	      91.782	     -21.497	      14.169	      -9.034	    -123.991
	11.500000000	      -1.711	    -142.730	      11.367	      90.165	     -21.483	      13.113	      -9.003	    -125.329
	12.000000000	      -1.727	    -144.552	      11.035	      88.617	     -21.479	      12.155	      -8.960	    -126.562
	12.500000000	      -1.736	    -146.234	      10.711	      87.139	     -21.472	      11.251	      -8.913	    -127.814
	13.000000000	      -1.749	    -147.820	      10.397	      85.678	     -21.477	      10.389	      -8.869	    -128.931
	13.500000000	      -1.758	    -149.316	      10.095	      84.296	     -21.479	       9.535	      -8.810	    -129.853
	14.000000000	      -1.766	    -150.772	       9.801	      82.934	     -21.492	       8.745	      -8.754	    -130.767
	14.500000000	      -1.771	    -152.084	       9.514	      81.608	     -21.510	       8.014	      -8.704	    -131.704
	15.000000000	      -1.777	    -153.272	       9.232	      80.336	     -21.531	       7.343	      -8.656	    -132.546
	15.500000000	      -1.784	    -154.450	       8.960	      79.073	     -21.556	       6.770	      -8.599	    -133.248
	16.000000000	      -1.789	    -155.601	       8.695	      77.848	     -21.563	       6.121	      -8.530	    -133.927
	16.500000000	      -1.794	    -156.719	       8.436	      76.636	     -21.586	       5.481	      -8.469	    -134.548
	17.000000000	      -1.795	    -157.758	       8.186	      75.465	     -21.622	       4.867	      -8.411	    -135.192
	17.500000000	      -1.803	    -158.699	       7.937	      74.312	     -21.646	       4.393	      -8.342	    -135.851
	18.000000000	      -1.814	    -159.630	       7.699	      73.188	     -21.682	       3.813	      -8.275	    -136.481
	18.500000000	      -1.814	    -160.543	       7.466	      72.080	     -21.696	       3.246	      -8.199	    -137.015
	19.000000000	      -1.813	    -161.415	       7.235	      70.979	     -21.744	       2.680	      -8.130	    -137.555
	19.500000000	      -1.812	    -162.236	       7.012	      69.918	     -21.808	       2.183	      -8.073	    -138.060
	20.000000000	      -1.819	    -163.007	       6.794	      68.884	     -21.870	       1.995	      -8.014	    -138.496
	20.500000000	      -1.820	    -163.745	       6.587	      67.838	     -21.888	       1.773	      -7.936	    -138.913
	21.000000000	      -1.818	    -164.496	       6.378	      66.802	     -21.893	       1.364	      -7.855	    -139.392
	21.500000000	      -1.812	    -165.234	       6.172	      65.769	     -21.938	       0.926	      -7.782	    -139.815
	22.000000000	      -1.811	    -165.846	       5.970	      64.779	     -21.977	       0.490	      -7.706	    -140.233
	22.500000000	      -1.809	    -166.487	       5.771	      63.768	     -22.009	      -0.014	      -7.638	    -140.695
	23.000000000	      -1.811	    -167.148	       5.572	      62.789	     -22.069	      -0.535	      -7.567	    -141.218
	23.500000000	      -1.812	    -167.745	       5.380	      61.875	     -22.173	      -0.799	      -7.505	    -141.710
	24.000000000	      -1.811	    -168.345	       5.199	      60.961	     -22.246	      -0.756	      -7.440	    -142.028
	24.500000000	      -1.801	    -168.819	       5.021	      60.013	     -22.259	      -0.832	      -7.368	    -142.279
	25.000000000	      -1.782	    -169.315	       4.844	      59.022	     -22.244	      -1.109	      -7.290	    -142.580
	25.500000000	      -1.775	    -169.932	       4.666	      58.090	     -22.299	      -1.463	      -7.208	    -142.994
	26.000000000	      -1.777	    -170.546	       4.486	      57.173	     -22.338	      -1.993	      -7.126	    -143.436
	26.500000000	      -1.777	    -171.049	       4.314	      56.263	     -22.396	      -2.288	      -7.046	    -143.813
	27.000000000	      -1.769	    -171.451	       4.144	      55.381	     -22.462	      -2.640	      -6.977	    -144.136
	27.500000000	      -1.764	    -171.830	       3.985	      54.558	     -22.572	      -2.541	      -6.916	    -144.446
	28.000000000	      -1.749	    -172.367	       3.833	      53.669	     -22.611	      -2.612	      -6.842	    -144.813
	28.500000000	      -1.737	    -172.892	       3.677	      52.678	     -22.571	      -2.495	      -6.753	    -145.205
	29.000000000	      -1.730	    -173.326	       3.513	      51.767	     -22.614	      -3.009	      -6.679	    -145.647
	29.500000000	      -1.724	    -173.720	       3.353	      50.899	     -22.673	      -3.246	      -6.604	    -146.015
	30.000000000	      -1.715	    -174.184	       3.198	      50.071	     -22.792	      -3.482	      -6.543	    -146.338
	30.500000000	      -1.710	    -174.644	       3.046	      49.194	     -22.805	      -3.815	      -6.476	    -146.688
	31.000000000	      -1.696	    -175.097	       2.895	      48.352	     -22.884	      -3.998	      -6.419	    -147.079
	31.500000000	      -1.683	    -175.540	       2.753	      47.541	     -22.980	      -3.879	      -6.357	    -147.401
	32.000000000	      -1.680	    -175.940	       2.605	      46.648	     -23.004	      -3.934	      -6.283	    -147.708
	32.500000000	      -1.689	    -176.327	       2.460	      45.762	     -23.023	      -4.110	      -6.203	    -147.960
	33.000000000	      -1.687	    -176.760	       2.316	      44.953	     -23.068	      -4.207	      -6.135	    -148.311
	33.500000000	      -1.671	    -177.162	       2.168	      44.132	     -23.153	      -4.280	      -6.070	    -148.676
	34.000000000	      -1.657	    -177.509	       2.025	      43.307	     -23.214	      -4.343	      -5.994	    -149.172
	34.500000000	      -1.653	    -177.935	       1.875	      42.425	     -23.243	      -4.776	      -5.916	    -149.482
	35.000000000	      -1.653	    -178.336	       1.733	      41.621	     -23.331	      -4.756	      -5.854	    -149.902
	35.500000000	      -1.647	    -178.735	       1.605	      40.840	     -23.403	      -4.668	      -5.796	    -150.132
	36.000000000	      -1.639	    -179.087	       1.471	      40.000	     -23.382	      -4.423	      -5.726	    -150.500
	36.500000000	      -1.629	    -179.389	       1.330	      39.182	     -23.403	      -4.727	      -5.654	    -150.876
	37.000000000	      -1.628	    -179.640	       1.194	      38.410	     -23.478	      -5.069	      -5.589	    -151.237
	37.500000000	      -1.625	     179.959	       1.056	      37.625	     -23.525	      -5.412	      -5.541	    -151.566
	38.000000000	      -1.625	     179.609	       0.921	      36.880	     -23.612	      -5.470	      -5.474	    -151.916
	38.500000000	      -1.612	     179.205	       0.783	      36.107	     -23.704	      -5.500	      -5.407	    -152.320
	39.000000000	      -1.608	     178.909	       0.652	      35.412	     -23.804	      -5.722	      -5.355	    -152.694
	39.500000000	      -1.617	     178.623	       0.521	      34.708	     -23.889	      -5.736	      -5.287	    -153.053
	40.000000000	      -1.623	     178.288	       0.405	      34.015	     -23.900	      -5.146	      -5.217	    -153.335
	40.500000000	      -1.617	     177.940	       0.281	      33.273	     -23.982	      -5.166	      -5.139	    -153.680
	41.000000000	      -1.603	     177.644	       0.161	      32.500	     -23.997	      -4.973	      -5.086	    -154.137
	41.500000000	      -1.593	     177.465	       0.043	      31.787	     -23.976	      -5.569	      -5.034	    -154.374
	42.000000000	      -1.595	     177.193	      -0.078	      31.039	     -24.097	      -5.752	      -4.971	    -154.722
	42.500000000	      -1.606	     176.811	      -0.208	      30.348	     -24.191	      -5.736	      -4.908	    -154.869
	43.000000000	      -1.608	     176.614	      -0.315	      29.727	     -24.300	      -5.231	      -4.845	    -155.240
	43.500000000	      -1.590	     176.377	      -0.427	      28.907	     -24.257	      -5.204	      -4.789	    -155.687
	44.000000000	      -1.590	     176.129	      -0.548	      28.226	     -24.290	      -4.746	      -4.733	    -156.094
	44.500000000	      -1.596	     175.766	      -0.669	      27.421	     -24.265	      -4.834	      -4.658	    -156.466
	45.000000000	      -1.602	     175.487	      -0.786	      26.723	     -24.325	      -5.864	      -4.601	    -156.813
	45.500000000	      -1.555	     175.079	      -1.067	      26.119	     -24.622	      -5.559	      -4.473	    -157.758
	46.000000000	      -1.536	     174.861	      -1.194	      25.447	     -24.692	      -6.220	      -4.422	    -158.145
	46.500000000	      -1.521	     174.464	      -1.307	      24.838	     -24.792	      -5.227	      -4.351	    -158.371
	47.000000000	      -1.521	     174.138	      -1.403	      24.160	     -24.899	      -5.063	      -4.284	    -158.622
	47.500000000	      -1.517	     173.893	      -1.520	      23.429	     -24.887	      -4.025	      -4.239	    -158.894
	48.000000000	      -1.497	     173.612	      -1.639	      22.761	     -24.906	      -4.406	      -4.200	    -159.240
	48.500000000	      -1.497	     173.337	      -1.750	      22.072	     -24.873	      -4.563	      -4.135	    -159.551
	49.000000000	      -1.504	     173.123	      -1.873	      21.426	     -24.949	      -5.081	      -4.083	    -159.863
	49.500000000	      -1.515	     172.866	      -1.983	      20.889	     -25.078	      -4.864	      -4.017	    -160.285
	50.000000000	      -1.491	     172.620	      -2.096	      20.297	     -25.156	      -4.813	      -3.967	    -160.573
	50.500000000	      -1.483	     172.373	      -2.197	      19.624	     -25.164	      -4.220	      -3.963	    -161.068
	51.000000000	      -1.475	     172.065	      -2.305	      19.011	     -25.307	      -3.576	      -3.934	    -161.512
	51.500000000	      -1.472	     171.944	      -2.410	      18.335	     -25.145	      -3.274	      -3.858	    -161.784
	52.000000000	      -1.447	     171.686	      -2.522	      17.727	     -25.246	      -3.926	      -3.827	    -162.117
	52.500000000	      -1.447	     171.369	      -2.622	      17.126	     -25.230	      -4.011	      -3.795	    -162.230
	53.000000000	      -1.448	     171.032	      -2.735	      16.463	     -25.395	      -4.191	      -3.750	    -162.416
	53.500000000	      -1.440	     170.866	      -2.835	      15.977	     -25.506	      -3.957	      -3.689	    -162.734
	54.000000000	      -1.425	     170.620	      -2.924	      15.355	     -25.408	      -3.564	      -3.633	    -163.048
	54.500000000	      -1.429	     170.236	      -3.027	      14.770	     -25.554	      -3.744	      -3.573	    -163.320
	55.000000000	      -1.440	     169.894	      -3.111	      14.095	     -25.415	      -3.038	      -3.536	    -163.535
	55.500000000	      -1.428	     169.611	      -3.200	      13.478	     -25.363	      -3.474	      -3.494	    -163.944
	56.000000000	      -1.414	     169.352	      -3.286	      12.880	     -25.417	      -3.084	      -3.453	    -164.472
	56.500000000	      -1.413	     169.195	      -3.399	      12.285	     -25.361	      -3.837	      -3.427	    -165.016
	57.000000000	      -1.418	     169.041	      -3.512	      11.492	     -25.629	      -4.175	      -3.413	    -165.109
	57.500000000	      -1.421	     168.818	      -3.599	      10.946	     -25.837	      -4.139	      -3.369	    -165.515
	58.000000000	      -1.393	     168.788	      -3.714	      10.319	     -25.897	      -4.874	      -3.335	    -165.751
	58.500000000	      -1.375	     168.450	      -3.795	       9.829	     -25.833	      -4.200	      -3.294	    -166.025
	59.000000000	      -1.365	     168.140	      -3.867	       9.145	     -25.812	      -2.410	      -3.235	    -166.377
	59.500000000	      -1.363	     168.042	      -3.953	       8.368	     -25.874	      -3.465	      -3.198	    -166.603
	60.000000000	      -1.359	     167.789	      -4.071	       7.723	     -25.995	      -3.880	      -3.204	    -166.912
	60.500000000	      -1.341	     167.582	      -4.167	       7.077	     -26.117	      -5.774	      -3.196	    -166.962
	61.000000000	      -1.300	     167.215	      -4.266	       6.649	     -26.284	      -2.677	      -3.144	    -167.333
	61.500000000	      -1.299	     166.960	      -4.376	       6.105	     -26.089	      -1.970	      -3.132	    -167.532
	62.000000000	      -1.290	     166.673	      -4.443	       5.501	     -26.234	      -3.164	      -3.092	    -167.692
	62.500000000	      -1.299	     166.421	      -4.535	       4.877	     -26.279	      -2.594	      -3.085	    -167.925
	63.000000000	      -1.285	     165.941	      -4.606	       4.089	     -25.904	      -1.607	      -3.026	    -167.875
	63.500000000	      -1.271	     165.809	      -4.683	       3.429	     -26.092	      -1.198	      -2.968	    -168.258
	64.000000000	      -1.270	     165.862	      -4.772	       2.524	     -26.125	      -0.509	      -2.925	    -168.389
	64.500000000	      -1.241	     165.559	      -4.844	       1.962	     -26.138	      -2.022	      -2.873	    -168.139
	65.000000000	      -1.262	     165.195	      -4.965	       1.066	     -25.840	       0.531	      -2.784	    -168.525
	65.500000000	      -1.236	     164.903	      -5.113	       0.424	     -26.620	      -3.726	      -2.790	    -169.344
	66.000000000	      -1.239	     164.550	      -5.210	      -0.431	     -26.479	      -2.699	      -2.765	    -169.774
	66.500000000	      -1.261	     164.414	      -5.320	      -1.070	     -26.095	      -0.406	      -2.747	    -169.703
	67.000000000	      -1.290	     164.046	      -5.433	      -1.681	     -25.901	      -2.810	      -2.740	    -169.948
	67.500000000	      -1.292	     163.434	      -5.569	      -2.644	     -26.180	      -2.319	      -2.703	    -170.322
	68.000000000	      -1.325	     163.280	      -5.678	      -3.176	     -26.175	      -2.049	      -2.727	    -170.613
	68.500000000	      -1.358	     163.073	      -5.778	      -3.731	     -26.168	      -2.469	      -2.687	    -170.739
	69.000000000	      -1.384	     162.887	      -5.912	      -4.281	     -26.188	      -2.912	      -2.625	    -170.959
	69.500000000	      -1.380	     162.695	      -6.035	      -4.662	     -26.320	      -2.974	      -2.618	    -171.142
	70.000000000	      -1.358	     162.514	      -6.134	      -5.120	     -26.377	      -2.407	      -2.591	    -171.266
	70.500000000	      -1.341	     162.354	      -6.230	      -5.531	     -26.328	      -2.098	      -2.549	    -171.415
	71.000000000	      -1.339	     162.107	      -6.317	      -5.952	     -26.319	      -2.124	      -2.511	    -171.608
	71.500000000	      -1.306	     161.913	      -6.430	      -6.349	     -26.276	      -2.492	      -2.455	    -171.800
	72.000000000	      -1.300	     161.685	      -6.523	      -6.943	     -26.269	      -2.885	      -2.458	    -172.053
	72.500000000	      -1.304	     161.335	      -6.619	      -7.537	     -26.303	      -3.551	      -2.435	    -172.366
	73.000000000	      -1.323	     161.116	      -6.715	      -8.132	     -26.427	      -3.947	      -2.393	    -172.545
	73.500000000	      -1.343	     161.034	      -6.826	      -8.736	     -26.565	      -4.151	      -2.323	    -172.802
	74.000000000	      -1.345	     160.776	      -6.924	      -9.163	     -26.618	      -3.721	      -2.318	    -173.373
	74.500000000	      -1.372	     160.570	      -7.015	      -9.657	     -26.665	      -3.674	      -2.333	    -173.609
	75.000000000	      -1.401	     160.493	      -7.116	     -10.215	     -26.720	      -3.723	      -2.311	    -173.811
	75.500000000	      -1.421	     160.483	      -7.232	     -10.852	     -26.849	      -4.126	      -2.305	    -173.946
	76.000000000	      -1.422	     160.523	      -7.361	     -11.414	     -27.132	      -3.766	      -2.307	    -174.098
	76.500000000	      -1.414	     160.573	      -7.518	     -11.743	     -27.497	      -1.669	      -2.308	    -174.111
	77.000000000	      -1.403	     160.577	      -7.655	     -11.842	     -27.567	       2.222	      -2.269	    -173.987
	77.500000000	      -1.333	     160.588	      -7.730	     -11.575	     -27.158	       6.011	      -2.195	    -174.045
	78.000000000	      -1.245	     160.334	      -7.750	     -11.543	     -26.573	       7.163	      -2.147	    -174.101
	78.500000000	      -1.189	     159.914	      -7.769	     -11.923	     -26.132	       6.742	      -2.106	    -174.454
	79.000000000	      -1.193	     159.357	      -7.813	     -12.499	     -25.807	       5.357	      -2.049	    -174.766
	79.500000000	      -1.189	     158.791	      -7.832	     -13.173	     -25.517	       3.964	      -2.018	    -175.002
