!File name = EG0520U_1010_6x60_2SDBCB2EV_1915934D06_RC4034_4Vd_27mA.s2p
!Base file name = EG0520U_1010_6x60_2SDBCB2EV_1915934D06_RC4034
!Date = 8/23/2019
!Time = 12:59 PM
!Test duration(min) = 0.15
!Test = S-Parameters
!MPTS version = 8.91.5
!State File = C:\Data\PNA\20190821205423\S-Parameters_2019-08-23.sta
!Cal File = 
!ComputerName = CMPE-LAB-6
!Comments = 
!Attenuation = 0
!Z0 = 50
!Input Power(dBm) = -13.00
!Device ID = EG0520U_1010_6x60_2SDBCB2EV
!Row = 40
!Column = 34
!Technology = QPHT09
!Lot/Wafer = 1915934D06
!Gate Size = 360
!Mask = EG0520
!Cal Standards = GaAs BCB
!Cal Kit = EG2306
!Job Number = 20190821205423
!Device Type = FET
!set_Vg(v) = -1.500
!set_Vd(v) = 4.000
!set_Vd(mA) = 27.000
!file_name = EG0520U_1010_6x60_2SDBCB2EV_1915934D06_RC4034_4Vd_27mA.s2p
!Vd(V) = 4.000
!Vd(mA) = 27.066
!Vg(V) = -0.601
!Vg(mA) = -0.008
# GHz   S   DB   R   50
!%	Freq(GHz)	     s11(dB)	    s11(deg)	     s21(dB)	    s21(deg)	     s12(dB)	    s12(deg)	     s22(dB)	    s22(deg)
	0.500000000	      -0.097	     -13.701	      21.000	     171.472	     -38.513	      80.481	      -7.592	     -13.039
	1.000000000	      -0.181	     -27.114	      20.641	     163.321	     -32.714	      73.865	      -7.673	     -25.016
	1.500000000	      -0.218	     -39.872	      20.320	     156.293	     -29.517	      67.012	      -7.718	     -36.676
	2.000000000	      -0.353	     -51.536	      20.062	     149.083	     -27.457	      60.478	      -7.822	     -48.162
	2.500000000	      -0.449	     -62.522	      19.650	     142.783	     -26.035	      54.857	      -8.019	     -57.701
	3.000000000	      -0.831	     -69.938	      18.987	     137.540	     -25.198	      50.482	      -8.406	     -61.604
	3.500000000	      -0.948	     -78.638	      18.478	     132.482	     -24.404	      46.076	      -8.552	     -69.073
	4.000000000	      -1.051	     -86.345	      17.950	     127.946	     -23.794	      42.160	      -8.681	     -75.746
	4.500000000	      -1.166	     -93.212	      17.412	     123.702	     -23.333	      38.538	      -8.800	     -81.933
	5.000000000	      -1.243	     -99.390	      16.887	     120.000	     -22.967	      35.466	      -8.912	     -87.243
	5.500000000	      -1.319	    -104.959	      16.375	     116.530	     -22.682	      32.688	      -9.021	     -92.007
	6.000000000	      -1.385	    -109.989	      15.872	     113.378	     -22.444	      30.179	      -9.082	     -96.187
	6.500000000	      -1.438	    -114.457	      15.385	     110.529	     -22.252	      27.909	      -9.137	     -99.936
	7.000000000	      -1.487	    -118.517	      14.914	     107.840	     -22.102	      25.869	      -9.173	    -103.266
	7.500000000	      -1.523	    -122.183	      14.455	     105.370	     -21.978	      24.032	      -9.198	    -106.305
	8.000000000	      -1.538	    -125.289	      14.032	     103.193	     -21.849	      22.495	      -9.226	    -108.326
	8.500000000	      -1.571	    -128.400	      13.605	     101.028	     -21.761	      20.891	      -9.241	    -110.774
	9.000000000	      -1.604	    -131.196	      13.187	      98.992	     -21.690	      19.371	      -9.240	    -112.946
	9.500000000	      -1.627	    -133.808	      12.796	      97.022	     -21.631	      17.972	      -9.231	    -114.911
	10.000000000	      -1.644	    -136.226	      12.415	      95.175	     -21.592	      16.624	      -9.217	    -116.787
	10.500000000	      -1.667	    -138.483	      12.046	      93.379	     -21.567	      15.463	      -9.200	    -118.442
	11.000000000	      -1.680	    -140.543	      11.692	      91.713	     -21.539	      14.396	      -9.177	    -119.904
	11.500000000	      -1.700	    -142.499	      11.343	      90.076	     -21.525	      13.318	      -9.145	    -121.269
	12.000000000	      -1.715	    -144.312	      11.013	      88.532	     -21.520	      12.374	      -9.103	    -122.498
	12.500000000	      -1.723	    -146.004	      10.690	      87.037	     -21.512	      11.456	      -9.055	    -123.768
	13.000000000	      -1.732	    -147.585	      10.378	      85.559	     -21.508	      10.600	      -9.009	    -124.894
	13.500000000	      -1.740	    -149.104	      10.076	      84.166	     -21.514	       9.698	      -8.953	    -125.838
	14.000000000	      -1.752	    -150.557	       9.779	      82.789	     -21.534	       8.960	      -8.898	    -126.755
	14.500000000	      -1.757	    -151.858	       9.494	      81.462	     -21.546	       8.232	      -8.845	    -127.683
	15.000000000	      -1.762	    -153.036	       9.213	      80.180	     -21.565	       7.603	      -8.794	    -128.514
	15.500000000	      -1.766	    -154.210	       8.942	      78.910	     -21.578	       6.956	      -8.733	    -129.250
	16.000000000	      -1.771	    -155.379	       8.678	      77.666	     -21.585	       6.290	      -8.663	    -129.938
	16.500000000	      -1.775	    -156.491	       8.419	      76.445	     -21.611	       5.665	      -8.596	    -130.605
	17.000000000	      -1.776	    -157.536	       8.171	      75.260	     -21.648	       5.041	      -8.538	    -131.203
	17.500000000	      -1.784	    -158.484	       7.921	      74.093	     -21.672	       4.515	      -8.466	    -131.895
	18.000000000	      -1.791	    -159.418	       7.684	      72.958	     -21.709	       3.935	      -8.399	    -132.543
	18.500000000	      -1.792	    -160.322	       7.451	      71.848	     -21.730	       3.402	      -8.320	    -133.086
	19.000000000	      -1.790	    -161.194	       7.221	      70.740	     -21.770	       2.855	      -8.246	    -133.605
	19.500000000	      -1.787	    -162.018	       7.000	      69.663	     -21.825	       2.370	      -8.182	    -134.116
	20.000000000	      -1.793	    -162.813	       6.782	      68.607	     -21.895	       2.047	      -8.123	    -134.585
	20.500000000	      -1.797	    -163.555	       6.572	      67.559	     -21.931	       1.907	      -8.045	    -135.005
	21.000000000	      -1.795	    -164.263	       6.365	      66.518	     -21.948	       1.604	      -7.961	    -135.482
	21.500000000	      -1.786	    -165.026	       6.161	      65.470	     -21.975	       1.195	      -7.879	    -135.894
	22.000000000	      -1.779	    -165.665	       5.961	      64.456	     -21.998	       0.700	      -7.798	    -136.330
	22.500000000	      -1.776	    -166.345	       5.761	      63.422	     -22.024	       0.223	      -7.730	    -136.792
	23.000000000	      -1.776	    -167.010	       5.564	      62.427	     -22.076	      -0.252	      -7.654	    -137.325
	23.500000000	      -1.776	    -167.672	       5.371	      61.467	     -22.168	      -0.765	      -7.587	    -137.876
	24.000000000	      -1.782	    -168.306	       5.182	      60.541	     -22.270	      -0.817	      -7.529	    -138.203
	24.500000000	      -1.774	    -168.777	       5.005	      59.602	     -22.285	      -0.725	      -7.451	    -138.410
	25.000000000	      -1.762	    -169.300	       4.827	      58.602	     -22.279	      -1.023	      -7.363	    -138.712
	25.500000000	      -1.762	    -169.868	       4.646	      57.675	     -22.321	      -1.317	      -7.281	    -139.154
	26.000000000	      -1.763	    -170.497	       4.468	      56.749	     -22.378	      -1.832	      -7.190	    -139.628
	26.500000000	      -1.760	    -171.011	       4.296	      55.822	     -22.421	      -2.029	      -7.108	    -140.052
	27.000000000	      -1.754	    -171.431	       4.125	      54.923	     -22.498	      -2.666	      -7.042	    -140.425
	27.500000000	      -1.754	    -171.836	       3.959	      54.113	     -22.642	      -2.658	      -6.988	    -140.601
	28.000000000	      -1.756	    -172.354	       3.803	      53.254	     -22.720	      -2.335	      -6.910	    -141.003
	28.500000000	      -1.732	    -172.830	       3.658	      52.281	     -22.681	      -2.212	      -6.808	    -141.397
	29.000000000	      -1.722	    -173.321	       3.491	      51.302	     -22.685	      -2.663	      -6.732	    -141.879
	29.500000000	      -1.721	    -173.802	       3.328	      50.430	     -22.748	      -3.137	      -6.661	    -142.246
	30.000000000	      -1.722	    -174.188	       3.170	      49.633	     -22.830	      -3.379	      -6.595	    -142.557
	30.500000000	      -1.719	    -174.638	       3.019	      48.769	     -22.878	      -3.728	      -6.525	    -142.935
	31.000000000	      -1.707	    -175.079	       2.868	      47.938	     -22.935	      -3.672	      -6.456	    -143.319
	31.500000000	      -1.695	    -175.457	       2.732	      47.127	     -23.059	      -3.282	      -6.387	    -143.672
	32.000000000	      -1.688	    -175.798	       2.591	      46.236	     -23.046	      -3.206	      -6.311	    -143.954
	32.500000000	      -1.694	    -176.290	       2.442	      45.303	     -23.040	      -3.616	      -6.229	    -144.269
	33.000000000	      -1.689	    -176.728	       2.298	      44.477	     -23.081	      -3.592	      -6.160	    -144.670
	33.500000000	      -1.677	    -177.114	       2.148	      43.669	     -23.159	      -4.241	      -6.095	    -145.046
	34.000000000	      -1.669	    -177.495	       2.001	      42.837	     -23.220	      -4.430	      -6.025	    -145.534
	34.500000000	      -1.671	    -177.897	       1.851	      41.978	     -23.273	      -4.722	      -5.941	    -145.833
	35.000000000	      -1.674	    -178.245	       1.709	      41.243	     -23.385	      -4.641	      -5.882	    -146.307
	35.500000000	      -1.665	    -178.606	       1.589	      40.453	     -23.432	      -4.123	      -5.824	    -146.548
	36.000000000	      -1.659	    -178.947	       1.456	      39.587	     -23.418	      -4.110	      -5.745	    -146.892
	36.500000000	      -1.649	    -179.223	       1.323	      38.762	     -23.427	      -4.472	      -5.666	    -147.269
	37.000000000	      -1.649	    -179.526	       1.188	      37.989	     -23.468	      -4.709	      -5.601	    -147.658
	37.500000000	      -1.648	    -179.866	       1.051	      37.210	     -23.585	      -5.363	      -5.550	    -148.032
	38.000000000	      -1.640	     179.801	       0.923	      36.455	     -23.667	      -4.946	      -5.484	    -148.324
	38.500000000	      -1.629	     179.456	       0.784	      35.694	     -23.739	      -5.451	      -5.415	    -148.835
	39.000000000	      -1.621	     179.174	       0.660	      34.979	     -23.853	      -4.637	      -5.352	    -149.197
	39.500000000	      -1.619	     178.973	       0.543	      34.287	     -23.896	      -4.638	      -5.290	    -149.587
	40.000000000	      -1.600	     178.581	       0.435	      33.450	     -23.855	      -4.633	      -5.220	    -149.980
	40.500000000	      -1.592	     178.156	       0.306	      32.630	     -23.951	      -4.874	      -5.151	    -150.286
	41.000000000	      -1.579	     177.791	       0.176	      31.829	     -23.999	      -5.190	      -5.095	    -150.767
	41.500000000	      -1.579	     177.579	       0.057	      31.099	     -24.068	      -5.424	      -5.052	    -151.021
	42.000000000	      -1.572	     177.288	      -0.064	      30.372	     -24.117	      -5.338	      -4.983	    -151.283
	42.500000000	      -1.583	     176.927	      -0.191	      29.672	     -24.243	      -5.432	      -4.917	    -151.435
	43.000000000	      -1.578	     176.655	      -0.293	      28.976	     -24.367	      -5.296	      -4.850	    -151.805
	43.500000000	      -1.562	     176.418	      -0.414	      28.133	     -24.343	      -4.654	      -4.790	    -152.285
	44.000000000	      -1.567	     176.104	      -0.534	      27.372	     -24.410	      -4.301	      -4.717	    -152.748
	44.500000000	      -1.578	     175.690	      -0.663	      26.665	     -24.250	      -4.392	      -4.660	    -153.118
	45.000000000	      -1.587	     175.398	      -0.781	      25.907	     -24.355	      -5.287	      -4.599	    -153.506
	45.500000000	      -1.543	     175.004	      -1.062	      25.303	     -24.595	      -5.005	      -4.474	    -154.610
	46.000000000	      -1.522	     174.803	      -1.185	      24.639	     -24.782	      -5.411	      -4.421	    -154.991
	46.500000000	      -1.508	     174.445	      -1.289	      24.032	     -24.877	      -5.175	      -4.345	    -155.184
	47.000000000	      -1.509	     174.127	      -1.398	      23.283	     -24.916	      -3.603	      -4.277	    -155.532
	47.500000000	      -1.503	     173.791	      -1.510	      22.622	     -24.972	      -4.315	      -4.241	    -155.782
	48.000000000	      -1.484	     173.520	      -1.628	      21.855	     -24.862	      -4.307	      -4.201	    -156.085
	48.500000000	      -1.488	     173.154	      -1.742	      21.168	     -25.005	      -4.606	      -4.141	    -156.476
	49.000000000	      -1.495	     172.954	      -1.860	      20.520	     -25.027	      -4.890	      -4.068	    -156.792
	49.500000000	      -1.504	     172.744	      -1.964	      19.805	     -25.089	      -4.611	      -4.013	    -157.001
	50.000000000	      -1.477	     172.425	      -2.089	      19.228	     -25.114	      -4.489	      -3.951	    -157.555
	50.500000000	      -1.476	     172.140	      -2.185	      18.684	     -25.075	      -3.959	      -3.949	    -158.087
	51.000000000	      -1.457	     171.821	      -2.303	      18.027	     -25.276	      -3.225	      -3.915	    -158.522
	51.500000000	      -1.461	     171.715	      -2.410	      17.357	     -25.169	      -3.431	      -3.865	    -158.862
	52.000000000	      -1.442	     171.474	      -2.517	      16.615	     -25.177	      -3.233	      -3.825	    -159.191
	52.500000000	      -1.439	     171.157	      -2.625	      16.018	     -25.268	      -3.376	      -3.798	    -159.249
	53.000000000	      -1.435	     170.805	      -2.732	      15.384	     -25.394	      -3.479	      -3.762	    -159.502
	53.500000000	      -1.428	     170.664	      -2.827	      14.862	     -25.468	      -3.473	      -3.684	    -159.833
	54.000000000	      -1.420	     170.420	      -2.922	      14.293	     -25.384	      -3.935	      -3.632	    -160.147
	54.500000000	      -1.409	     169.983	      -3.022	      13.660	     -25.487	      -2.690	      -3.585	    -160.395
	55.000000000	      -1.425	     169.579	      -3.104	      12.942	     -25.484	      -3.152	      -3.532	    -160.624
	55.500000000	      -1.413	     169.334	      -3.198	      12.285	     -25.402	      -3.742	      -3.490	    -160.956
	56.000000000	      -1.401	     169.073	      -3.277	      11.660	     -25.412	      -4.731	      -3.453	    -161.488
	56.500000000	      -1.418	     168.862	      -3.415	      10.877	     -25.709	      -3.827	      -3.415	    -162.141
	57.000000000	      -1.404	     168.654	      -3.508	      10.237	     -25.572	      -4.462	      -3.395	    -162.229
	57.500000000	      -1.407	     168.415	      -3.627	       9.693	     -25.840	      -4.681	      -3.339	    -162.460
	58.000000000	      -1.381	     168.291	      -3.692	       8.966	     -25.820	      -3.509	      -3.305	    -162.922
	58.500000000	      -1.375	     168.052	      -3.790	       8.393	     -25.669	      -3.387	      -3.273	    -163.182
	59.000000000	      -1.371	     167.609	      -3.873	       7.821	     -25.982	      -2.102	      -3.215	    -163.537
	59.500000000	      -1.373	     167.572	      -3.970	       7.117	     -25.827	      -4.052	      -3.164	    -163.763
	60.000000000	      -1.367	     167.266	      -4.052	       6.505	     -25.713	      -2.384	      -3.165	    -164.102
	60.500000000	      -1.341	     167.137	      -4.166	       5.805	     -26.012	      -3.099	      -3.159	    -164.268
	61.000000000	      -1.317	     166.737	      -4.283	       5.235	     -26.193	      -3.109	      -3.106	    -164.683
	61.500000000	      -1.310	     166.511	      -4.374	       4.735	     -26.112	      -1.305	      -3.084	    -164.842
	62.000000000	      -1.278	     166.219	      -4.426	       4.006	     -26.368	      -2.433	      -3.047	    -164.907
	62.500000000	      -1.298	     165.876	      -4.516	       3.504	     -26.275	      -1.635	      -3.046	    -165.047
	63.000000000	      -1.287	     165.462	      -4.591	       2.822	     -26.070	      -0.897	      -2.987	    -165.095
	63.500000000	      -1.278	     165.257	      -4.685	       2.024	     -26.034	      -1.940	      -2.935	    -165.562
	64.000000000	      -1.271	     165.262	      -4.757	       1.182	     -25.864	      -0.405	      -2.861	    -165.618
	64.500000000	      -1.266	     164.991	      -4.850	       0.342	     -25.901	      -1.296	      -2.810	    -165.550
	65.000000000	      -1.271	     164.661	      -4.964	      -0.568	     -26.140	      -1.203	      -2.744	    -166.020
	65.500000000	      -1.271	     164.338	      -5.101	      -1.219	     -26.173	      -1.290	      -2.736	    -166.874
	66.000000000	      -1.265	     163.928	      -5.201	      -2.206	     -25.940	      -0.976	      -2.726	    -167.223
	66.500000000	      -1.296	     163.701	      -5.312	      -2.787	     -26.159	      -3.315	      -2.668	    -167.234
	67.000000000	      -1.320	     163.415	      -5.439	      -3.503	     -26.171	      -1.207	      -2.664	    -167.336
	67.500000000	      -1.308	     162.868	      -5.603	      -4.320	     -26.052	      -1.403	      -2.652	    -167.941
	68.000000000	      -1.343	     162.656	      -5.700	      -4.919	     -26.028	      -1.539	      -2.682	    -168.258
	68.500000000	      -1.370	     162.441	      -5.810	      -5.505	     -26.062	      -1.845	      -2.650	    -168.445
	69.000000000	      -1.392	     162.248	      -5.940	      -6.117	     -26.079	      -2.455	      -2.585	    -168.643
	69.500000000	      -1.393	     162.009	      -6.059	      -6.532	     -26.206	      -2.706	      -2.561	    -168.865
	70.000000000	      -1.376	     161.812	      -6.158	      -7.020	     -26.250	      -2.167	      -2.542	    -168.992
	70.500000000	      -1.365	     161.611	      -6.262	      -7.498	     -26.211	      -2.224	      -2.501	    -169.219
	71.000000000	      -1.360	     161.355	      -6.372	      -7.878	     -26.204	      -2.322	      -2.472	    -169.430
	71.500000000	      -1.337	     161.091	      -6.458	      -8.518	     -26.205	      -2.869	      -2.400	    -169.587
	72.000000000	      -1.329	     160.855	      -6.581	      -9.052	     -26.152	      -3.335	      -2.409	    -169.893
	72.500000000	      -1.358	     160.530	      -6.682	      -9.729	     -26.244	      -4.121	      -2.380	    -170.207
	73.000000000	      -1.378	     160.337	      -6.799	     -10.327	     -26.393	      -4.983	      -2.344	    -170.420
	73.500000000	      -1.397	     160.241	      -6.920	     -10.841	     -26.622	      -4.850	      -2.277	    -170.776
	74.000000000	      -1.402	     159.971	      -7.024	     -11.289	     -26.698	      -4.331	      -2.277	    -171.315
	74.500000000	      -1.427	     159.782	      -7.133	     -11.678	     -26.804	      -3.743	      -2.295	    -171.563
	75.000000000	      -1.456	     159.662	      -7.240	     -12.248	     -26.923	      -3.668	      -2.279	    -171.662
	75.500000000	      -1.488	     159.651	      -7.368	     -12.725	     -27.135	      -3.126	      -2.275	    -171.876
	76.000000000	      -1.498	     159.693	      -7.496	     -13.104	     -27.432	      -1.372	      -2.282	    -171.990
	76.500000000	      -1.506	     159.890	      -7.630	     -13.249	     -27.576	       2.491	      -2.267	    -171.922
	77.000000000	      -1.475	     159.915	      -7.718	     -13.278	     -27.244	       6.623	      -2.205	    -171.872
	77.500000000	      -1.404	     159.780	      -7.748	     -13.280	     -26.561	       8.468	      -2.128	    -172.006
	78.000000000	      -1.332	     159.542	      -7.766	     -13.582	     -26.034	       7.980	      -2.086	    -172.120
	78.500000000	      -1.268	     159.050	      -7.801	     -14.125	     -25.673	       6.299	      -2.039	    -172.564
	79.000000000	      -1.269	     158.396	      -7.850	     -14.771	     -25.431	       4.874	      -1.994	    -172.848
	79.500000000	      -1.304	     157.897	      -7.892	     -15.594	     -25.171	       3.304	      -1.945	    -173.058
