!File name = EG0520U_1010_6x60_2SDBCB2EV_1915934D06_RC4034_2.5Vd_18mA.s2p
!Base file name = EG0520U_1010_6x60_2SDBCB2EV_1915934D06_RC4034
!Date = 8/23/2019
!Time = 12:55 PM
!Test duration(min) = 0.15
!Test = S-Parameters
!MPTS version = 8.91.5
!State File = C:\Data\PNA\20190821205423\S-Parameters_2019-08-23.sta
!Cal File = 
!ComputerName = CMPE-LAB-6
!Comments = 
!Attenuation = 0
!Z0 = 50
!Input Power(dBm) = -13.00
!Device ID = EG0520U_1010_6x60_2SDBCB2EV
!Row = 40
!Column = 34
!Technology = QPHT09
!Lot/Wafer = 1915934D06
!Gate Size = 360
!Mask = EG0520
!Cal Standards = GaAs BCB
!Cal Kit = EG2306
!Job Number = 20190821205423
!Device Type = FET
!set_Vg(v) = -1.500
!set_Vd(v) = 2.500
!set_Vd(mA) = 18.000
!file_name = EG0520U_1010_6x60_2SDBCB2EV_1915934D06_RC4034_2.5Vd_18mA.s2p
!Vd(V) = 2.500
!Vd(mA) = 17.848
!Vg(V) = -0.613
!Vg(mA) = -0.003
# GHz   S   DB   R   50
!%	Freq(GHz)	     s11(dB)	    s11(deg)	     s21(dB)	    s21(deg)	     s12(dB)	    s12(deg)	     s22(dB)	    s22(deg)
	0.500000000	      -0.043	     -12.513	      19.618	     172.246	     -37.101	      81.883	      -8.637	     -14.853
	1.000000000	      -0.123	     -24.796	      19.341	     164.199	     -31.271	      75.131	      -8.583	     -28.622
	1.500000000	      -0.163	     -36.543	      19.071	     158.090	     -28.029	      68.412	      -8.412	     -41.832
	2.000000000	      -0.314	     -47.689	      18.840	     150.725	     -25.934	      61.849	      -8.257	     -54.844
	2.500000000	      -0.407	     -58.041	      18.490	     144.809	     -24.486	      56.359	      -8.262	     -65.478
	3.000000000	      -0.805	     -65.311	      17.868	     139.668	     -23.601	      52.081	      -8.548	     -70.138
	3.500000000	      -0.929	     -73.827	      17.430	     134.709	     -22.759	      47.662	      -8.478	     -78.253
	4.000000000	      -1.048	     -81.424	      16.944	     130.329	     -22.110	      43.715	      -8.409	     -85.404
	4.500000000	      -1.191	     -88.255	      16.433	     125.979	     -21.617	      39.977	      -8.339	     -92.080
	5.000000000	      -1.277	     -94.410	      15.946	     122.405	     -21.224	      36.784	      -8.297	     -97.735
	5.500000000	      -1.373	    -100.112	      15.460	     118.908	     -20.921	      33.970	      -8.288	    -102.818
	6.000000000	      -1.457	    -105.268	      14.994	     115.707	     -20.658	      31.359	      -8.237	    -107.144
	6.500000000	      -1.520	    -109.856	      14.529	     112.897	     -20.446	      29.004	      -8.196	    -111.019
	7.000000000	      -1.585	    -114.054	      14.077	     110.155	     -20.273	      26.849	      -8.153	    -114.462
	7.500000000	      -1.633	    -117.834	      13.635	     107.692	     -20.136	      24.885	      -8.110	    -117.586
	8.000000000	      -1.661	    -121.079	      13.227	     105.493	     -19.999	      23.240	      -8.102	    -119.815
	8.500000000	      -1.704	    -124.323	      12.815	     103.322	     -19.901	      21.564	      -8.074	    -122.336
	9.000000000	      -1.747	    -127.211	      12.405	     101.297	     -19.814	      19.963	      -8.038	    -124.559
	9.500000000	      -1.780	    -129.964	      12.025	      99.300	     -19.743	      18.462	      -8.003	    -126.571
	10.000000000	      -1.803	    -132.475	      11.653	      97.476	     -19.692	      17.053	      -7.968	    -128.442
	10.500000000	      -1.834	    -134.852	      11.294	      95.670	     -19.656	      15.824	      -7.934	    -130.184
	11.000000000	      -1.852	    -137.008	      10.947	      94.025	     -19.620	      14.655	      -7.901	    -131.697
	11.500000000	      -1.878	    -139.058	      10.607	      92.400	     -19.597	      13.507	      -7.867	    -133.102
	12.000000000	      -1.895	    -140.963	      10.285	      90.860	     -19.572	      12.479	      -7.828	    -134.380
	12.500000000	      -1.908	    -142.741	       9.969	      89.419	     -19.557	      11.475	      -7.785	    -135.610
	13.000000000	      -1.921	    -144.412	       9.662	      87.948	     -19.549	      10.548	      -7.743	    -136.796
	13.500000000	      -1.933	    -146.018	       9.366	      86.573	     -19.544	       9.555	      -7.698	    -137.767
	14.000000000	      -1.947	    -147.552	       9.077	      85.226	     -19.552	       8.743	      -7.655	    -138.697
	14.500000000	      -1.954	    -148.930	       8.797	      83.922	     -19.553	       7.939	      -7.615	    -139.640
	15.000000000	      -1.961	    -150.173	       8.522	      82.672	     -19.561	       7.204	      -7.578	    -140.494
	15.500000000	      -1.968	    -151.413	       8.256	      81.431	     -19.564	       6.482	      -7.534	    -141.235
	16.000000000	      -1.975	    -152.635	       7.996	      80.213	     -19.570	       5.715	      -7.485	    -141.935
	16.500000000	      -1.982	    -153.810	       7.742	      79.019	     -19.581	       5.009	      -7.439	    -142.571
	17.000000000	      -1.984	    -154.901	       7.498	      77.864	     -19.604	       4.328	      -7.399	    -143.229
	17.500000000	      -1.993	    -155.900	       7.254	      76.730	     -19.621	       3.723	      -7.351	    -143.894
	18.000000000	      -2.001	    -156.877	       7.021	      75.624	     -19.645	       3.052	      -7.303	    -144.517
	18.500000000	      -2.003	    -157.830	       6.792	      74.540	     -19.659	       2.444	      -7.249	    -145.031
	19.000000000	      -2.003	    -158.736	       6.566	      73.467	     -19.689	       1.805	      -7.200	    -145.509
	19.500000000	      -2.000	    -159.628	       6.349	      72.427	     -19.730	       1.252	      -7.156	    -146.065
	20.000000000	      -2.008	    -160.434	       6.135	      71.410	     -19.787	       0.811	      -7.120	    -146.522
	20.500000000	      -2.011	    -161.224	       5.932	      70.400	     -19.810	       0.501	      -7.068	    -146.931
	21.000000000	      -2.009	    -162.000	       5.728	      69.390	     -19.822	       0.068	      -7.012	    -147.386
	21.500000000	      -2.003	    -162.767	       5.527	      68.385	     -19.846	      -0.403	      -6.957	    -147.776
	22.000000000	      -1.995	    -163.435	       5.333	      67.406	     -19.865	      -0.974	      -6.901	    -148.193
	22.500000000	      -1.993	    -164.143	       5.137	      66.410	     -19.885	      -1.502	      -6.853	    -148.612
	23.000000000	      -1.996	    -164.809	       4.944	      65.456	     -19.921	      -2.038	      -6.803	    -149.081
	23.500000000	      -1.994	    -165.527	       4.754	      64.535	     -19.998	      -2.614	      -6.760	    -149.584
	24.000000000	      -2.001	    -166.182	       4.571	      63.644	     -20.070	      -2.843	      -6.726	    -149.893
	24.500000000	      -1.995	    -166.684	       4.399	      62.745	     -20.089	      -2.943	      -6.676	    -150.064
	25.000000000	      -1.981	    -167.286	       4.224	      61.786	     -20.086	      -3.320	      -6.619	    -150.356
	25.500000000	      -1.980	    -167.841	       4.048	      60.886	     -20.116	      -3.820	      -6.563	    -150.720
	26.000000000	      -1.983	    -168.474	       3.874	      59.999	     -20.165	      -4.232	      -6.495	    -151.092
	26.500000000	      -1.981	    -168.999	       3.706	      59.123	     -20.190	      -4.628	      -6.437	    -151.446
	27.000000000	      -1.974	    -169.449	       3.540	      58.262	     -20.240	      -5.178	      -6.388	    -151.812
	27.500000000	      -1.976	    -169.891	       3.378	      57.493	     -20.355	      -5.356	      -6.358	    -151.965
	28.000000000	      -1.975	    -170.411	       3.227	      56.666	     -20.412	      -5.455	      -6.308	    -152.324
	28.500000000	      -1.951	    -170.882	       3.087	      55.742	     -20.375	      -5.353	      -6.235	    -152.577
	29.000000000	      -1.946	    -171.405	       2.924	      54.806	     -20.395	      -5.907	      -6.176	    -152.964
	29.500000000	      -1.942	    -171.902	       2.766	      53.978	     -20.450	      -6.375	      -6.127	    -153.287
	30.000000000	      -1.941	    -172.313	       2.612	      53.203	     -20.488	      -6.715	      -6.081	    -153.534
	30.500000000	      -1.938	    -172.763	       2.465	      52.391	     -20.532	      -7.088	      -6.033	    -153.879
	31.000000000	      -1.931	    -173.214	       2.320	      51.574	     -20.595	      -7.354	      -5.986	    -154.140
	31.500000000	      -1.916	    -173.606	       2.190	      50.803	     -20.686	      -7.405	      -5.944	    -154.413
	32.000000000	      -1.909	    -174.010	       2.050	      49.981	     -20.685	      -7.460	      -5.883	    -154.654
	32.500000000	      -1.911	    -174.473	       1.906	      49.081	     -20.675	      -7.801	      -5.816	    -154.894
	33.000000000	      -1.909	    -174.886	       1.767	      48.307	     -20.715	      -8.176	      -5.771	    -155.206
	33.500000000	      -1.897	    -175.289	       1.624	      47.539	     -20.780	      -8.547	      -5.720	    -155.549
	34.000000000	      -1.888	    -175.692	       1.484	      46.758	     -20.814	      -8.942	      -5.666	    -155.864
	34.500000000	      -1.893	    -176.060	       1.339	      45.914	     -20.870	      -9.285	      -5.607	    -156.129
	35.000000000	      -1.894	    -176.466	       1.203	      45.206	     -20.954	      -9.530	      -5.560	    -156.465
	35.500000000	      -1.883	    -176.806	       1.087	      44.462	     -21.004	      -9.257	      -5.516	    -156.650
	36.000000000	      -1.878	    -177.181	       0.960	      43.667	     -21.019	      -9.440	      -5.457	    -156.943
	36.500000000	      -1.867	    -177.467	       0.830	      42.909	     -21.028	      -9.911	      -5.401	    -157.232
	37.000000000	      -1.865	    -177.761	       0.699	      42.150	     -21.070	     -10.231	      -5.351	    -157.541
	37.500000000	      -1.859	    -178.107	       0.567	      41.423	     -21.146	     -10.555	      -5.311	    -157.821
	38.000000000	      -1.852	    -178.460	       0.443	      40.714	     -21.178	     -10.735	      -5.264	    -158.059
	38.500000000	      -1.846	    -178.828	       0.314	      39.990	     -21.257	     -11.028	      -5.211	    -158.421
	39.000000000	      -1.837	    -179.116	       0.193	      39.331	     -21.328	     -11.021	      -5.160	    -158.689
	39.500000000	      -1.831	    -179.294	       0.082	      38.664	     -21.440	     -11.063	      -5.110	    -159.065
	40.000000000	      -1.812	    -179.675	      -0.021	      37.870	     -21.416	     -11.261	      -5.054	    -159.291
	40.500000000	      -1.805	     179.889	      -0.145	      37.088	     -21.440	     -11.667	      -5.001	    -159.538
	41.000000000	      -1.794	     179.531	      -0.264	      36.303	     -21.482	     -11.832	      -4.952	    -159.986
	41.500000000	      -1.787	     179.314	      -0.381	      35.633	     -21.547	     -12.417	      -4.923	    -160.158
	42.000000000	      -1.784	     178.996	      -0.496	      34.927	     -21.589	     -12.417	      -4.871	    -160.349
	42.500000000	      -1.794	     178.630	      -0.616	      34.291	     -21.687	     -12.796	      -4.818	    -160.454
	43.000000000	      -1.788	     178.366	      -0.716	      33.659	     -21.778	     -12.466	      -4.759	    -160.750
	43.500000000	      -1.765	     178.093	      -0.828	      32.844	     -21.798	     -12.712	      -4.719	    -161.097
	44.000000000	      -1.774	     177.795	      -0.940	      32.099	     -21.773	     -12.217	      -4.673	    -161.459
	44.500000000	      -1.778	     177.375	      -1.064	      31.436	     -21.788	     -13.059	      -4.611	    -161.703
	45.000000000	      -1.792	     177.116	      -1.177	      30.762	     -21.829	     -13.052	      -4.552	    -162.064
	45.500000000	      -1.744	     176.699	      -1.444	      30.235	     -22.052	     -13.295	      -4.434	    -162.801
	46.000000000	      -1.723	     176.446	      -1.569	      29.599	     -22.139	     -13.773	      -4.385	    -163.082
	46.500000000	      -1.709	     176.063	      -1.665	      29.014	     -22.234	     -13.660	      -4.324	    -163.262
	47.000000000	      -1.707	     175.733	      -1.769	      28.378	     -22.320	     -14.028	      -4.291	    -163.413
	47.500000000	      -1.701	     175.455	      -1.873	      27.641	     -22.368	     -12.998	      -4.234	    -163.762
	48.000000000	      -1.677	     175.188	      -1.987	      26.945	     -22.372	     -13.652	      -4.207	    -164.001
	48.500000000	      -1.675	     174.853	      -2.089	      26.313	     -22.374	     -13.780	      -4.153	    -164.242
	49.000000000	      -1.682	     174.571	      -2.193	      25.668	     -22.421	     -14.818	      -4.104	    -164.472
	49.500000000	      -1.694	     174.355	      -2.319	      25.093	     -22.520	     -14.134	      -4.057	    -164.747
	50.000000000	      -1.675	     174.146	      -2.407	      24.546	     -22.576	     -14.832	      -4.001	    -165.086
	50.500000000	      -1.660	     173.891	      -2.510	      24.036	     -22.720	     -14.384	      -3.976	    -165.667
	51.000000000	      -1.649	     173.523	      -2.605	      23.325	     -22.786	     -14.518	      -3.972	    -165.833
	51.500000000	      -1.650	     173.375	      -2.711	      22.697	     -22.688	     -14.205	      -3.921	    -166.160
	52.000000000	      -1.629	     173.155	      -2.817	      22.108	     -22.674	     -14.614	      -3.903	    -166.471
	52.500000000	      -1.624	     172.783	      -2.907	      21.480	     -22.789	     -14.487	      -3.860	    -166.503
	53.000000000	      -1.627	     172.436	      -3.019	      20.880	     -22.888	     -14.802	      -3.822	    -166.615
	53.500000000	      -1.611	     172.347	      -3.104	      20.379	     -22.843	     -15.416	      -3.782	    -166.950
	54.000000000	      -1.600	     172.056	      -3.198	      19.895	     -22.829	     -15.440	      -3.732	    -167.192
	54.500000000	      -1.598	     171.635	      -3.276	      19.272	     -22.980	     -14.434	      -3.679	    -167.370
	55.000000000	      -1.608	     171.269	      -3.365	      18.641	     -22.945	     -14.836	      -3.645	    -167.608
	55.500000000	      -1.606	     171.039	      -3.443	      18.020	     -22.909	     -15.198	      -3.608	    -167.874
	56.000000000	      -1.592	     170.647	      -3.534	      17.342	     -22.926	     -16.872	      -3.562	    -168.211
	56.500000000	      -1.586	     170.625	      -3.639	      16.768	     -22.882	     -15.485	      -3.541	    -168.653
	57.000000000	      -1.598	     170.240	      -3.728	      15.976	     -23.073	     -16.554	      -3.517	    -168.810
	57.500000000	      -1.587	     170.091	      -3.839	      15.577	     -23.070	     -17.066	      -3.484	    -169.074
	58.000000000	      -1.579	     169.937	      -3.919	      14.901	     -23.404	     -16.895	      -3.453	    -169.460
	58.500000000	      -1.564	     169.793	      -3.991	      14.395	     -23.289	     -16.687	      -3.422	    -169.664
	59.000000000	      -1.551	     169.414	      -4.070	      13.599	     -23.320	     -17.418	      -3.374	    -169.822
	59.500000000	      -1.555	     169.291	      -4.148	      13.081	     -23.272	     -16.908	      -3.347	    -170.278
	60.000000000	      -1.548	     169.099	      -4.250	      12.333	     -23.420	     -17.410	      -3.356	    -170.370
	60.500000000	      -1.520	     168.838	      -4.354	      11.651	     -23.415	     -18.054	      -3.335	    -170.434
	61.000000000	      -1.496	     168.493	      -4.441	      11.273	     -23.598	     -17.747	      -3.308	    -170.628
	61.500000000	      -1.489	     168.201	      -4.531	      10.824	     -23.568	     -18.336	      -3.277	    -170.825
	62.000000000	      -1.474	     167.954	      -4.600	      10.181	     -23.568	     -19.877	      -3.244	    -171.051
	62.500000000	      -1.472	     167.542	      -4.673	       9.508	     -23.864	     -18.181	      -3.253	    -171.049
	63.000000000	      -1.458	     167.058	      -4.748	       8.873	     -23.710	     -16.320	      -3.188	    -171.286
	63.500000000	      -1.462	     166.940	      -4.842	       8.290	     -23.742	     -17.888	      -3.143	    -171.603
	64.000000000	      -1.439	     166.902	      -4.914	       7.492	     -23.807	     -17.794	      -3.105	    -171.654
	64.500000000	      -1.429	     166.650	      -4.982	       6.676	     -23.726	     -17.589	      -3.084	    -171.569
	65.000000000	      -1.459	     166.435	      -5.069	       5.930	     -23.798	     -17.683	      -3.040	    -171.768
	65.500000000	      -1.432	     165.994	      -5.195	       5.152	     -23.925	     -18.773	      -3.008	    -172.497
	66.000000000	      -1.440	     165.657	      -5.312	       4.444	     -24.043	     -18.699	      -2.975	    -172.791
	66.500000000	      -1.430	     165.374	      -5.426	       3.894	     -23.781	     -17.930	      -2.965	    -172.672
	67.000000000	      -1.469	     165.107	      -5.531	       3.241	     -23.914	     -18.128	      -2.941	    -172.825
	67.500000000	      -1.474	     164.662	      -5.692	       2.373	     -23.988	     -18.445	      -2.917	    -173.042
	68.000000000	      -1.494	     164.491	      -5.797	       1.746	     -24.026	     -18.775	      -2.939	    -173.375
	68.500000000	      -1.516	     164.286	      -5.891	       1.206	     -24.036	     -19.144	      -2.903	    -173.434
	69.000000000	      -1.535	     164.084	      -5.996	       0.697	     -24.068	     -19.462	      -2.849	    -173.574
	69.500000000	      -1.531	     163.812	      -6.103	       0.313	     -24.165	     -19.632	      -2.823	    -173.749
	70.000000000	      -1.520	     163.641	      -6.191	      -0.179	     -24.258	     -19.508	      -2.801	    -173.770
	70.500000000	      -1.508	     163.411	      -6.279	      -0.623	     -24.235	     -19.233	      -2.768	    -173.948
	71.000000000	      -1.507	     163.088	      -6.362	      -1.075	     -24.255	     -19.452	      -2.724	    -174.118
	71.500000000	      -1.495	     162.691	      -6.461	      -1.580	     -24.215	     -19.723	      -2.668	    -174.275
	72.000000000	      -1.485	     162.677	      -6.555	      -2.086	     -24.239	     -20.335	      -2.667	    -174.447
	72.500000000	      -1.506	     162.340	      -6.640	      -2.743	     -24.246	     -21.241	      -2.649	    -174.743
	73.000000000	      -1.515	     162.148	      -6.737	      -3.306	     -24.363	     -21.798	      -2.607	    -174.908
	73.500000000	      -1.536	     162.044	      -6.837	      -3.808	     -24.532	     -22.213	      -2.544	    -175.153
	74.000000000	      -1.535	     161.824	      -6.933	      -4.320	     -24.643	     -22.115	      -2.542	    -175.680
	74.500000000	      -1.553	     161.643	      -7.028	      -4.804	     -24.732	     -22.000	      -2.559	    -175.931
	75.000000000	      -1.572	     161.502	      -7.124	      -5.439	     -24.831	     -22.205	      -2.552	    -175.979
	75.500000000	      -1.602	     161.442	      -7.244	      -5.945	     -25.037	     -22.541	      -2.552	    -176.125
	76.000000000	      -1.609	     161.439	      -7.364	      -6.372	     -25.356	     -21.865	      -2.558	    -176.137
	76.500000000	      -1.603	     161.578	      -7.496	      -6.599	     -25.670	     -19.352	      -2.555	    -175.990
	77.000000000	      -1.583	     161.560	      -7.587	      -6.650	     -25.648	     -15.650	      -2.499	    -175.807
	77.500000000	      -1.521	     161.434	      -7.616	      -6.635	     -25.227	     -13.021	      -2.410	    -175.879
	78.000000000	      -1.434	     161.159	      -7.636	      -6.858	     -24.791	     -12.369	      -2.357	    -175.945
	78.500000000	      -1.401	     160.713	      -7.688	      -7.416	     -24.462	     -13.193	      -2.319	    -176.275
	79.000000000	      -1.402	     160.099	      -7.744	      -7.959	     -24.274	     -13.975	      -2.259	    -176.540
	79.500000000	      -1.424	     159.650	      -7.772	      -8.613	     -24.026	     -14.957	      -2.227	    -176.837
