!File name = EG0520U_1010_6x60_2SDBCB2EV_1915934D06_RC4034_3.5Vd_45mA.s2p
!Base file name = EG0520U_1010_6x60_2SDBCB2EV_1915934D06_RC4034
!Date = 8/23/2019
!Time = 12:58 PM
!Test duration(min) = 0.15
!Test = S-Parameters
!MPTS version = 8.91.5
!State File = C:\Data\PNA\20190821205423\S-Parameters_2019-08-23.sta
!Cal File = 
!ComputerName = CMPE-LAB-6
!Comments = 
!Attenuation = 0
!Z0 = 50
!Input Power(dBm) = -13.00
!Device ID = EG0520U_1010_6x60_2SDBCB2EV
!Row = 40
!Column = 34
!Technology = QPHT09
!Lot/Wafer = 1915934D06
!Gate Size = 360
!Mask = EG0520
!Cal Standards = GaAs BCB
!Cal Kit = EG2306
!Job Number = 20190821205423
!Device Type = FET
!set_Vg(v) = -1.500
!set_Vd(v) = 3.500
!set_Vd(mA) = 45.000
!file_name = EG0520U_1010_6x60_2SDBCB2EV_1915934D06_RC4034_3.5Vd_45mA.s2p
!Vd(V) = 3.500
!Vd(mA) = 45.056
!Vg(V) = -0.494
!Vg(mA) = -0.002
# GHz   S   DB   R   50
!%	Freq(GHz)	     s11(dB)	    s11(deg)	     s21(dB)	    s21(deg)	     s12(dB)	    s12(deg)	     s22(dB)	    s22(deg)
	0.500000000	      -0.053	     -14.874	      22.222	     170.904	     -39.213	      81.114	      -9.080	     -15.804
	1.000000000	      -0.138	     -29.402	      21.776	     162.346	     -33.444	      73.435	      -9.092	     -30.152
	1.500000000	      -0.179	     -43.062	      21.410	     154.858	     -30.298	      66.062	      -9.009	     -43.833
	2.000000000	      -0.322	     -55.417	      21.142	     147.486	     -28.296	      59.242	      -8.969	     -57.085
	2.500000000	      -0.420	     -66.869	      20.686	     141.015	     -26.928	      53.404	      -9.040	     -67.740
	3.000000000	      -0.811	     -74.558	      19.995	     135.853	     -26.124	      49.065	      -9.417	     -72.106
	3.500000000	      -0.928	     -83.383	      19.426	     130.761	     -25.379	      44.616	      -9.440	     -80.150
	4.000000000	      -1.024	     -91.154	      18.855	     126.270	     -24.812	      40.723	      -9.452	     -87.172
	4.500000000	      -1.127	     -98.043	      18.287	     122.129	     -24.389	      37.228	      -9.458	     -93.537
	5.000000000	      -1.198	    -104.147	      17.726	     118.504	     -24.054	      34.222	      -9.470	     -98.888
	5.500000000	      -1.265	    -109.645	      17.189	     115.131	     -23.793	      31.553	      -9.490	    -103.613
	6.000000000	      -1.323	    -114.531	      16.658	     112.107	     -23.578	      29.160	      -9.474	    -107.667
	6.500000000	      -1.369	    -118.877	      16.150	     109.361	     -23.409	      27.020	      -9.460	    -111.260
	7.000000000	      -1.410	    -122.804	      15.663	     106.792	     -23.273	      25.113	      -9.439	    -114.436
	7.500000000	      -1.439	    -126.336	      15.188	     104.436	     -23.166	      23.403	      -9.412	    -117.226
	8.000000000	      -1.448	    -129.317	      14.754	     102.364	     -23.046	      21.950	      -9.415	    -119.049
	8.500000000	      -1.477	    -132.297	      14.315	     100.312	     -22.968	      20.490	      -9.391	    -121.295
	9.000000000	      -1.504	    -134.975	      13.889	      98.389	     -22.913	      19.090	      -9.357	    -123.263
	9.500000000	      -1.522	    -137.470	      13.489	      96.528	     -22.859	      17.774	      -9.319	    -125.030
	10.000000000	      -1.536	    -139.777	      13.100	      94.777	     -22.830	      16.560	      -9.282	    -126.722
	10.500000000	      -1.555	    -141.923	      12.726	      93.083	     -22.813	      15.524	      -9.247	    -128.194
	11.000000000	      -1.566	    -143.893	      12.365	      91.501	     -22.793	      14.530	      -9.204	    -129.484
	11.500000000	      -1.582	    -145.752	      12.013	      89.958	     -22.790	      13.590	      -9.164	    -130.653
	12.000000000	      -1.595	    -147.474	      11.676	      88.503	     -22.788	      12.720	      -9.112	    -131.710
	12.500000000	      -1.601	    -149.077	      11.349	      87.084	     -22.781	      11.972	      -9.054	    -132.793
	13.000000000	      -1.610	    -150.566	      11.033	      85.708	     -22.782	      11.197	      -9.000	    -133.748
	13.500000000	      -1.617	    -152.016	      10.726	      84.386	     -22.792	      10.390	      -8.938	    -134.537
	14.000000000	      -1.627	    -153.393	      10.428	      83.093	     -22.818	       9.739	      -8.882	    -135.287
	14.500000000	      -1.632	    -154.627	      10.139	      81.837	     -22.838	       9.130	      -8.828	    -136.083
	15.000000000	      -1.635	    -155.732	       9.856	      80.637	     -22.862	       8.603	      -8.776	    -136.785
	15.500000000	      -1.639	    -156.847	       9.583	      79.438	     -22.871	       8.091	      -8.715	    -137.370
	16.000000000	      -1.643	    -157.958	       9.317	      78.267	     -22.891	       7.483	      -8.647	    -137.932
	16.500000000	      -1.646	    -159.012	       9.057	      77.121	     -22.918	       6.977	      -8.580	    -138.464
	17.000000000	      -1.647	    -160.005	       8.806	      76.005	     -22.960	       6.472	      -8.525	    -138.954
	17.500000000	      -1.654	    -160.901	       8.556	      74.905	     -22.984	       6.058	      -8.457	    -139.516
	18.000000000	      -1.662	    -161.790	       8.317	      73.836	     -23.021	       5.508	      -8.390	    -140.050
	18.500000000	      -1.662	    -162.651	       8.083	      72.787	     -23.046	       5.092	      -8.314	    -140.469
	19.000000000	      -1.660	    -163.478	       7.852	      71.745	     -23.089	       4.663	      -8.247	    -140.877
	19.500000000	      -1.657	    -164.265	       7.629	      70.733	     -23.150	       4.286	      -8.187	    -141.288
	20.000000000	      -1.664	    -165.019	       7.410	      69.740	     -23.235	       4.102	      -8.134	    -141.659
	20.500000000	      -1.668	    -165.719	       7.200	      68.751	     -23.258	       4.051	      -8.061	    -141.971
	21.000000000	      -1.667	    -166.393	       6.992	      67.774	     -23.273	       3.866	      -7.983	    -142.319
	21.500000000	      -1.657	    -167.118	       6.788	      66.790	     -23.303	       3.568	      -7.907	    -142.633
	22.000000000	      -1.649	    -167.719	       6.588	      65.836	     -23.325	       3.146	      -7.833	    -142.890
	22.500000000	      -1.646	    -168.373	       6.387	      64.849	     -23.353	       2.714	      -7.766	    -143.333
	23.000000000	      -1.649	    -168.973	       6.190	      63.919	     -23.403	       2.333	      -7.696	    -143.777
	23.500000000	      -1.647	    -169.649	       5.995	      63.005	     -23.509	       1.973	      -7.632	    -144.238
	24.000000000	      -1.655	    -170.252	       5.807	      62.136	     -23.615	       2.058	      -7.582	    -144.484
	24.500000000	      -1.648	    -170.693	       5.632	      61.249	     -23.615	       2.267	      -7.510	    -144.589
	25.000000000	      -1.635	    -171.178	       5.453	      60.309	     -23.597	       2.121	      -7.432	    -144.797
	25.500000000	      -1.634	    -171.745	       5.272	      59.423	     -23.661	       1.767	      -7.355	    -145.138
	26.000000000	      -1.637	    -172.348	       5.093	      58.549	     -23.701	       1.373	      -7.267	    -145.528
	26.500000000	      -1.633	    -172.825	       4.921	      57.679	     -23.748	       1.199	      -7.186	    -145.836
	27.000000000	      -1.629	    -173.232	       4.752	      56.831	     -23.839	       0.791	      -7.125	    -146.169
	27.500000000	      -1.631	    -173.628	       4.586	      56.066	     -23.964	       1.023	      -7.077	    -146.252
	28.000000000	      -1.633	    -174.123	       4.430	      55.248	     -24.051	       1.320	      -7.011	    -146.593
	28.500000000	      -1.609	    -174.560	       4.284	      54.330	     -23.983	       1.835	      -6.910	    -146.872
	29.000000000	      -1.601	    -175.038	       4.118	      53.407	     -23.994	       1.426	      -6.838	    -147.254
	29.500000000	      -1.600	    -175.447	       3.955	      52.577	     -24.062	       1.090	      -6.770	    -147.560
	30.000000000	      -1.598	    -175.888	       3.798	      51.813	     -24.131	       0.754	      -6.706	    -147.796
	30.500000000	      -1.597	    -176.296	       3.646	      50.992	     -24.166	       0.743	      -6.644	    -148.135
	31.000000000	      -1.588	    -176.711	       3.496	      50.218	     -24.225	       0.671	      -6.584	    -148.398
	31.500000000	      -1.576	    -177.086	       3.361	      49.464	     -24.341	       1.209	      -6.519	    -148.631
	32.000000000	      -1.570	    -177.404	       3.219	      48.599	     -24.332	       1.466	      -6.442	    -148.901
	32.500000000	      -1.577	    -177.847	       3.073	      47.713	     -24.333	       1.307	      -6.361	    -149.131
	33.000000000	      -1.574	    -178.299	       2.925	      46.926	     -24.372	       1.132	      -6.300	    -149.455
	33.500000000	      -1.563	    -178.689	       2.779	      46.168	     -24.465	       0.932	      -6.237	    -149.807
	34.000000000	      -1.553	    -179.035	       2.632	      45.374	     -24.492	       0.617	      -6.163	    -150.179
	34.500000000	      -1.556	    -179.437	       2.481	      44.569	     -24.550	       0.361	      -6.089	    -150.461
	35.000000000	      -1.562	    -179.775	       2.340	      43.867	     -24.670	       0.544	      -6.033	    -150.833
	35.500000000	      -1.551	     179.891	       2.222	      43.118	     -24.704	       1.220	      -5.979	    -150.961
	36.000000000	      -1.547	     179.559	       2.090	      42.338	     -24.662	       1.442	      -5.901	    -151.272
	36.500000000	      -1.538	     179.275	       1.957	      41.520	     -24.672	       1.128	      -5.825	    -151.612
	37.000000000	      -1.532	     179.021	       1.824	      40.764	     -24.744	       0.760	      -5.766	    -151.923
	37.500000000	      -1.536	     178.660	       1.687	      40.024	     -24.846	       0.974	      -5.719	    -152.214
	38.000000000	      -1.528	     178.309	       1.556	      39.317	     -24.856	       0.532	      -5.652	    -152.516
	38.500000000	      -1.516	     178.024	       1.422	      38.611	     -25.000	       0.863	      -5.585	    -152.902
	39.000000000	      -1.513	     177.753	       1.299	      37.925	     -25.045	       1.186	      -5.524	    -153.233
	39.500000000	      -1.508	     177.585	       1.183	      37.265	     -25.123	       1.399	      -5.459	    -153.531
	40.000000000	      -1.491	     177.169	       1.074	      36.458	     -25.061	       1.366	      -5.390	    -153.803
	40.500000000	      -1.487	     176.757	       0.942	      35.657	     -25.080	       1.355	      -5.329	    -154.118
	41.000000000	      -1.474	     176.399	       0.821	      34.885	     -25.133	       1.421	      -5.280	    -154.555
	41.500000000	      -1.466	     176.217	       0.696	      34.220	     -25.246	       1.399	      -5.238	    -154.780
	42.000000000	      -1.469	     175.930	       0.577	      33.514	     -25.274	       1.622	      -5.162	    -154.946
	42.500000000	      -1.481	     175.556	       0.456	      32.841	     -25.426	       1.591	      -5.103	    -155.056
	43.000000000	      -1.477	     175.294	       0.353	      32.212	     -25.481	       2.333	      -5.045	    -155.416
	43.500000000	      -1.460	     175.035	       0.235	      31.381	     -25.453	       2.947	      -4.981	    -155.809
	44.000000000	      -1.472	     174.800	       0.111	      30.658	     -25.358	       2.644	      -4.913	    -156.242
	44.500000000	      -1.478	     174.374	      -0.015	      29.941	     -25.505	       2.246	      -4.848	    -156.514
	45.000000000	      -1.489	     174.106	      -0.134	      29.278	     -25.502	       2.230	      -4.790	    -156.853
	45.500000000	      -1.438	     173.720	      -0.416	      28.718	     -25.670	       2.206	      -4.657	    -157.866
	46.000000000	      -1.420	     173.523	      -0.532	      28.105	     -25.930	       1.954	      -4.608	    -158.176
	46.500000000	      -1.404	     173.199	      -0.637	      27.517	     -26.077	       2.232	      -4.532	    -158.343
	47.000000000	      -1.406	     172.829	      -0.743	      26.773	     -25.981	       2.672	      -4.474	    -158.608
	47.500000000	      -1.403	     172.569	      -0.861	      26.079	     -26.041	       4.016	      -4.442	    -158.873
	48.000000000	      -1.388	     172.294	      -0.969	      25.414	     -25.881	       4.046	      -4.385	    -159.104
	48.500000000	      -1.384	     171.971	      -1.089	      24.731	     -25.903	       3.644	      -4.327	    -159.426
	49.000000000	      -1.396	     171.735	      -1.200	      24.130	     -25.876	       3.307	      -4.265	    -159.693
	49.500000000	      -1.399	     171.517	      -1.309	      23.525	     -26.028	       3.113	      -4.209	    -160.071
	50.000000000	      -1.387	     171.285	      -1.411	      23.017	     -26.290	       3.564	      -4.153	    -160.415
	50.500000000	      -1.371	     170.988	      -1.524	      22.317	     -26.265	       5.968	      -4.147	    -160.974
	51.000000000	      -1.372	     170.687	      -1.648	      21.765	     -26.142	       5.678	      -4.115	    -161.281
	51.500000000	      -1.368	     170.549	      -1.737	      21.101	     -26.245	       6.129	      -4.067	    -161.525
	52.000000000	      -1.344	     170.360	      -1.849	      20.444	     -26.178	       5.426	      -4.026	    -161.827
	52.500000000	      -1.349	     169.964	      -1.956	      19.885	     -26.152	       5.627	      -3.994	    -162.032
	53.000000000	      -1.346	     169.638	      -2.064	      19.221	     -26.250	       4.934	      -3.943	    -162.114
	53.500000000	      -1.332	     169.463	      -2.162	      18.730	     -26.431	       5.274	      -3.896	    -162.364
	54.000000000	      -1.328	     169.205	      -2.247	      18.168	     -26.278	       5.360	      -3.839	    -162.639
	54.500000000	      -1.320	     168.850	      -2.342	      17.600	     -26.332	       5.799	      -3.777	    -162.944
	55.000000000	      -1.335	     168.507	      -2.438	      16.920	     -26.323	       6.049	      -3.725	    -163.056
	55.500000000	      -1.326	     168.187	      -2.529	      16.303	     -26.141	       5.868	      -3.688	    -163.375
	56.000000000	      -1.323	     167.864	      -2.615	      15.612	     -26.453	       4.925	      -3.646	    -163.960
	56.500000000	      -1.326	     167.652	      -2.718	      14.926	     -26.304	       6.888	      -3.620	    -164.393
	57.000000000	      -1.334	     167.508	      -2.808	      14.422	     -26.424	       5.785	      -3.604	    -164.589
	57.500000000	      -1.316	     167.314	      -2.935	      13.827	     -26.308	       6.370	      -3.549	    -164.835
	58.000000000	      -1.303	     167.179	      -3.023	      13.136	     -26.617	       4.993	      -3.509	    -165.162
	58.500000000	      -1.287	     166.949	      -3.100	      12.663	     -26.588	       8.170	      -3.471	    -165.504
	59.000000000	      -1.288	     166.596	      -3.199	      11.795	     -26.604	       7.803	      -3.407	    -165.677
	59.500000000	      -1.292	     166.472	      -3.281	      11.224	     -26.559	       5.003	      -3.399	    -165.976
	60.000000000	      -1.280	     166.262	      -3.369	      10.561	     -26.595	       6.069	      -3.375	    -166.259
	60.500000000	      -1.254	     165.999	      -3.494	       9.931	     -26.656	       6.437	      -3.373	    -166.440
	61.000000000	      -1.218	     165.772	      -3.584	       9.427	     -27.017	       6.560	      -3.315	    -166.620
	61.500000000	      -1.225	     165.525	      -3.681	       8.993	     -26.810	       6.480	      -3.286	    -166.861
	62.000000000	      -1.203	     165.158	      -3.748	       8.377	     -27.080	       9.200	      -3.259	    -166.942
	62.500000000	      -1.205	     164.906	      -3.837	       7.777	     -26.866	       7.311	      -3.246	    -166.937
	63.000000000	      -1.196	     164.497	      -3.908	       7.094	     -26.662	       8.579	      -3.193	    -167.179
	63.500000000	      -1.188	     164.230	      -3.999	       6.353	     -26.645	       9.311	      -3.129	    -167.489
	64.000000000	      -1.192	     164.348	      -4.085	       5.577	     -26.662	       9.876	      -3.077	    -167.450
	64.500000000	      -1.172	     164.174	      -4.166	       4.677	     -26.429	       8.645	      -3.024	    -167.384
	65.000000000	      -1.202	     163.652	      -4.256	       3.772	     -26.393	       6.349	      -2.970	    -167.867
	65.500000000	      -1.182	     163.268	      -4.371	       3.231	     -26.600	       6.986	      -2.944	    -168.573
	66.000000000	      -1.177	     162.989	      -4.500	       2.422	     -26.714	       7.981	      -2.942	    -169.107
	66.500000000	      -1.197	     162.765	      -4.617	       1.709	     -26.289	       8.265	      -2.897	    -168.937
	67.000000000	      -1.229	     162.451	      -4.736	       0.982	     -26.777	       7.149	      -2.873	    -169.037
	67.500000000	      -1.230	     161.827	      -4.885	       0.241	     -26.563	       7.721	      -2.862	    -169.497
	68.000000000	      -1.259	     161.647	      -4.984	      -0.325	     -26.598	       7.247	      -2.885	    -169.805
	68.500000000	      -1.286	     161.425	      -5.087	      -0.967	     -26.552	       7.295	      -2.828	    -169.896
	69.000000000	      -1.308	     161.214	      -5.213	      -1.434	     -26.598	       6.827	      -2.777	    -170.228
	69.500000000	      -1.307	     160.974	      -5.335	      -1.883	     -26.725	       6.497	      -2.758	    -170.374
	70.000000000	      -1.295	     160.784	      -5.430	      -2.322	     -26.760	       7.097	      -2.737	    -170.452
	70.500000000	      -1.289	     160.584	      -5.526	      -2.841	     -26.640	       7.139	      -2.691	    -170.621
	71.000000000	      -1.289	     160.311	      -5.624	      -3.234	     -26.644	       6.798	      -2.667	    -170.755
	71.500000000	      -1.262	     160.229	      -5.733	      -3.887	     -26.628	       6.589	      -2.585	    -170.972
	72.000000000	      -1.271	     159.887	      -5.840	      -4.397	     -26.641	       5.799	      -2.589	    -171.242
	72.500000000	      -1.289	     159.528	      -5.942	      -5.027	     -26.645	       4.948	      -2.567	    -171.552
	73.000000000	      -1.312	     159.352	      -6.051	      -5.565	     -26.848	       4.249	      -2.528	    -171.736
	73.500000000	      -1.331	     159.233	      -6.167	      -6.097	     -27.070	       4.615	      -2.460	    -172.047
	74.000000000	      -1.336	     159.002	      -6.271	      -6.546	     -27.160	       5.328	      -2.456	    -172.602
	74.500000000	      -1.362	     158.803	      -6.376	      -6.996	     -27.225	       5.657	      -2.472	    -172.857
	75.000000000	      -1.393	     158.698	      -6.479	      -7.514	     -27.309	       6.064	      -2.458	    -172.969
	75.500000000	      -1.417	     158.643	      -6.606	      -8.062	     -27.544	       6.682	      -2.457	    -173.134
	76.000000000	      -1.436	     158.737	      -6.737	      -8.425	     -27.787	       8.872	      -2.460	    -173.202
	76.500000000	      -1.428	     158.890	      -6.865	      -8.622	     -27.822	      12.817	      -2.449	    -173.073
	77.000000000	      -1.406	     158.960	      -6.956	      -8.690	     -27.376	      16.383	      -2.387	    -172.959
	77.500000000	      -1.343	     158.909	      -6.996	      -8.717	     -26.681	      17.312	      -2.305	    -173.115
	78.000000000	      -1.263	     158.673	      -7.020	      -8.966	     -26.134	      16.203	      -2.267	    -173.232
	78.500000000	      -1.197	     158.172	      -7.068	      -9.524	     -25.798	      14.194	      -2.213	    -173.562
	79.000000000	      -1.204	     157.492	      -7.116	     -10.118	     -25.616	      12.533	      -2.159	    -173.857
	79.500000000	      -1.232	     157.017	      -7.159	     -10.887	     -25.384	      10.723	      -2.129	    -174.133
