!File name = EG0520U_1010_6x60_2SDBCB2EV_1915934D06_RC2943_3.5Vd_36mA.s2p
!Base file name = EG0520U_1010_6x60_2SDBCB2EV_1915934D06_RC2943
!Date = 8/23/2019
!Time = 1:04 PM
!Test duration(min) = 0.15
!Test = S-Parameters
!MPTS version = 8.91.5
!State File = C:\Data\PNA\20190821205423\S-Parameters_2019-08-23.sta
!Cal File = 
!ComputerName = CMPE-LAB-6
!Comments = 
!Attenuation = 0
!Z0 = 50
!Input Power(dBm) = -13.00
!Device ID = EG0520U_1010_6x60_2SDBCB2EV
!Row = 29
!Column = 43
!Technology = QPHT09
!Lot/Wafer = 1915934D06
!Gate Size = 360
!Mask = EG0520
!Cal Standards = GaAs BCB
!Cal Kit = EG2306
!Job Number = 20190821205423
!Device Type = FET
!set_Vg(v) = -1.500
!set_Vd(v) = 3.500
!set_Vd(mA) = 36.000
!file_name = EG0520U_1010_6x60_2SDBCB2EV_1915934D06_RC2943_3.5Vd_36mA.s2p
!Vd(V) = 3.500
!Vd(mA) = 36.027
!Vg(V) = -0.526
!Vg(mA) = -0.003
# GHz   S   DB   R   50
!%	Freq(GHz)	     s11(dB)	    s11(deg)	     s21(dB)	    s21(deg)	     s12(dB)	    s12(deg)	     s22(dB)	    s22(deg)
	0.500000000	      -0.058	     -14.451	      21.758	     171.131	     -38.892	      81.129	      -8.601	     -14.846
	1.000000000	      -0.144	     -28.574	      21.348	     162.675	     -33.121	      73.663	      -8.636	     -28.449
	1.500000000	      -0.185	     -41.918	      21.000	     155.367	     -29.961	      66.387	      -8.599	     -41.518
	2.000000000	      -0.330	     -54.037	      20.735	     148.021	     -27.944	      59.638	      -8.610	     -54.263
	2.500000000	      -0.428	     -65.331	      20.295	     141.598	     -26.559	      53.852	      -8.729	     -64.614
	3.000000000	      -0.819	     -72.947	      19.616	     136.400	     -25.744	      49.476	      -9.111	     -68.867
	3.500000000	      -0.938	     -81.741	      19.066	     131.301	     -24.980	      45.048	      -9.175	     -76.783
	4.000000000	      -1.037	     -89.499	      18.511	     126.794	     -24.401	      41.105	      -9.225	     -83.760
	4.500000000	      -1.145	     -96.393	      17.953	     122.600	     -23.966	      37.572	      -9.263	     -90.141
	5.000000000	      -1.219	    -102.534	      17.403	     118.937	     -23.623	      34.515	      -9.307	     -95.558
	5.500000000	      -1.291	    -108.073	      16.876	     115.522	     -23.350	      31.808	      -9.354	    -100.346
	6.000000000	      -1.353	    -113.017	      16.354	     112.444	     -23.129	      29.385	      -9.362	    -104.493
	6.500000000	      -1.402	    -117.412	      15.853	     109.658	     -22.959	      27.161	      -9.368	    -108.179
	7.000000000	      -1.446	    -121.389	      15.370	     107.034	     -22.812	      25.192	      -9.363	    -111.461
	7.500000000	      -1.478	    -124.987	      14.901	     104.629	     -22.704	      23.411	      -9.351	    -114.369
	8.000000000	      -1.492	    -128.015	      14.469	     102.517	     -22.582	      21.967	      -9.363	    -116.261
	8.500000000	      -1.521	    -131.039	      14.035	     100.420	     -22.499	      20.423	      -9.347	    -118.622
	9.000000000	      -1.551	    -133.757	      13.611	      98.457	     -22.438	      18.972	      -9.322	    -120.687
	9.500000000	      -1.571	    -136.304	      13.214	      96.547	     -22.382	      17.605	      -9.291	    -122.550
	10.000000000	      -1.585	    -138.655	      12.828	      94.754	     -22.351	      16.352	      -9.259	    -124.330
	10.500000000	      -1.605	    -140.856	      12.456	      93.012	     -22.330	      15.240	      -9.228	    -125.899
	11.000000000	      -1.618	    -142.867	      12.097	      91.386	     -22.308	      14.198	      -9.190	    -127.311
	11.500000000	      -1.636	    -144.767	      11.745	      89.807	     -22.307	      13.192	      -9.152	    -128.562
	12.000000000	      -1.651	    -146.527	      11.409	      88.308	     -22.308	      12.305	      -9.103	    -129.707
	12.500000000	      -1.660	    -148.160	      11.081	      86.864	     -22.300	      11.482	      -9.051	    -130.817
	13.000000000	      -1.671	    -149.693	      10.765	      85.443	     -22.308	      10.654	      -9.001	    -131.878
	13.500000000	      -1.678	    -151.145	      10.460	      84.099	     -22.320	       9.868	      -8.940	    -132.733
	14.000000000	      -1.687	    -152.545	      10.162	      82.774	     -22.334	       9.144	      -8.880	    -133.565
	14.500000000	      -1.691	    -153.815	       9.874	      81.483	     -22.359	       8.491	      -8.826	    -134.437
	15.000000000	      -1.695	    -154.959	       9.591	      80.247	     -22.381	       7.875	      -8.775	    -135.200
	15.500000000	      -1.703	    -156.094	       9.317	      79.021	     -22.406	       7.400	      -8.716	    -135.833
	16.000000000	      -1.707	    -157.212	       9.051	      77.825	     -22.416	       6.789	      -8.645	    -136.443
	16.500000000	      -1.710	    -158.296	       8.791	      76.644	     -22.445	       6.202	      -8.581	    -137.007
	17.000000000	      -1.712	    -159.310	       8.539	      75.501	     -22.481	       5.670	      -8.522	    -137.584
	17.500000000	      -1.720	    -160.211	       8.289	      74.379	     -22.507	       5.226	      -8.451	    -138.190
	18.000000000	      -1.729	    -161.112	       8.050	      73.284	     -22.548	       4.719	      -8.383	    -138.767
	18.500000000	      -1.729	    -161.999	       7.816	      72.205	     -22.563	       4.200	      -8.304	    -139.249
	19.000000000	      -1.728	    -162.847	       7.584	      71.132	     -22.614	       3.662	      -8.234	    -139.671
	19.500000000	      -1.728	    -163.644	       7.360	      70.098	     -22.684	       3.258	      -8.177	    -140.192
	20.000000000	      -1.734	    -164.380	       7.141	      69.096	     -22.745	       3.176	      -8.118	    -140.572
	20.500000000	      -1.735	    -165.101	       6.933	      68.073	     -22.768	       2.962	      -8.039	    -140.951
	21.000000000	      -1.736	    -165.802	       6.722	      67.063	     -22.770	       2.636	      -7.957	    -141.384
	21.500000000	      -1.728	    -166.547	       6.516	      66.054	     -22.809	       2.274	      -7.883	    -141.743
	22.000000000	      -1.727	    -167.132	       6.314	      65.094	     -22.849	       1.900	      -7.807	    -142.112
	22.500000000	      -1.724	    -167.761	       6.114	      64.103	     -22.884	       1.388	      -7.739	    -142.540
	23.000000000	      -1.728	    -168.362	       5.914	      63.151	     -22.952	       1.003	      -7.668	    -143.030
	23.500000000	      -1.728	    -168.988	       5.722	      62.255	     -23.066	       0.780	      -7.604	    -143.476
	24.000000000	      -1.727	    -169.560	       5.540	      61.363	     -23.143	       0.964	      -7.539	    -143.766
	24.500000000	      -1.718	    -170.023	       5.362	      60.429	     -23.134	       0.914	      -7.467	    -143.965
	25.000000000	      -1.701	    -170.495	       5.185	      59.467	     -23.148	       0.751	      -7.387	    -144.218
	25.500000000	      -1.693	    -171.066	       5.006	      58.556	     -23.191	       0.390	      -7.308	    -144.596
	26.000000000	      -1.694	    -171.702	       4.824	      57.657	     -23.233	       0.044	      -7.219	    -145.027
	26.500000000	      -1.693	    -172.199	       4.651	      56.768	     -23.278	      -0.364	      -7.142	    -145.382
	27.000000000	      -1.687	    -172.563	       4.483	      55.912	     -23.351	      -0.497	      -7.073	    -145.667
	27.500000000	      -1.680	    -172.957	       4.323	      55.120	     -23.470	      -0.364	      -7.015	    -145.854
	28.000000000	      -1.669	    -173.478	       4.171	      54.237	     -23.516	      -0.124	      -6.942	    -146.288
	28.500000000	      -1.659	    -173.995	       4.015	      53.277	     -23.480	      -0.230	      -6.849	    -146.639
	29.000000000	      -1.653	    -174.428	       3.848	      52.366	     -23.512	      -0.627	      -6.773	    -147.031
	29.500000000	      -1.642	    -174.845	       3.689	      51.513	     -23.573	      -0.786	      -6.700	    -147.380
	30.000000000	      -1.638	    -175.181	       3.534	      50.733	     -23.641	      -1.174	      -6.635	    -147.656
	30.500000000	      -1.630	    -175.704	       3.383	      49.852	     -23.710	      -1.271	      -6.571	    -147.998
	31.000000000	      -1.616	    -176.153	       3.230	      48.989	     -23.733	      -1.673	      -6.516	    -148.404
	31.500000000	      -1.603	    -176.568	       3.089	      48.240	     -23.877	      -1.321	      -6.450	    -148.675
	32.000000000	      -1.603	    -176.913	       2.942	      47.351	     -23.888	      -1.056	      -6.377	    -148.938
	32.500000000	      -1.609	    -177.380	       2.794	      46.486	     -23.902	      -1.119	      -6.298	    -149.150
	33.000000000	      -1.612	    -177.767	       2.649	      45.686	     -23.981	      -1.196	      -6.229	    -149.499
	33.500000000	      -1.595	    -178.149	       2.501	      44.891	     -24.062	      -1.228	      -6.163	    -149.880
	34.000000000	      -1.578	    -178.495	       2.360	      44.079	     -24.117	      -1.573	      -6.082	    -150.290
	34.500000000	      -1.577	    -178.914	       2.209	      43.210	     -24.130	      -1.565	      -6.008	    -150.596
	35.000000000	      -1.574	    -179.297	       2.064	      42.463	     -24.241	      -1.614	      -5.948	    -150.978
	35.500000000	      -1.571	    -179.696	       1.937	      41.694	     -24.288	      -1.314	      -5.889	    -151.196
	36.000000000	      -1.567	     179.950	       1.803	      40.866	     -24.241	      -1.305	      -5.816	    -151.517
	36.500000000	      -1.559	     179.674	       1.666	      40.035	     -24.295	      -1.302	      -5.741	    -151.907
	37.000000000	      -1.553	     179.401	       1.526	      39.261	     -24.352	      -1.653	      -5.683	    -152.228
	37.500000000	      -1.559	     178.998	       1.390	      38.501	     -24.456	      -1.398	      -5.629	    -152.558
	38.000000000	      -1.551	     178.677	       1.254	      37.788	     -24.501	      -1.932	      -5.555	    -152.825
	38.500000000	      -1.540	     178.288	       1.113	      37.038	     -24.543	      -1.981	      -5.498	    -153.243
	39.000000000	      -1.539	     177.992	       0.984	      36.321	     -24.663	      -2.124	      -5.437	    -153.648
	39.500000000	      -1.543	     177.741	       0.853	      35.647	     -24.725	      -1.985	      -5.377	    -153.939
	40.000000000	      -1.547	     177.391	       0.733	      34.959	     -24.774	      -1.420	      -5.305	    -154.237
	40.500000000	      -1.548	     177.032	       0.612	      34.227	     -24.853	      -1.084	      -5.218	    -154.590
	41.000000000	      -1.528	     176.758	       0.492	      33.463	     -24.831	      -1.246	      -5.166	    -155.013
	41.500000000	      -1.519	     176.579	       0.373	      32.770	     -24.910	      -1.316	      -5.121	    -155.234
	42.000000000	      -1.525	     176.317	       0.249	      32.033	     -24.928	      -1.338	      -5.056	    -155.500
	42.500000000	      -1.538	     175.958	       0.126	      31.368	     -25.053	      -1.721	      -4.997	    -155.652
	43.000000000	      -1.540	     175.723	       0.019	      30.762	     -25.133	      -0.596	      -4.924	    -155.957
	43.500000000	      -1.520	     175.546	      -0.094	      29.933	     -25.085	      -0.684	      -4.874	    -156.466
	44.000000000	      -1.524	     175.300	      -0.216	      29.210	     -25.166	      -0.456	      -4.811	    -156.844
	44.500000000	      -1.526	     174.915	      -0.344	      28.492	     -25.176	      -0.429	      -4.750	    -157.197
	45.000000000	      -1.535	     174.594	      -0.457	      27.809	     -25.137	      -0.822	      -4.686	    -157.556
	45.500000000	      -1.484	     174.264	      -0.738	      27.197	     -25.384	      -0.543	      -4.552	    -158.486
	46.000000000	      -1.464	     174.023	      -0.866	      26.559	     -25.476	      -1.304	      -4.503	    -158.870
	46.500000000	      -1.455	     173.677	      -0.972	      25.980	     -25.685	      -0.303	      -4.424	    -159.076
	47.000000000	      -1.449	     173.350	      -1.075	      25.296	     -25.781	       0.035	      -4.367	    -159.307
	47.500000000	      -1.449	     173.096	      -1.188	      24.559	     -25.793	       0.512	      -4.310	    -159.620
	48.000000000	      -1.431	     172.834	      -1.305	      23.900	     -25.674	       1.089	      -4.270	    -159.895
	48.500000000	      -1.430	     172.508	      -1.424	      23.193	     -25.597	       0.229	      -4.220	    -160.196
	49.000000000	      -1.436	     172.313	      -1.536	      22.623	     -25.672	       0.488	      -4.148	    -160.416
	49.500000000	      -1.448	     172.089	      -1.658	      21.973	     -25.881	      -0.889	      -4.083	    -161.043
	50.000000000	      -1.435	     171.798	      -1.776	      21.423	     -26.056	      -0.208	      -4.063	    -161.238
	50.500000000	      -1.433	     171.624	      -1.873	      20.820	     -26.178	       0.432	      -4.035	    -161.786
	51.000000000	      -1.409	     171.349	      -1.990	      20.217	     -26.097	       2.177	      -4.001	    -162.062
	51.500000000	      -1.405	     171.151	      -2.081	      19.582	     -25.966	       2.235	      -3.959	    -162.401
	52.000000000	      -1.390	     170.951	      -2.191	      18.905	     -25.995	       1.533	      -3.917	    -162.667
	52.500000000	      -1.388	     170.569	      -2.303	      18.340	     -25.949	       1.868	      -3.876	    -162.763
	53.000000000	      -1.379	     170.242	      -2.408	      17.651	     -26.065	       2.517	      -3.830	    -162.897
	53.500000000	      -1.378	     170.139	      -2.500	      17.202	     -26.025	       1.792	      -3.768	    -163.313
	54.000000000	      -1.368	     169.864	      -2.603	      16.551	     -26.045	       2.503	      -3.690	    -163.465
	54.500000000	      -1.367	     169.488	      -2.698	      16.013	     -26.205	       2.467	      -3.656	    -163.769
	55.000000000	      -1.374	     169.113	      -2.788	      15.384	     -26.064	       2.583	      -3.608	    -164.011
	55.500000000	      -1.372	     168.872	      -2.877	      14.700	     -26.054	       3.039	      -3.564	    -164.404
	56.000000000	      -1.351	     168.559	      -2.969	      14.150	     -25.990	       1.166	      -3.519	    -164.913
	56.500000000	      -1.369	     168.459	      -3.083	      13.353	     -26.067	       1.495	      -3.507	    -165.474
	57.000000000	      -1.360	     168.269	      -3.189	      12.871	     -26.024	       0.194	      -3.473	    -165.598
	57.500000000	      -1.347	     168.112	      -3.285	      12.280	     -26.434	       2.330	      -3.436	    -165.967
	58.000000000	      -1.348	     167.937	      -3.379	      11.760	     -26.527	       2.274	      -3.398	    -166.211
	58.500000000	      -1.303	     167.659	      -3.462	      11.099	     -26.530	       3.701	      -3.355	    -166.539
	59.000000000	      -1.306	     167.289	      -3.532	      10.319	     -26.259	       2.754	      -3.311	    -166.785
	59.500000000	      -1.324	     167.226	      -3.649	       9.652	     -26.472	       2.751	      -3.249	    -167.051
	60.000000000	      -1.305	     167.018	      -3.739	       9.152	     -26.589	       3.596	      -3.278	    -167.329
	60.500000000	      -1.283	     166.804	      -3.844	       8.438	     -26.480	       2.897	      -3.269	    -167.499
	61.000000000	      -1.245	     166.536	      -3.946	       7.913	     -26.579	       4.039	      -3.224	    -167.679
	61.500000000	      -1.241	     166.199	      -4.049	       7.491	     -26.751	       3.583	      -3.192	    -167.964
	62.000000000	      -1.224	     165.930	      -4.110	       6.954	     -27.150	       4.188	      -3.169	    -168.017
	62.500000000	      -1.235	     165.620	      -4.196	       6.229	     -27.136	       6.678	      -3.165	    -168.246
	63.000000000	      -1.229	     165.220	      -4.277	       5.495	     -26.766	       6.780	      -3.107	    -168.228
	63.500000000	      -1.223	     165.120	      -4.360	       4.850	     -26.443	       5.963	      -3.041	    -168.666
	64.000000000	      -1.200	     165.102	      -4.437	       4.073	     -26.628	       5.799	      -2.983	    -168.637
	64.500000000	      -1.177	     164.996	      -4.508	       3.277	     -26.443	       5.330	      -2.944	    -168.701
	65.000000000	      -1.207	     164.645	      -4.640	       2.326	     -26.735	       3.916	      -2.906	    -168.820
	65.500000000	      -1.189	     164.211	      -4.757	       1.833	     -26.430	       4.749	      -2.855	    -169.557
	66.000000000	      -1.182	     163.906	      -4.875	       0.974	     -26.891	       2.727	      -2.846	    -170.035
	66.500000000	      -1.194	     163.750	      -4.967	       0.223	     -26.472	       5.771	      -2.804	    -169.807
	67.000000000	      -1.236	     163.407	      -5.121	      -0.238	     -26.814	       6.186	      -2.784	    -170.074
	67.500000000	      -1.238	     162.739	      -5.244	      -1.152	     -26.580	       4.773	      -2.769	    -170.541
	68.000000000	      -1.273	     162.574	      -5.350	      -1.723	     -26.590	       4.341	      -2.794	    -170.801
	68.500000000	      -1.304	     162.355	      -5.449	      -2.228	     -26.568	       4.315	      -2.760	    -171.002
	69.000000000	      -1.329	     162.175	      -5.578	      -2.809	     -26.649	       4.040	      -2.700	    -171.227
	69.500000000	      -1.322	     161.984	      -5.707	      -3.233	     -26.740	       3.796	      -2.680	    -171.364
	70.000000000	      -1.307	     161.826	      -5.800	      -3.698	     -26.786	       4.563	      -2.644	    -171.461
	70.500000000	      -1.289	     161.640	      -5.903	      -4.107	     -26.709	       4.776	      -2.615	    -171.674
	71.000000000	      -1.286	     161.422	      -5.981	      -4.439	     -26.727	       4.587	      -2.572	    -171.809
	71.500000000	      -1.228	     161.158	      -6.080	      -5.041	     -26.650	       4.454	      -2.509	    -172.069
	72.000000000	      -1.230	     160.934	      -6.198	      -5.469	     -26.648	       3.768	      -2.514	    -172.311
	72.500000000	      -1.261	     160.649	      -6.299	      -6.123	     -26.695	       3.000	      -2.491	    -172.566
	73.000000000	      -1.284	     160.453	      -6.393	      -6.672	     -26.805	       2.654	      -2.447	    -172.757
	73.500000000	      -1.298	     160.330	      -6.501	      -7.239	     -26.937	       2.727	      -2.379	    -173.063
	74.000000000	      -1.302	     160.082	      -6.601	      -7.717	     -26.989	       3.192	      -2.370	    -173.582
	74.500000000	      -1.329	     159.871	      -6.688	      -8.181	     -26.998	       3.242	      -2.382	    -173.844
	75.000000000	      -1.354	     159.811	      -6.786	      -8.797	     -27.069	       3.111	      -2.372	    -173.915
	75.500000000	      -1.386	     159.783	      -6.913	      -9.391	     -27.207	       2.824	      -2.361	    -174.128
	76.000000000	      -1.378	     159.864	      -7.040	      -9.943	     -27.485	       3.338	      -2.360	    -174.292
	76.500000000	      -1.370	     159.970	      -7.193	     -10.286	     -27.786	       5.927	      -2.360	    -174.248
	77.000000000	      -1.353	     159.958	      -7.331	     -10.372	     -27.776	       9.841	      -2.313	    -174.158
	77.500000000	      -1.287	     159.910	      -7.411	     -10.147	     -27.312	      13.176	      -2.246	    -174.189
	78.000000000	      -1.192	     159.731	      -7.428	     -10.053	     -26.711	      13.932	      -2.199	    -174.305
	78.500000000	      -1.143	     159.353	      -7.459	     -10.512	     -26.286	      12.911	      -2.150	    -174.625
	79.000000000	      -1.139	     158.683	      -7.496	     -11.032	     -25.943	      11.509	      -2.099	    -174.924
	79.500000000	      -1.143	     158.200	      -7.527	     -11.720	     -25.675	       9.897	      -2.056	    -175.108
