!File name = EG0520U_1010_6x60_2SDBCB2EV_1915934D06_RC2943_3.5Vd_54mA.s2p
!Base file name = EG0520U_1010_6x60_2SDBCB2EV_1915934D06_RC2943
!Date = 8/23/2019
!Time = 1:05 PM
!Test duration(min) = 0.15
!Test = S-Parameters
!MPTS version = 8.91.5
!State File = C:\Data\PNA\20190821205423\S-Parameters_2019-08-23.sta
!Cal File = 
!ComputerName = CMPE-LAB-6
!Comments = 
!Attenuation = 0
!Z0 = 50
!Input Power(dBm) = -13.00
!Device ID = EG0520U_1010_6x60_2SDBCB2EV
!Row = 29
!Column = 43
!Technology = QPHT09
!Lot/Wafer = 1915934D06
!Gate Size = 360
!Mask = EG0520
!Cal Standards = GaAs BCB
!Cal Kit = EG2306
!Job Number = 20190821205423
!Device Type = FET
!set_Vg(v) = -1.500
!set_Vd(v) = 3.500
!set_Vd(mA) = 54.000
!file_name = EG0520U_1010_6x60_2SDBCB2EV_1915934D06_RC2943_3.5Vd_54mA.s2p
!Vd(V) = 3.500
!Vd(mA) = 54.092
!Vg(V) = -0.440
!Vg(mA) = -0.001
# GHz   S   DB   R   50
!%	Freq(GHz)	     s11(dB)	    s11(deg)	     s21(dB)	    s21(deg)	     s12(dB)	    s12(deg)	     s22(dB)	    s22(deg)
	0.500000000	      -0.044	     -15.248	      22.607	     170.675	     -39.442	      81.106	      -9.179	     -16.190
	1.000000000	      -0.132	     -30.109	      22.128	     161.999	     -33.691	      73.218	      -9.196	     -30.802
	1.500000000	      -0.176	     -44.048	      21.743	     154.327	     -30.561	      65.666	      -9.112	     -44.724
	2.000000000	      -0.321	     -56.591	      21.475	     146.916	     -28.577	      58.765	      -9.075	     -58.165
	2.500000000	      -0.421	     -68.172	      21.005	     140.384	     -27.225	      52.868	      -9.146	     -68.903
	3.000000000	      -0.815	     -75.925	      20.303	     135.218	     -26.433	      48.497	      -9.536	     -73.309
	3.500000000	      -0.932	     -84.780	      19.716	     130.106	     -25.703	      44.080	      -9.560	     -81.381
	4.000000000	      -1.026	     -92.563	      19.131	     125.610	     -25.153	      40.186	      -9.573	     -88.414
	4.500000000	      -1.124	     -99.450	      18.556	     121.490	     -24.737	      36.709	      -9.577	     -94.786
	5.000000000	      -1.195	    -105.538	      17.984	     117.856	     -24.415	      33.726	      -9.589	    -100.124
	5.500000000	      -1.260	    -111.001	      17.439	     114.499	     -24.159	      31.090	      -9.607	    -104.815
	6.000000000	      -1.316	    -115.847	      16.900	     111.498	     -23.953	      28.713	      -9.591	    -108.850
	6.500000000	      -1.360	    -120.157	      16.387	     108.763	     -23.795	      26.594	      -9.575	    -112.416
	7.000000000	      -1.399	    -124.037	      15.893	     106.212	     -23.660	      24.715	      -9.552	    -115.527
	7.500000000	      -1.427	    -127.547	      15.413	     103.864	     -23.562	      22.996	      -9.528	    -118.325
	8.000000000	      -1.437	    -130.484	      14.975	     101.813	     -23.443	      21.625	      -9.530	    -120.093
	8.500000000	      -1.463	    -133.431	      14.533	      99.772	     -23.370	      20.149	      -9.502	    -122.320
	9.000000000	      -1.489	    -136.077	      14.104	      97.862	     -23.313	      18.778	      -9.467	    -124.279
	9.500000000	      -1.505	    -138.538	      13.701	      96.012	     -23.267	      17.511	      -9.425	    -126.030
	10.000000000	      -1.517	    -140.815	      13.310	      94.272	     -23.242	      16.287	      -9.386	    -127.706
	10.500000000	      -1.534	    -142.954	      12.934	      92.579	     -23.231	      15.233	      -9.347	    -129.167
	11.000000000	      -1.546	    -144.898	      12.571	      90.997	     -23.212	      14.277	      -9.305	    -130.481
	11.500000000	      -1.563	    -146.739	      12.217	      89.465	     -23.214	      13.312	      -9.263	    -131.645
	12.000000000	      -1.576	    -148.442	      11.878	      88.008	     -23.223	      12.507	      -9.209	    -132.695
	12.500000000	      -1.584	    -150.015	      11.547	      86.600	     -23.219	      11.772	      -9.152	    -133.767
	13.000000000	      -1.594	    -151.493	      11.227	      85.226	     -23.229	      11.020	      -9.100	    -134.707
	13.500000000	      -1.600	    -152.893	      10.921	      83.919	     -23.239	      10.289	      -9.036	    -135.472
	14.000000000	      -1.609	    -154.254	      10.620	      82.629	     -23.261	       9.637	      -8.972	    -136.229
	14.500000000	      -1.613	    -155.474	      10.330	      81.374	     -23.292	       9.052	      -8.919	    -137.029
	15.000000000	      -1.617	    -156.578	      10.045	      80.171	     -23.323	       8.527	      -8.866	    -137.736
	15.500000000	      -1.623	    -157.674	       9.770	      78.977	     -23.345	       8.098	      -8.807	    -138.301
	16.000000000	      -1.627	    -158.760	       9.502	      77.810	     -23.353	       7.590	      -8.735	    -138.845
	16.500000000	      -1.630	    -159.801	       9.240	      76.667	     -23.391	       7.046	      -8.668	    -139.386
	17.000000000	      -1.631	    -160.777	       8.987	      75.556	     -23.430	       6.575	      -8.611	    -139.863
	17.500000000	      -1.638	    -161.658	       8.736	      74.464	     -23.452	       6.217	      -8.538	    -140.413
	18.000000000	      -1.647	    -162.524	       8.496	      73.402	     -23.500	       5.752	      -8.470	    -140.941
	18.500000000	      -1.647	    -163.379	       8.261	      72.349	     -23.513	       5.318	      -8.390	    -141.368
	19.000000000	      -1.647	    -164.203	       8.028	      71.305	     -23.570	       4.829	      -8.320	    -141.798
	19.500000000	      -1.646	    -164.977	       7.802	      70.300	     -23.654	       4.500	      -8.263	    -142.166
	20.000000000	      -1.654	    -165.693	       7.583	      69.320	     -23.717	       4.466	      -8.205	    -142.551
	20.500000000	      -1.655	    -166.375	       7.374	      68.326	     -23.734	       4.415	      -8.125	    -142.878
	21.000000000	      -1.654	    -167.057	       7.162	      67.345	     -23.741	       4.166	      -8.044	    -143.265
	21.500000000	      -1.646	    -167.775	       6.955	      66.364	     -23.782	       3.802	      -7.968	    -143.581
	22.000000000	      -1.644	    -168.346	       6.753	      65.422	     -23.815	       3.443	      -7.892	    -143.917
	22.500000000	      -1.642	    -168.949	       6.552	      64.461	     -23.861	       3.060	      -7.824	    -144.298
	23.000000000	      -1.647	    -169.541	       6.352	      63.530	     -23.919	       2.679	      -7.755	    -144.752
	23.500000000	      -1.645	    -170.144	       6.159	      62.656	     -24.044	       2.549	      -7.689	    -145.174
	24.000000000	      -1.646	    -170.703	       5.976	      61.784	     -24.135	       2.838	      -7.625	    -145.411
	24.500000000	      -1.635	    -171.135	       5.799	      60.874	     -24.123	       2.997	      -7.555	    -145.586
	25.000000000	      -1.616	    -171.597	       5.620	      59.928	     -24.107	       2.916	      -7.476	    -145.785
	25.500000000	      -1.610	    -172.188	       5.440	      59.049	     -24.161	       2.515	      -7.395	    -146.151
	26.000000000	      -1.614	    -172.772	       5.259	      58.165	     -24.206	       2.012	      -7.307	    -146.529
	26.500000000	      -1.613	    -173.263	       5.085	      57.299	     -24.272	       2.005	      -7.227	    -146.858
	27.000000000	      -1.605	    -173.617	       4.917	      56.467	     -24.339	       1.847	      -7.161	    -147.167
	27.500000000	      -1.599	    -173.975	       4.758	      55.685	     -24.477	       2.150	      -7.102	    -147.337
	28.000000000	      -1.588	    -174.496	       4.604	      54.821	     -24.510	       2.307	      -7.027	    -147.659
	28.500000000	      -1.579	    -174.993	       4.447	      53.886	     -24.455	       2.376	      -6.934	    -147.980
	29.000000000	      -1.569	    -175.404	       4.282	      52.994	     -24.495	       2.003	      -6.857	    -148.325
	29.500000000	      -1.562	    -175.831	       4.122	      52.160	     -24.594	       1.933	      -6.791	    -148.658
	30.000000000	      -1.557	    -176.214	       3.966	      51.382	     -24.644	       1.768	      -6.726	    -148.940
	30.500000000	      -1.551	    -176.652	       3.814	      50.532	     -24.691	       1.616	      -6.661	    -149.250
	31.000000000	      -1.540	    -177.106	       3.661	      49.718	     -24.777	       1.336	      -6.599	    -149.577
	31.500000000	      -1.525	    -177.518	       3.519	      48.945	     -24.880	       1.998	      -6.539	    -149.865
	32.000000000	      -1.526	    -177.848	       3.373	      48.077	     -24.900	       2.295	      -6.464	    -150.090
	32.500000000	      -1.532	    -178.298	       3.224	      47.213	     -24.907	       2.208	      -6.386	    -150.301
	33.000000000	      -1.533	    -178.682	       3.081	      46.454	     -24.906	       1.944	      -6.317	    -150.581
	33.500000000	      -1.517	    -179.018	       2.934	      45.634	     -25.054	       2.056	      -6.251	    -150.945
	34.000000000	      -1.503	    -179.390	       2.789	      44.876	     -25.054	       1.904	      -6.177	    -151.372
	34.500000000	      -1.501	    -179.799	       2.637	      44.025	     -25.146	       2.070	      -6.094	    -151.614
	35.000000000	      -1.499	     179.831	       2.492	      43.285	     -25.249	       1.992	      -6.032	    -152.037
	35.500000000	      -1.496	     179.438	       2.367	      42.488	     -25.221	       2.691	      -5.980	    -152.221
	36.000000000	      -1.490	     179.092	       2.232	      41.677	     -25.198	       2.694	      -5.905	    -152.515
	36.500000000	      -1.480	     178.821	       2.093	      40.897	     -25.253	       2.453	      -5.828	    -152.874
	37.000000000	      -1.480	     178.552	       1.953	      40.155	     -25.273	       2.605	      -5.768	    -153.169
	37.500000000	      -1.483	     178.185	       1.813	      39.405	     -25.338	       1.893	      -5.719	    -153.516
	38.000000000	      -1.477	     177.831	       1.682	      38.705	     -25.432	       2.398	      -5.641	    -153.733
	38.500000000	      -1.464	     177.475	       1.542	      37.956	     -25.553	       2.153	      -5.585	    -154.140
	39.000000000	      -1.462	     177.169	       1.409	      37.251	     -25.661	       2.676	      -5.525	    -154.494
	39.500000000	      -1.471	     176.913	       1.279	      36.605	     -25.689	       2.592	      -5.458	    -154.791
	40.000000000	      -1.477	     176.588	       1.162	      35.907	     -25.729	       2.952	      -5.391	    -155.077
	40.500000000	      -1.474	     176.222	       1.039	      35.204	     -25.718	       3.336	      -5.314	    -155.371
	41.000000000	      -1.456	     175.996	       0.919	      34.465	     -25.803	       4.235	      -5.251	    -155.834
	41.500000000	      -1.450	     175.798	       0.802	      33.754	     -25.848	       3.210	      -5.208	    -156.031
	42.000000000	      -1.452	     175.546	       0.675	      33.030	     -25.831	       3.511	      -5.139	    -156.250
	42.500000000	      -1.465	     175.165	       0.551	      32.380	     -25.929	       3.503	      -5.079	    -156.437
	43.000000000	      -1.470	     174.981	       0.444	      31.765	     -26.103	       4.383	      -5.009	    -156.695
	43.500000000	      -1.453	     174.792	       0.329	      30.985	     -26.064	       4.337	      -4.961	    -157.166
	44.000000000	      -1.454	     174.514	       0.212	      30.238	     -25.956	       4.965	      -4.889	    -157.523
	44.500000000	      -1.460	     174.161	       0.087	      29.546	     -26.037	       4.963	      -4.825	    -157.823
	45.000000000	      -1.465	     173.870	      -0.035	      28.883	     -26.033	       4.533	      -4.767	    -158.216
	45.500000000	      -1.416	     173.550	      -0.314	      28.278	     -26.316	       4.470	      -4.627	    -159.141
	46.000000000	      -1.397	     173.275	      -0.439	      27.648	     -26.398	       4.791	      -4.578	    -159.506
	46.500000000	      -1.385	     172.937	      -0.547	      27.065	     -26.561	       5.277	      -4.505	    -159.657
	47.000000000	      -1.390	     172.628	      -0.648	      26.401	     -26.607	       6.882	      -4.443	    -159.940
	47.500000000	      -1.386	     172.374	      -0.767	      25.715	     -26.465	       6.424	      -4.394	    -160.192
	48.000000000	      -1.367	     172.062	      -0.889	      25.020	     -26.431	       5.719	      -4.353	    -160.463
	48.500000000	      -1.363	     171.817	      -1.002	      24.352	     -26.509	       5.942	      -4.284	    -160.802
	49.000000000	      -1.375	     171.597	      -1.118	      23.767	     -26.665	       6.916	      -4.224	    -161.091
	49.500000000	      -1.379	     171.371	      -1.223	      23.193	     -26.654	       5.773	      -4.176	    -161.410
	50.000000000	      -1.374	     171.195	      -1.342	      22.590	     -26.776	       5.883	      -4.117	    -161.755
	50.500000000	      -1.360	     170.840	      -1.441	      21.928	     -26.865	       7.828	      -4.091	    -162.268
	51.000000000	      -1.344	     170.600	      -1.557	      21.384	     -26.805	       9.381	      -4.082	    -162.694
	51.500000000	      -1.338	     170.488	      -1.649	      20.777	     -26.751	       8.541	      -4.022	    -162.886
	52.000000000	      -1.328	     170.268	      -1.770	      20.143	     -26.713	       8.310	      -3.978	    -163.146
	52.500000000	      -1.323	     169.899	      -1.872	      19.486	     -26.738	       8.840	      -3.950	    -163.264
	53.000000000	      -1.316	     169.557	      -1.981	      18.883	     -26.833	       8.753	      -3.897	    -163.414
	53.500000000	      -1.313	     169.403	      -2.086	      18.396	     -26.900	       9.000	      -3.843	    -163.639
	54.000000000	      -1.306	     169.202	      -2.183	      17.804	     -26.830	       9.062	      -3.770	    -163.972
	54.500000000	      -1.300	     168.823	      -2.275	      17.238	     -26.882	       8.843	      -3.721	    -164.210
	55.000000000	      -1.309	     168.457	      -2.368	      16.595	     -26.805	      10.633	      -3.665	    -164.485
	55.500000000	      -1.299	     168.211	      -2.459	      15.954	     -26.846	       9.045	      -3.622	    -164.826
	56.000000000	      -1.298	     167.987	      -2.553	      15.361	     -26.728	       9.345	      -3.579	    -165.353
	56.500000000	      -1.297	     167.643	      -2.667	      14.630	     -26.718	       8.600	      -3.584	    -165.622
	57.000000000	      -1.303	     167.637	      -2.749	      14.106	     -27.108	       9.267	      -3.546	    -165.950
	57.500000000	      -1.294	     167.383	      -2.876	      13.483	     -26.969	       8.424	      -3.495	    -166.280
	58.000000000	      -1.269	     167.242	      -2.964	      12.944	     -27.012	       9.524	      -3.473	    -166.570
	58.500000000	      -1.251	     167.075	      -3.033	      12.277	     -27.248	      10.745	      -3.424	    -166.899
	59.000000000	      -1.263	     166.747	      -3.121	      11.705	     -27.294	      10.217	      -3.368	    -167.090
	59.500000000	      -1.242	     166.519	      -3.227	      10.962	     -26.999	      11.405	      -3.318	    -167.469
	60.000000000	      -1.259	     166.414	      -3.326	      10.299	     -26.955	       8.923	      -3.354	    -167.689
	60.500000000	      -1.219	     166.204	      -3.420	       9.711	     -27.387	      10.074	      -3.332	    -167.818
	61.000000000	      -1.187	     165.927	      -3.540	       9.218	     -27.527	      10.029	      -3.271	    -168.080
	61.500000000	      -1.180	     165.606	      -3.637	       8.711	     -27.218	      10.798	      -3.253	    -168.201
	62.000000000	      -1.163	     165.402	      -3.712	       8.083	     -27.471	      13.478	      -3.225	    -168.445
	62.500000000	      -1.184	     164.925	      -3.777	       7.511	     -27.086	      13.452	      -3.206	    -168.424
	63.000000000	      -1.168	     164.573	      -3.849	       6.889	     -27.229	      12.931	      -3.156	    -168.430
	63.500000000	      -1.153	     164.603	      -3.947	       6.131	     -27.309	      12.058	      -3.093	    -169.009
	64.000000000	      -1.145	     164.608	      -4.018	       5.382	     -27.307	      12.919	      -3.037	    -168.860
	64.500000000	      -1.117	     164.409	      -4.106	       4.527	     -27.123	      13.963	      -2.993	    -168.847
	65.000000000	      -1.134	     164.102	      -4.214	       3.731	     -26.921	      13.400	      -2.959	    -169.245
	65.500000000	      -1.140	     163.583	      -4.353	       3.011	     -27.044	      12.571	      -2.914	    -169.896
	66.000000000	      -1.121	     163.304	      -4.467	       2.309	     -27.305	      13.751	      -2.890	    -170.222
	66.500000000	      -1.148	     163.121	      -4.561	       1.449	     -27.297	      10.690	      -2.832	    -170.213
	67.000000000	      -1.179	     162.777	      -4.689	       1.072	     -27.025	      13.581	      -2.838	    -170.261
	67.500000000	      -1.175	     162.073	      -4.820	       0.260	     -27.040	      12.325	      -2.827	    -170.793
	68.000000000	      -1.214	     161.913	      -4.931	      -0.324	     -26.946	      12.000	      -2.864	    -171.126
	68.500000000	      -1.239	     161.724	      -5.033	      -0.812	     -26.995	      11.626	      -2.823	    -171.132
	69.000000000	      -1.268	     161.543	      -5.168	      -1.388	     -27.028	      11.052	      -2.756	    -171.369
	69.500000000	      -1.268	     161.341	      -5.284	      -1.783	     -27.140	      11.064	      -2.732	    -171.539
	70.000000000	      -1.248	     161.168	      -5.387	      -2.222	     -27.144	      11.704	      -2.706	    -171.654
	70.500000000	      -1.234	     161.005	      -5.486	      -2.638	     -27.082	      12.070	      -2.672	    -171.804
	71.000000000	      -1.230	     160.824	      -5.570	      -3.035	     -27.043	      11.967	      -2.638	    -172.010
	71.500000000	      -1.189	     160.683	      -5.690	      -3.567	     -27.066	      11.764	      -2.551	    -172.233
	72.000000000	      -1.177	     160.326	      -5.784	      -4.028	     -26.998	      10.950	      -2.569	    -172.466
	72.500000000	      -1.201	     160.020	      -5.884	      -4.628	     -27.060	      10.104	      -2.543	    -172.756
	73.000000000	      -1.222	     159.802	      -5.981	      -5.198	     -27.151	      10.091	      -2.501	    -172.924
	73.500000000	      -1.245	     159.700	      -6.089	      -5.794	     -27.317	      10.013	      -2.430	    -173.177
	74.000000000	      -1.250	     159.451	      -6.188	      -6.267	     -27.352	      10.461	      -2.423	    -173.712
	74.500000000	      -1.278	     159.252	      -6.278	      -6.763	     -27.374	      10.624	      -2.435	    -173.956
	75.000000000	      -1.305	     159.203	      -6.378	      -7.359	     -27.404	      10.556	      -2.413	    -174.055
	75.500000000	      -1.332	     159.167	      -6.506	      -7.966	     -27.550	      10.375	      -2.408	    -174.242
	76.000000000	      -1.335	     159.246	      -6.633	      -8.518	     -27.824	      11.227	      -2.409	    -174.398
	76.500000000	      -1.324	     159.373	      -6.785	      -8.857	     -28.091	      13.894	      -2.408	    -174.372
	77.000000000	      -1.311	     159.435	      -6.928	      -8.912	     -27.955	      17.934	      -2.366	    -174.243
	77.500000000	      -1.248	     159.389	      -7.009	      -8.735	     -27.421	      20.660	      -2.289	    -174.300
	78.000000000	      -1.161	     159.214	      -7.036	      -8.697	     -26.822	      20.867	      -2.245	    -174.421
	78.500000000	      -1.094	     158.753	      -7.057	      -9.090	     -26.376	      19.639	      -2.204	    -174.691
	79.000000000	      -1.082	     158.200	      -7.103	      -9.623	     -26.096	      18.051	      -2.140	    -175.010
	79.500000000	      -1.091	     157.625	      -7.129	     -10.312	     -25.835	      16.174	      -2.103	    -175.220
