!File name = EG0520U_1010_6x60_2SDBCB2EV_1915934D06_RC7325_2.5Vd_36mA.s2p
!Base file name = EG0520U_1010_6x60_2SDBCB2EV_1915934D06_RC7325
!Date = 8/23/2019
!Time = 1:08 PM
!Test duration(min) = 0.15
!Test = S-Parameters
!MPTS version = 8.91.5
!State File = C:\Data\PNA\20190821205423\S-Parameters_2019-08-23.sta
!Cal File = 
!ComputerName = CMPE-LAB-6
!Comments = 
!Attenuation = 0
!Z0 = 50
!Input Power(dBm) = -13.00
!Device ID = EG0520U_1010_6x60_2SDBCB2EV
!Row = 73
!Column = 25
!Technology = QPHT09
!Lot/Wafer = 1915934D06
!Gate Size = 360
!Mask = EG0520
!Cal Standards = GaAs BCB
!Cal Kit = EG2306
!Job Number = 20190821205423
!Device Type = FET
!set_Vg(v) = -1.500
!set_Vd(v) = 2.500
!set_Vd(mA) = 36.000
!file_name = EG0520U_1010_6x60_2SDBCB2EV_1915934D06_RC7325_2.5Vd_36mA.s2p
!Vd(V) = 2.500
!Vd(mA) = 36.010
!Vg(V) = -0.529
!Vg(mA) = -0.001
# GHz   S   DB   R   50
!%	Freq(GHz)	     s11(dB)	    s11(deg)	     s21(dB)	    s21(deg)	     s12(dB)	    s12(deg)	     s22(dB)	    s22(deg)
	0.500000000	      -0.035	     -14.130	      21.505	     171.471	     -38.608	      81.667	     -10.760	     -18.817
	1.000000000	      -0.116	     -27.960	      21.129	     163.035	     -32.814	      74.164	     -10.543	     -35.763
	1.500000000	      -0.158	     -41.049	      20.803	     156.109	     -29.647	      66.910	     -10.130	     -51.320
	2.000000000	      -0.304	     -53.069	      20.527	     148.727	     -27.618	      60.152	      -9.720	     -65.865
	2.500000000	      -0.399	     -64.204	      20.119	     142.471	     -26.223	      54.445	      -9.494	     -77.281
	3.000000000	      -0.794	     -71.806	      19.443	     137.447	     -25.386	      50.194	      -9.735	     -82.257
	3.500000000	      -0.915	     -80.547	      18.915	     132.410	     -24.611	      45.800	      -9.508	     -90.513
	4.000000000	      -1.017	     -88.274	      18.367	     128.055	     -24.017	      41.893	      -9.304	     -97.575
	4.500000000	      -1.129	     -95.157	      17.815	     123.892	     -23.575	      38.356	      -9.123	    -103.899
	5.000000000	      -1.205	    -101.263	      17.278	     120.362	     -23.225	      35.330	      -8.990	    -109.176
	5.500000000	      -1.280	    -106.827	      16.752	     117.018	     -22.951	      32.653	      -8.890	    -113.794
	6.000000000	      -1.344	    -111.767	      16.242	     114.004	     -22.720	      30.222	      -8.776	    -117.699
	6.500000000	      -1.395	    -116.174	      15.744	     111.320	     -22.540	      28.055	      -8.681	    -121.121
	7.000000000	      -1.442	    -120.157	      15.266	     108.771	     -22.387	      26.102	      -8.594	    -124.114
	7.500000000	      -1.475	    -123.735	      14.802	     106.458	     -22.270	      24.345	      -8.516	    -126.769
	8.000000000	      -1.490	    -126.778	      14.375	     104.420	     -22.144	      22.868	      -8.488	    -128.564
	8.500000000	      -1.522	    -129.815	      13.945	     102.405	     -22.060	      21.351	      -8.432	    -130.710
	9.000000000	      -1.554	    -132.532	      13.523	     100.527	     -21.991	      19.941	      -8.374	    -132.601
	9.500000000	      -1.575	    -135.076	      13.130	      98.699	     -21.933	      18.608	      -8.318	    -134.268
	10.000000000	      -1.591	    -137.413	      12.748	      97.004	     -21.896	      17.378	      -8.266	    -135.870
	10.500000000	      -1.614	    -139.612	      12.378	      95.347	     -21.872	      16.310	      -8.220	    -137.262
	11.000000000	      -1.626	    -141.603	      12.023	      93.825	     -21.847	      15.312	      -8.174	    -138.502
	11.500000000	      -1.646	    -143.507	      11.675	      92.329	     -21.832	      14.339	      -8.132	    -139.611
	12.000000000	      -1.660	    -145.254	      11.343	      90.920	     -21.818	      13.500	      -8.081	    -140.594
	12.500000000	      -1.668	    -146.885	      11.020	      89.569	     -21.806	      12.655	      -8.030	    -141.576
	13.000000000	      -1.678	    -148.417	      10.708	      88.238	     -21.803	      11.860	      -7.982	    -142.515
	13.500000000	      -1.689	    -149.878	      10.405	      86.978	     -21.810	      11.076	      -7.931	    -143.245
	14.000000000	      -1.699	    -151.262	      10.112	      85.751	     -21.819	      10.436	      -7.882	    -143.933
	14.500000000	      -1.704	    -152.518	       9.827	      84.553	     -21.830	       9.801	      -7.837	    -144.661
	15.000000000	      -1.709	    -153.641	       9.548	      83.408	     -21.843	       9.226	      -7.800	    -145.360
	15.500000000	      -1.714	    -154.768	       9.279	      82.267	     -21.846	       8.700	      -7.755	    -145.897
	16.000000000	      -1.718	    -155.883	       9.017	      81.159	     -21.852	       8.065	      -7.702	    -146.415
	16.500000000	      -1.722	    -156.961	       8.762	      80.068	     -21.870	       7.479	      -7.656	    -146.873
	17.000000000	      -1.723	    -157.966	       8.514	      79.007	     -21.899	       6.976	      -7.611	    -147.398
	17.500000000	      -1.731	    -158.870	       8.268	      77.970	     -21.916	       6.498	      -7.564	    -147.871
	18.000000000	      -1.741	    -159.760	       8.034	      76.962	     -21.950	       6.015	      -7.515	    -148.345
	18.500000000	      -1.742	    -160.628	       7.803	      75.972	     -21.964	       5.524	      -7.460	    -148.709
	19.000000000	      -1.740	    -161.472	       7.576	      74.986	     -22.004	       5.040	      -7.412	    -149.026
	19.500000000	      -1.738	    -162.262	       7.358	      74.034	     -22.052	       4.674	      -7.372	    -149.457
	20.000000000	      -1.745	    -163.017	       7.144	      73.099	     -22.105	       4.483	      -7.334	    -149.789
	20.500000000	      -1.748	    -163.725	       6.938	      72.167	     -22.123	       4.347	      -7.283	    -150.072
	21.000000000	      -1.748	    -164.420	       6.733	      71.249	     -22.132	       4.052	      -7.226	    -150.373
	21.500000000	      -1.740	    -165.156	       6.532	      70.325	     -22.151	       3.688	      -7.175	    -150.643
	22.000000000	      -1.732	    -165.768	       6.336	      69.431	     -22.178	       3.248	      -7.124	    -150.881
	22.500000000	      -1.731	    -166.427	       6.139	      68.507	     -22.190	       2.772	      -7.077	    -151.243
	23.000000000	      -1.733	    -167.063	       5.946	      67.625	     -22.233	       2.432	      -7.025	    -151.632
	23.500000000	      -1.735	    -167.728	       5.755	      66.772	     -22.323	       1.971	      -6.980	    -152.043
	24.000000000	      -1.745	    -168.332	       5.571	      65.971	     -22.415	       1.983	      -6.951	    -152.239
	24.500000000	      -1.741	    -168.753	       5.399	      65.142	     -22.424	       2.056	      -6.906	    -152.308
	25.000000000	      -1.725	    -169.253	       5.226	      64.266	     -22.405	       1.894	      -6.851	    -152.445
	25.500000000	      -1.728	    -169.822	       5.047	      63.448	     -22.428	       1.572	      -6.791	    -152.700
	26.000000000	      -1.731	    -170.372	       4.877	      62.639	     -22.473	       1.209	      -6.725	    -153.016
	26.500000000	      -1.725	    -170.862	       4.709	      61.814	     -22.497	       0.874	      -6.666	    -153.271
	27.000000000	      -1.716	    -171.265	       4.544	      61.025	     -22.584	       0.540	      -6.622	    -153.511
	27.500000000	      -1.721	    -171.685	       4.383	      60.323	     -22.701	       0.629	      -6.597	    -153.627
	28.000000000	      -1.720	    -172.173	       4.233	      59.543	     -22.781	       0.822	      -6.548	    -153.835
	28.500000000	      -1.700	    -172.632	       4.089	      58.672	     -22.696	       1.148	      -6.468	    -153.997
	29.000000000	      -1.695	    -173.104	       3.928	      57.822	     -22.695	       0.675	      -6.416	    -154.317
	29.500000000	      -1.689	    -173.540	       3.772	      57.049	     -22.728	       0.228	      -6.364	    -154.548
	30.000000000	      -1.693	    -173.946	       3.619	      56.335	     -22.807	       0.009	      -6.324	    -154.716
	30.500000000	      -1.693	    -174.380	       3.471	      55.566	     -22.825	      -0.163	      -6.276	    -154.987
	31.000000000	      -1.686	    -174.827	       3.324	      54.844	     -22.887	      -0.471	      -6.231	    -155.219
	31.500000000	      -1.674	    -175.204	       3.194	      54.136	     -22.988	       0.045	      -6.185	    -155.404
	32.000000000	      -1.671	    -175.514	       3.056	      53.332	     -22.962	       0.274	      -6.136	    -155.556
	32.500000000	      -1.682	    -175.943	       2.914	      52.518	     -22.959	      -0.080	      -6.073	    -155.704
	33.000000000	      -1.680	    -176.378	       2.773	      51.797	     -22.967	      -0.164	      -6.023	    -155.955
	33.500000000	      -1.669	    -176.765	       2.628	      51.100	     -23.065	      -0.459	      -5.979	    -156.245
	34.000000000	      -1.662	    -177.122	       2.494	      50.331	     -23.112	      -0.621	      -5.928	    -156.527
	34.500000000	      -1.662	    -177.498	       2.347	      49.605	     -23.118	      -1.096	      -5.865	    -156.687
	35.000000000	      -1.666	    -177.843	       2.213	      48.950	     -23.216	      -1.208	      -5.816	    -157.005
	35.500000000	      -1.665	    -178.204	       2.095	      48.262	     -23.250	      -0.548	      -5.776	    -157.150
	36.000000000	      -1.658	    -178.520	       1.972	      47.511	     -23.236	      -0.764	      -5.725	    -157.334
	36.500000000	      -1.643	    -178.743	       1.847	      46.787	     -23.251	      -1.180	      -5.667	    -157.535
	37.000000000	      -1.637	    -179.009	       1.720	      46.081	     -23.266	      -1.134	      -5.619	    -157.779
	37.500000000	      -1.635	    -179.407	       1.593	      45.361	     -23.331	      -1.263	      -5.583	    -157.993
	38.000000000	      -1.628	    -179.756	       1.464	      44.692	     -23.388	      -1.593	      -5.528	    -158.217
	38.500000000	      -1.622	     179.887	       1.335	      44.032	     -23.487	      -2.080	      -5.477	    -158.539
	39.000000000	      -1.610	     179.666	       1.220	      43.366	     -23.527	      -1.686	      -5.431	    -158.784
	39.500000000	      -1.606	     179.444	       1.108	      42.749	     -23.586	      -1.520	      -5.379	    -158.985
	40.000000000	      -1.597	     178.984	       1.000	      41.986	     -23.543	      -1.251	      -5.316	    -159.310
	40.500000000	      -1.591	     178.540	       0.873	      41.262	     -23.606	      -1.422	      -5.259	    -159.490
	41.000000000	      -1.581	     178.208	       0.755	      40.565	     -23.663	      -2.235	      -5.230	    -159.803
	41.500000000	      -1.576	     178.008	       0.638	      39.934	     -23.711	      -1.928	      -5.194	    -159.986
	42.000000000	      -1.579	     177.722	       0.523	      39.264	     -23.786	      -1.945	      -5.143	    -160.090
	42.500000000	      -1.599	     177.343	       0.408	      38.677	     -23.789	      -2.617	      -5.089	    -160.155
	43.000000000	      -1.593	     177.110	       0.312	      38.077	     -23.910	      -1.919	      -5.037	    -160.370
	43.500000000	      -1.578	     176.859	       0.204	      37.346	     -23.939	      -1.552	      -5.006	    -160.756
	44.000000000	      -1.585	     176.639	       0.087	      36.648	     -23.875	      -1.688	      -4.944	    -161.031
	44.500000000	      -1.597	     176.177	      -0.032	      35.970	     -23.860	      -1.408	      -4.891	    -161.307
	45.000000000	      -1.600	     175.886	      -0.140	      35.331	     -23.972	      -2.166	      -4.840	    -161.525
	45.500000000	      -1.555	     175.473	      -0.416	      34.820	     -24.184	      -2.066	      -4.707	    -162.358
	46.000000000	      -1.531	     175.205	      -0.538	      34.242	     -24.325	      -2.742	      -4.658	    -162.616
	46.500000000	      -1.523	     174.903	      -0.629	      33.678	     -24.344	      -2.299	      -4.602	    -162.690
	47.000000000	      -1.531	     174.516	      -0.722	      33.003	     -24.385	      -1.767	      -4.545	    -162.971
	47.500000000	      -1.520	     174.225	      -0.833	      32.358	     -24.517	      -1.556	      -4.509	    -163.084
	48.000000000	      -1.504	     173.909	      -0.943	      31.740	     -24.367	      -1.946	      -4.471	    -163.297
	48.500000000	      -1.500	     173.605	      -1.051	      31.121	     -24.353	      -1.988	      -4.428	    -163.432
	49.000000000	      -1.514	     173.393	      -1.159	      30.526	     -24.374	      -2.249	      -4.366	    -163.749
	49.500000000	      -1.521	     173.143	      -1.251	      29.971	     -24.559	      -1.915	      -4.318	    -164.004
	50.000000000	      -1.510	     172.868	      -1.360	      29.409	     -24.732	      -1.496	      -4.273	    -164.172
	50.500000000	      -1.492	     172.575	      -1.451	      28.777	     -24.617	      -1.800	      -4.259	    -164.667
	51.000000000	      -1.493	     172.274	      -1.566	      28.253	     -24.790	      -1.243	      -4.250	    -164.985
	51.500000000	      -1.489	     172.116	      -1.668	      27.633	     -24.649	      -0.690	      -4.199	    -165.240
	52.000000000	      -1.467	     171.888	      -1.762	      26.956	     -24.633	      -1.109	      -4.162	    -165.554
	52.500000000	      -1.463	     171.510	      -1.861	      26.412	     -24.687	      -1.568	      -4.126	    -165.593
	53.000000000	      -1.461	     171.158	      -1.963	      25.845	     -24.720	      -1.667	      -4.093	    -165.704
	53.500000000	      -1.452	     170.965	      -2.068	      25.294	     -24.834	      -2.085	      -4.050	    -165.937
	54.000000000	      -1.450	     170.716	      -2.146	      24.889	     -24.738	      -1.884	      -3.987	    -166.213
	54.500000000	      -1.447	     170.287	      -2.234	      24.285	     -24.822	      -1.479	      -3.954	    -166.318
	55.000000000	      -1.459	     169.880	      -2.311	      23.687	     -24.729	      -0.936	      -3.909	    -166.519
	55.500000000	      -1.454	     169.606	      -2.399	      23.052	     -24.674	      -2.168	      -3.874	    -166.728
	56.000000000	      -1.438	     169.224	      -2.493	      22.466	     -24.690	      -2.583	      -3.838	    -167.127
	56.500000000	      -1.457	     169.083	      -2.602	      21.827	     -24.709	      -3.523	      -3.807	    -167.714
	57.000000000	      -1.437	     168.834	      -2.686	      21.375	     -24.985	      -2.914	      -3.817	    -167.671
	57.500000000	      -1.457	     168.614	      -2.780	      20.709	     -24.991	      -3.980	      -3.758	    -167.959
	58.000000000	      -1.437	     168.579	      -2.860	      20.092	     -24.959	      -1.598	      -3.726	    -168.202
	58.500000000	      -1.410	     168.289	      -2.951	      19.446	     -25.275	      -2.737	      -3.686	    -168.583
	59.000000000	      -1.394	     167.835	      -3.022	      18.788	     -24.801	      -2.092	      -3.652	    -168.858
	59.500000000	      -1.412	     167.693	      -3.103	      18.116	     -24.991	      -2.108	      -3.598	    -168.965
	60.000000000	      -1.410	     167.449	      -3.191	      17.556	     -25.128	      -1.860	      -3.620	    -169.183
	60.500000000	      -1.373	     167.357	      -3.297	      16.955	     -25.116	      -4.142	      -3.611	    -169.239
	61.000000000	      -1.343	     166.942	      -3.391	      16.332	     -25.214	      -3.267	      -3.570	    -169.481
	61.500000000	      -1.346	     166.716	      -3.502	      15.915	     -25.375	      -4.251	      -3.535	    -169.573
	62.000000000	      -1.336	     166.429	      -3.568	      15.239	     -25.183	      -3.809	      -3.522	    -169.725
	62.500000000	      -1.338	     166.062	      -3.650	      14.765	     -25.693	      -2.856	      -3.510	    -169.869
	63.000000000	      -1.308	     165.692	      -3.715	      14.149	     -25.323	      -1.571	      -3.468	    -169.931
	63.500000000	      -1.310	     165.424	      -3.794	      13.337	     -25.307	      -2.140	      -3.415	    -170.183
	64.000000000	      -1.307	     165.578	      -3.884	      12.707	     -25.365	      -1.799	      -3.348	    -170.233
	64.500000000	      -1.296	     165.438	      -3.937	      12.024	     -25.315	      -3.311	      -3.312	    -169.952
	65.000000000	      -1.300	     164.932	      -4.034	      11.155	     -25.095	      -3.503	      -3.236	    -170.324
	65.500000000	      -1.285	     164.422	      -4.154	      10.536	     -25.373	      -4.806	      -3.224	    -171.165
	66.000000000	      -1.284	     164.130	      -4.285	       9.680	     -25.220	      -1.949	      -3.205	    -171.430
	66.500000000	      -1.305	     163.980	      -4.375	       9.112	     -25.495	      -3.106	      -3.198	    -171.228
	67.000000000	      -1.348	     163.508	      -4.464	       8.515	     -25.149	       0.074	      -3.157	    -171.386
	67.500000000	      -1.339	     162.878	      -4.629	       7.679	     -25.359	      -3.476	      -3.155	    -171.808
	68.000000000	      -1.381	     162.632	      -4.720	       7.049	     -25.311	      -4.176	      -3.192	    -172.021
	68.500000000	      -1.412	     162.379	      -4.809	       6.463	     -25.320	      -4.301	      -3.146	    -172.126
	69.000000000	      -1.441	     162.160	      -4.933	       5.875	     -25.358	      -5.004	      -3.069	    -172.310
	69.500000000	      -1.437	     161.908	      -5.049	       5.511	     -25.478	      -5.166	      -3.057	    -172.475
	70.000000000	      -1.423	     161.716	      -5.149	       4.998	     -25.524	      -5.073	      -3.030	    -172.537
	70.500000000	      -1.408	     161.510	      -5.238	       4.486	     -25.496	      -4.932	      -2.992	    -172.649
	71.000000000	      -1.403	     161.324	      -5.309	       4.023	     -25.502	      -5.254	      -2.956	    -172.801
	71.500000000	      -1.361	     161.030	      -5.438	       3.569	     -25.428	      -5.720	      -2.895	    -173.069
	72.000000000	      -1.366	     160.796	      -5.545	       3.076	     -25.464	      -6.633	      -2.900	    -173.236
	72.500000000	      -1.382	     160.410	      -5.642	       2.439	     -25.532	      -7.668	      -2.875	    -173.552
	73.000000000	      -1.414	     160.194	      -5.754	       1.881	     -25.667	      -8.583	      -2.838	    -173.697
	73.500000000	      -1.439	     160.065	      -5.864	       1.409	     -25.891	      -8.862	      -2.769	    -173.970
	74.000000000	      -1.448	     159.828	      -5.969	       0.965	     -26.045	      -8.412	      -2.768	    -174.515
	74.500000000	      -1.478	     159.601	      -6.054	       0.535	     -26.153	      -8.077	      -2.792	    -174.688
	75.000000000	      -1.511	     159.480	      -6.162	       0.042	     -26.250	      -8.001	      -2.781	    -174.766
	75.500000000	      -1.534	     159.484	      -6.271	      -0.506	     -26.482	      -7.846	      -2.778	    -174.878
	76.000000000	      -1.549	     159.525	      -6.389	      -0.903	     -26.808	      -6.514	      -2.785	    -174.944
	76.500000000	      -1.545	     159.700	      -6.509	      -1.041	     -27.037	      -2.713	      -2.782	    -174.769
	77.000000000	      -1.520	     159.679	      -6.585	      -1.187	     -26.746	       1.538	      -2.727	    -174.528
	77.500000000	      -1.440	     159.655	      -6.619	      -1.202	     -26.156	       3.658	      -2.634	    -174.580
	78.000000000	      -1.344	     159.310	      -6.627	      -1.472	     -25.557	       3.669	      -2.577	    -174.678
	78.500000000	      -1.310	     158.727	      -6.659	      -2.277	     -25.134	       2.108	      -2.539	    -174.924
	79.000000000	      -1.350	     158.143	      -6.734	      -3.145	     -24.867	      -0.133	      -2.478	    -175.209
	79.500000000	      -1.364	     157.644	      -6.798	      -3.857	     -24.695	      -1.932	      -2.430	    -175.442
