!File name = EG0520U_1010_6x60_2SDBCB2EV_1915934D06_RC2952_2.5Vd_27mA.s2p
!Base file name = EG0520U_1010_6x60_2SDBCB2EV_1915934D06_RC2952
!Date = 8/23/2019
!Time = 1:13 PM
!Test duration(min) = 0.15
!Test = S-Parameters
!MPTS version = 8.91.5
!State File = C:\Data\PNA\20190821205423\S-Parameters_2019-08-23.sta
!Cal File = 
!ComputerName = CMPE-LAB-6
!Comments = 
!Attenuation = 0
!Z0 = 50
!Input Power(dBm) = -13.00
!Device ID = EG0520U_1010_6x60_2SDBCB2EV
!Row = 29
!Column = 52
!Technology = QPHT09
!Lot/Wafer = 1915934D06
!Gate Size = 360
!Mask = EG0520
!Cal Standards = GaAs BCB
!Cal Kit = EG2306
!Job Number = 20190821205423
!Device Type = FET
!set_Vg(v) = -1.500
!set_Vd(v) = 2.500
!set_Vd(mA) = 27.000
!file_name = EG0520U_1010_6x60_2SDBCB2EV_1915934D06_RC2952_2.5Vd_27mA.s2p
!Vd(V) = 2.500
!Vd(mA) = 26.997
!Vg(V) = -0.539
!Vg(mA) = -0.001
# GHz   S   DB   R   50
!%	Freq(GHz)	     s11(dB)	    s11(deg)	     s21(dB)	    s21(deg)	     s12(dB)	    s12(deg)	     s22(dB)	    s22(deg)
	0.500000000	      -0.037	     -13.832	      20.965	     171.611	     -37.923	      81.507	      -9.679	     -17.086
	1.000000000	      -0.123	     -27.395	      20.620	     163.140	     -32.137	      74.183	      -9.565	     -32.708
	1.500000000	      -0.163	     -40.271	      20.307	     156.366	     -28.948	      66.987	      -9.295	     -47.395
	2.000000000	      -0.319	     -52.178	      20.038	     148.866	     -26.915	      60.169	      -9.040	     -61.491
	2.500000000	      -0.416	     -63.246	      19.641	     142.621	     -25.515	      54.485	      -8.953	     -72.690
	3.000000000	      -0.817	     -70.825	      18.974	     137.511	     -24.673	      50.180	      -9.242	     -77.612
	3.500000000	      -0.941	     -79.615	      18.466	     132.430	     -23.890	      45.739	      -9.108	     -85.929
	4.000000000	      -1.049	     -87.383	      17.928	     128.017	     -23.289	      41.781	      -8.982	     -93.139
	4.500000000	      -1.172	     -94.301	      17.381	     123.766	     -22.838	      38.167	      -8.864	     -99.707
	5.000000000	      -1.251	    -100.487	      16.852	     120.176	     -22.483	      35.035	      -8.785	    -105.217
	5.500000000	      -1.333	    -106.133	      16.333	     116.757	     -22.204	      32.334	      -8.733	    -110.079
	6.000000000	      -1.402	    -111.182	      15.830	     113.658	     -21.972	      29.838	      -8.652	    -114.201
	6.500000000	      -1.456	    -115.679	      15.337	     110.897	     -21.788	      27.574	      -8.588	    -117.889
	7.000000000	      -1.507	    -119.756	      14.863	     108.262	     -21.636	      25.545	      -8.526	    -121.097
	7.500000000	      -1.545	    -123.442	      14.401	     105.868	     -21.516	      23.706	      -8.468	    -124.017
	8.000000000	      -1.564	    -126.564	      13.976	     103.761	     -21.395	      22.199	      -8.456	    -125.996
	8.500000000	      -1.598	    -129.684	      13.548	     101.674	     -21.307	      20.628	      -8.411	    -128.300
	9.000000000	      -1.633	    -132.467	      13.127	      99.725	     -21.234	      19.112	      -8.364	    -130.381
	9.500000000	      -1.656	    -135.103	      12.735	      97.818	     -21.177	      17.736	      -8.319	    -132.228
	10.000000000	      -1.675	    -137.536	      12.351	      96.042	     -21.146	      16.389	      -8.277	    -134.006
	10.500000000	      -1.703	    -139.805	      11.980	      94.319	     -21.122	      15.319	      -8.246	    -135.555
	11.000000000	      -1.716	    -141.862	      11.624	      92.738	     -21.092	      14.252	      -8.206	    -136.881
	11.500000000	      -1.736	    -143.810	      11.277	      91.185	     -21.076	      13.234	      -8.163	    -138.154
	12.000000000	      -1.750	    -145.632	      10.945	      89.711	     -21.064	      12.310	      -8.118	    -139.267
	12.500000000	      -1.756	    -147.339	      10.624	      88.296	     -21.056	      11.399	      -8.064	    -140.420
	13.000000000	      -1.767	    -148.943	      10.311	      86.896	     -21.052	      10.535	      -8.018	    -141.460
	13.500000000	      -1.778	    -150.472	      10.007	      85.567	     -21.062	       9.653	      -7.972	    -142.329
	14.000000000	      -1.790	    -151.925	       9.713	      84.280	     -21.080	       8.952	      -7.925	    -143.130
	14.500000000	      -1.795	    -153.238	       9.425	      83.017	     -21.096	       8.247	      -7.882	    -143.964
	15.000000000	      -1.800	    -154.421	       9.146	      81.812	     -21.113	       7.694	      -7.846	    -144.758
	15.500000000	      -1.806	    -155.594	       8.876	      80.618	     -21.110	       7.136	      -7.801	    -145.375
	16.000000000	      -1.810	    -156.756	       8.613	      79.448	     -21.114	       6.455	      -7.746	    -145.979
	16.500000000	      -1.811	    -157.883	       8.357	      78.308	     -21.132	       5.796	      -7.696	    -146.568
	17.000000000	      -1.811	    -158.947	       8.109	      77.181	     -21.159	       5.205	      -7.652	    -147.106
	17.500000000	      -1.818	    -159.899	       7.863	      76.083	     -21.183	       4.682	      -7.599	    -147.714
	18.000000000	      -1.826	    -160.848	       7.626	      75.010	     -21.217	       4.115	      -7.546	    -148.288
	18.500000000	      -1.827	    -161.769	       7.393	      73.959	     -21.233	       3.544	      -7.490	    -148.739
	19.000000000	      -1.826	    -162.660	       7.164	      72.918	     -21.278	       3.032	      -7.442	    -149.187
	19.500000000	      -1.826	    -163.509	       6.942	      71.908	     -21.336	       2.674	      -7.400	    -149.645
	20.000000000	      -1.830	    -164.288	       6.727	      70.922	     -21.374	       2.441	      -7.357	    -150.043
	20.500000000	      -1.833	    -165.043	       6.520	      69.935	     -21.380	       2.205	      -7.300	    -150.398
	21.000000000	      -1.833	    -165.815	       6.311	      68.956	     -21.394	       1.708	      -7.238	    -150.821
	21.500000000	      -1.825	    -166.562	       6.108	      67.987	     -21.430	       1.250	      -7.184	    -151.167
	22.000000000	      -1.823	    -167.180	       5.908	      67.058	     -21.471	       0.769	      -7.132	    -151.537
	22.500000000	      -1.816	    -167.845	       5.711	      66.086	     -21.499	       0.350	      -7.082	    -151.925
	23.000000000	      -1.814	    -168.534	       5.517	      65.141	     -21.539	      -0.105	      -7.025	    -152.370
	23.500000000	      -1.818	    -169.210	       5.324	      64.249	     -21.634	      -0.507	      -6.976	    -152.826
	24.000000000	      -1.822	    -169.842	       5.139	      63.374	     -21.707	      -0.557	      -6.935	    -153.122
	24.500000000	      -1.813	    -170.315	       4.966	      62.479	     -21.709	      -0.681	      -6.891	    -153.312
	25.000000000	      -1.798	    -170.807	       4.788	      61.555	     -21.725	      -0.914	      -6.838	    -153.534
	25.500000000	      -1.791	    -171.454	       4.609	      60.675	     -21.771	      -1.077	      -6.776	    -153.819
	26.000000000	      -1.796	    -172.095	       4.431	      59.789	     -21.807	      -1.516	      -6.703	    -154.201
	26.500000000	      -1.795	    -172.630	       4.257	      58.922	     -21.844	      -1.966	      -6.643	    -154.501
	27.000000000	      -1.787	    -173.042	       4.089	      58.098	     -21.886	      -2.428	      -6.594	    -154.835
	27.500000000	      -1.794	    -173.512	       3.921	      57.347	     -22.025	      -2.406	      -6.568	    -154.960
	28.000000000	      -1.800	    -173.993	       3.764	      56.549	     -22.092	      -2.344	      -6.511	    -155.298
	28.500000000	      -1.783	    -174.417	       3.618	      55.674	     -22.067	      -2.211	      -6.438	    -155.544
	29.000000000	      -1.771	    -174.867	       3.457	      54.797	     -22.072	      -2.582	      -6.388	    -155.855
	29.500000000	      -1.761	    -175.318	       3.301	      53.970	     -22.109	      -2.874	      -6.325	    -156.111
	30.000000000	      -1.760	    -175.737	       3.148	      53.208	     -22.160	      -3.186	      -6.279	    -156.340
	30.500000000	      -1.758	    -176.210	       2.998	      52.395	     -22.213	      -3.410	      -6.230	    -156.633
	31.000000000	      -1.750	    -176.675	       2.844	      51.629	     -22.276	      -3.550	      -6.183	    -156.934
	31.500000000	      -1.733	    -177.079	       2.712	      50.872	     -22.392	      -3.259	      -6.135	    -157.195
	32.000000000	      -1.736	    -177.401	       2.568	      50.048	     -22.393	      -3.364	      -6.080	    -157.382
	32.500000000	      -1.744	    -177.818	       2.424	      49.209	     -22.367	      -3.348	      -6.013	    -157.574
	33.000000000	      -1.741	    -178.275	       2.280	      48.439	     -22.381	      -3.663	      -5.961	    -157.856
	33.500000000	      -1.730	    -178.663	       2.132	      47.706	     -22.437	      -3.979	      -5.907	    -158.234
	34.000000000	      -1.719	    -178.976	       1.996	      46.918	     -22.493	      -4.253	      -5.849	    -158.556
	34.500000000	      -1.715	    -179.351	       1.850	      46.143	     -22.540	      -4.560	      -5.784	    -158.783
	35.000000000	      -1.716	    -179.703	       1.710	      45.432	     -22.624	      -4.682	      -5.735	    -159.146
	35.500000000	      -1.706	     179.935	       1.593	      44.730	     -22.684	      -4.369	      -5.699	    -159.329
	36.000000000	      -1.691	     179.583	       1.468	      43.876	     -22.667	      -4.279	      -5.631	    -159.551
	36.500000000	      -1.676	     179.293	       1.329	      43.104	     -22.665	      -4.553	      -5.574	    -159.848
	37.000000000	      -1.671	     179.000	       1.197	      42.362	     -22.732	      -4.893	      -5.525	    -160.127
	37.500000000	      -1.679	     178.603	       1.059	      41.631	     -22.761	      -5.213	      -5.487	    -160.385
	38.000000000	      -1.682	     178.215	       0.920	      40.975	     -22.879	      -5.614	      -5.438	    -160.629
	38.500000000	      -1.677	     177.910	       0.786	      40.346	     -22.981	      -5.733	      -5.382	    -160.905
	39.000000000	      -1.668	     177.766	       0.673	      39.740	     -23.062	      -5.672	      -5.330	    -161.192
	39.500000000	      -1.660	     177.529	       0.559	      39.053	     -23.111	      -5.066	      -5.273	    -161.481
	40.000000000	      -1.648	     177.132	       0.452	      38.269	     -23.068	      -5.403	      -5.216	    -161.724
	40.500000000	      -1.644	     176.742	       0.329	      37.553	     -23.086	      -5.324	      -5.150	    -161.969
	41.000000000	      -1.623	     176.412	       0.215	      36.828	     -23.163	      -5.593	      -5.107	    -162.341
	41.500000000	      -1.614	     176.276	       0.097	      36.112	     -23.199	      -5.599	      -5.075	    -162.531
	42.000000000	      -1.614	     175.955	      -0.021	      35.425	     -23.225	      -6.406	      -5.021	    -162.679
	42.500000000	      -1.625	     175.562	      -0.146	      34.767	     -23.355	      -6.004	      -4.969	    -162.774
	43.000000000	      -1.620	     175.331	      -0.249	      34.200	     -23.443	      -5.876	      -4.914	    -163.029
	43.500000000	      -1.601	     175.125	      -0.363	      33.376	     -23.425	      -5.733	      -4.871	    -163.396
	44.000000000	      -1.614	     174.835	      -0.485	      32.676	     -23.399	      -6.075	      -4.802	    -163.724
	44.500000000	      -1.624	     174.423	      -0.608	      31.984	     -23.487	      -5.998	      -4.752	    -164.010
	45.000000000	      -1.635	     174.109	      -0.725	      31.356	     -23.489	      -5.938	      -4.701	    -164.317
	45.500000000	      -1.581	     173.804	      -1.003	      30.890	     -23.775	      -6.360	      -4.563	    -165.060
	46.000000000	      -1.563	     173.579	      -1.124	      30.321	     -23.833	      -6.760	      -4.523	    -165.389
	46.500000000	      -1.552	     173.244	      -1.217	      29.760	     -24.001	      -5.581	      -4.457	    -165.498
	47.000000000	      -1.550	     172.900	      -1.322	      29.071	     -23.960	      -6.001	      -4.406	    -165.642
	47.500000000	      -1.539	     172.634	      -1.430	      28.450	     -23.941	      -5.718	      -4.380	    -165.871
	48.000000000	      -1.521	     172.385	      -1.545	      27.832	     -23.942	      -5.597	      -4.331	    -166.055
	48.500000000	      -1.519	     172.120	      -1.652	      27.225	     -23.994	      -5.504	      -4.283	    -166.384
	49.000000000	      -1.532	     171.930	      -1.760	      26.642	     -23.950	      -5.720	      -4.241	    -166.473
	49.500000000	      -1.544	     171.669	      -1.844	      26.128	     -24.158	      -6.526	      -4.178	    -166.714
	50.000000000	      -1.530	     171.394	      -1.944	      25.608	     -24.281	      -5.428	      -4.154	    -166.908
	50.500000000	      -1.519	     171.180	      -2.031	      24.912	     -24.377	      -4.909	      -4.116	    -167.251
	51.000000000	      -1.500	     170.947	      -2.135	      24.283	     -24.343	      -4.986	      -4.075	    -167.646
	51.500000000	      -1.503	     170.734	      -2.235	      23.621	     -24.194	      -5.140	      -4.031	    -167.933
	52.000000000	      -1.474	     170.549	      -2.345	      22.940	     -24.281	      -4.922	      -3.989	    -168.184
	52.500000000	      -1.477	     170.217	      -2.452	      22.299	     -24.255	      -5.670	      -3.944	    -168.304
	53.000000000	      -1.473	     169.868	      -2.562	      21.677	     -24.282	      -6.331	      -3.895	    -168.425
	53.500000000	      -1.468	     169.718	      -2.666	      21.164	     -24.403	      -6.042	      -3.854	    -168.723
	54.000000000	      -1.461	     169.546	      -2.755	      20.717	     -24.325	      -5.669	      -3.801	    -168.934
	54.500000000	      -1.453	     169.114	      -2.842	      20.131	     -24.438	      -5.688	      -3.753	    -169.173
	55.000000000	      -1.470	     168.731	      -2.932	      19.506	     -24.409	      -5.498	      -3.711	    -169.405
	55.500000000	      -1.468	     168.456	      -3.032	      18.876	     -24.382	      -6.030	      -3.677	    -169.731
	56.000000000	      -1.440	     168.126	      -3.130	      18.276	     -24.401	      -6.021	      -3.634	    -170.150
	56.500000000	      -1.446	     168.053	      -3.220	      17.562	     -24.421	      -5.460	      -3.640	    -170.726
	57.000000000	      -1.470	     167.881	      -3.331	      17.079	     -24.610	      -6.547	      -3.610	    -170.648
	57.500000000	      -1.461	     167.717	      -3.448	      16.689	     -24.754	      -6.754	      -3.577	    -171.072
	58.000000000	      -1.441	     167.715	      -3.527	      16.000	     -24.768	      -7.490	      -3.531	    -171.188
	58.500000000	      -1.406	     167.498	      -3.597	      15.630	     -24.808	      -6.211	      -3.490	    -171.538
	59.000000000	      -1.411	     167.099	      -3.688	      14.900	     -24.753	      -6.186	      -3.441	    -171.722
	59.500000000	      -1.415	     167.047	      -3.783	      14.144	     -24.750	      -6.271	      -3.413	    -171.825
	60.000000000	      -1.403	     166.862	      -3.867	      13.704	     -24.850	      -6.140	      -3.453	    -172.232
	60.500000000	      -1.380	     166.649	      -3.966	      13.101	     -25.054	      -6.390	      -3.401	    -172.300
	61.000000000	      -1.340	     166.351	      -4.079	      12.716	     -24.974	      -6.712	      -3.370	    -172.585
	61.500000000	      -1.331	     166.161	      -4.161	      12.209	     -24.918	      -6.880	      -3.344	    -172.647
	62.000000000	      -1.311	     165.850	      -4.222	      11.769	     -25.253	      -5.684	      -3.335	    -172.819
	62.500000000	      -1.318	     165.544	      -4.293	      11.060	     -25.033	      -4.840	      -3.322	    -172.729
	63.000000000	      -1.312	     165.146	      -4.376	      10.427	     -24.963	      -3.468	      -3.285	    -172.922
	63.500000000	      -1.299	     165.026	      -4.436	       9.838	     -25.224	      -5.502	      -3.233	    -173.206
	64.000000000	      -1.288	     165.160	      -4.504	       9.031	     -25.218	      -4.075	      -3.167	    -173.109
	64.500000000	      -1.266	     165.123	      -4.570	       8.424	     -25.170	      -5.184	      -3.133	    -172.954
	65.000000000	      -1.288	     164.720	      -4.668	       7.610	     -25.404	      -5.817	      -3.089	    -173.321
	65.500000000	      -1.278	     164.087	      -4.785	       7.007	     -25.160	      -6.347	      -3.061	    -173.748
	66.000000000	      -1.273	     163.924	      -4.911	       6.030	     -25.049	      -5.829	      -3.045	    -174.209
	66.500000000	      -1.302	     163.559	      -5.008	       5.503	     -24.987	      -5.807	      -3.010	    -173.927
	67.000000000	      -1.351	     163.401	      -5.112	       4.956	     -25.283	      -6.250	      -2.984	    -174.134
	67.500000000	      -1.327	     162.694	      -5.260	       3.944	     -25.179	      -6.046	      -3.003	    -174.579
	68.000000000	      -1.376	     162.507	      -5.359	       3.337	     -25.217	      -6.173	      -3.017	    -174.773
	68.500000000	      -1.417	     162.289	      -5.454	       2.932	     -25.191	      -6.196	      -2.975	    -174.945
	69.000000000	      -1.450	     162.109	      -5.572	       2.383	     -25.266	      -6.576	      -2.909	    -175.062
	69.500000000	      -1.443	     161.983	      -5.683	       1.986	     -25.314	      -6.740	      -2.892	    -175.176
	70.000000000	      -1.419	     161.811	      -5.771	       1.609	     -25.396	      -6.631	      -2.866	    -175.269
	70.500000000	      -1.401	     161.667	      -5.857	       1.198	     -25.359	      -6.489	      -2.825	    -175.312
	71.000000000	      -1.387	     161.541	      -5.939	       0.850	     -25.355	      -6.658	      -2.785	    -175.573
	71.500000000	      -1.328	     161.424	      -6.017	       0.388	     -25.309	      -6.850	      -2.721	    -175.698
	72.000000000	      -1.330	     161.098	      -6.125	      -0.239	     -25.322	      -7.563	      -2.729	    -175.938
	72.500000000	      -1.362	     160.653	      -6.216	      -0.909	     -25.370	      -8.035	      -2.713	    -176.183
	73.000000000	      -1.389	     160.522	      -6.316	      -1.428	     -25.456	      -8.725	      -2.672	    -176.302
	73.500000000	      -1.414	     160.442	      -6.416	      -1.941	     -25.643	      -9.021	      -2.608	    -176.525
	74.000000000	      -1.424	     160.187	      -6.517	      -2.437	     -25.735	      -8.807	      -2.601	    -177.039
	74.500000000	      -1.457	     159.927	      -6.595	      -2.850	     -25.821	      -8.416	      -2.626	    -177.264
	75.000000000	      -1.496	     159.885	      -6.690	      -3.429	     -25.920	      -8.495	      -2.615	    -177.345
	75.500000000	      -1.531	     159.938	      -6.810	      -3.962	     -26.134	      -8.252	      -2.609	    -177.402
	76.000000000	      -1.539	     160.065	      -6.933	      -4.365	     -26.438	      -7.062	      -2.619	    -177.442
	76.500000000	      -1.525	     160.239	      -7.059	      -4.502	     -26.619	      -3.619	      -2.606	    -177.273
	77.000000000	      -1.496	     160.213	      -7.135	      -4.572	     -26.373	       0.184	      -2.550	    -177.139
	77.500000000	      -1.421	     160.234	      -7.166	      -4.530	     -25.824	       2.382	      -2.470	    -177.239
	78.000000000	      -1.325	     159.883	      -7.160	      -4.829	     -25.240	       2.334	      -2.438	    -177.304
	78.500000000	      -1.291	     159.416	      -7.198	      -5.573	     -24.830	       0.629	      -2.388	    -177.564
	79.000000000	      -1.321	     158.848	      -7.272	      -6.391	     -24.610	      -1.429	      -2.328	    -177.786
	79.500000000	      -1.342	     158.363	      -7.329	      -7.123	     -24.461	      -3.202	      -2.281	    -178.026
