!File name = EG0520U_1010_6x60_2SDBCB2EV_1915934D06_RC4034_3.5Vd_54mA.s2p
!Base file name = EG0520U_1010_6x60_2SDBCB2EV_1915934D06_RC4034
!Date = 8/23/2019
!Time = 12:59 PM
!Test duration(min) = 0.15
!Test = S-Parameters
!MPTS version = 8.91.5
!State File = C:\Data\PNA\20190821205423\S-Parameters_2019-08-23.sta
!Cal File = 
!ComputerName = CMPE-LAB-6
!Comments = 
!Attenuation = 0
!Z0 = 50
!Input Power(dBm) = -13.00
!Device ID = EG0520U_1010_6x60_2SDBCB2EV
!Row = 40
!Column = 34
!Technology = QPHT09
!Lot/Wafer = 1915934D06
!Gate Size = 360
!Mask = EG0520
!Cal Standards = GaAs BCB
!Cal Kit = EG2306
!Job Number = 20190821205423
!Device Type = FET
!set_Vg(v) = -1.500
!set_Vd(v) = 3.500
!set_Vd(mA) = 54.000
!file_name = EG0520U_1010_6x60_2SDBCB2EV_1915934D06_RC4034_3.5Vd_54mA.s2p
!Vd(V) = 3.500
!Vd(mA) = 54.143
!Vg(V) = -0.452
!Vg(mA) = -0.002
# GHz   S   DB   R   50
!%	Freq(GHz)	     s11(dB)	    s11(deg)	     s21(dB)	    s21(deg)	     s12(dB)	    s12(deg)	     s22(dB)	    s22(deg)
	0.500000000	      -0.046	     -15.199	      22.585	     170.712	     -39.441	      81.113	      -9.293	     -16.366
	1.000000000	      -0.132	     -30.024	      22.109	     162.068	     -33.680	      73.274	      -9.297	     -31.116
	1.500000000	      -0.175	     -43.926	      21.726	     154.426	     -30.545	      65.755	      -9.195	     -45.141
	2.000000000	      -0.319	     -56.448	      21.459	     147.035	     -28.563	      58.903	      -9.134	     -58.665
	2.500000000	      -0.416	     -68.012	      20.992	     140.523	     -27.203	      53.020	      -9.186	     -69.452
	3.000000000	      -0.810	     -75.754	      20.292	     135.377	     -26.413	      48.647	      -9.566	     -73.893
	3.500000000	      -0.926	     -84.602	      19.707	     130.279	     -25.679	      44.239	      -9.573	     -81.973
	4.000000000	      -1.020	     -92.383	      19.124	     125.795	     -25.123	      40.362	      -9.570	     -89.014
	4.500000000	      -1.118	     -99.268	      18.550	     121.682	     -24.711	      36.904	      -9.563	     -95.367
	5.000000000	      -1.188	    -105.351	      17.980	     118.068	     -24.387	      33.916	      -9.565	    -100.681
	5.500000000	      -1.253	    -110.814	      17.435	     114.719	     -24.131	      31.284	      -9.574	    -105.358
	6.000000000	      -1.309	    -115.660	      16.898	     111.729	     -23.921	      28.902	      -9.549	    -109.364
	6.500000000	      -1.353	    -119.970	      16.386	     109.006	     -23.759	      26.803	      -9.528	    -112.892
	7.000000000	      -1.392	    -123.858	      15.893	     106.464	     -23.626	      24.918	      -9.500	    -115.983
	7.500000000	      -1.419	    -127.351	      15.415	     104.134	     -23.521	      23.255	      -9.469	    -118.760
	8.000000000	      -1.427	    -130.301	      14.978	     102.083	     -23.404	      21.829	      -9.469	    -120.529
	8.500000000	      -1.454	    -133.243	      14.536	     100.057	     -23.330	      20.366	      -9.439	    -122.723
	9.000000000	      -1.480	    -135.894	      14.107	      98.158	     -23.271	      19.004	      -9.403	    -124.645
	9.500000000	      -1.495	    -138.353	      13.706	      96.317	     -23.221	      17.734	      -9.362	    -126.375
	10.000000000	      -1.509	    -140.634	      13.316	      94.586	     -23.201	      16.529	      -9.323	    -128.017
	10.500000000	      -1.528	    -142.757	      12.939	      92.912	     -23.186	      15.515	      -9.285	    -129.444
	11.000000000	      -1.539	    -144.696	      12.576	      91.349	     -23.169	      14.591	      -9.244	    -130.681
	11.500000000	      -1.553	    -146.534	      12.223	      89.825	     -23.165	      13.636	      -9.199	    -131.851
	12.000000000	      -1.566	    -148.234	      11.886	      88.384	     -23.167	      12.818	      -9.145	    -132.857
	12.500000000	      -1.572	    -149.806	      11.557	      86.984	     -23.161	      12.065	      -9.088	    -133.918
	13.000000000	      -1.580	    -151.280	      11.240	      85.623	     -23.165	      11.324	      -9.033	    -134.837
	13.500000000	      -1.586	    -152.706	      10.933	      84.304	     -23.182	      10.522	      -8.971	    -135.603
	14.000000000	      -1.597	    -154.064	      10.633	      83.038	     -23.201	       9.941	      -8.912	    -136.329
	14.500000000	      -1.601	    -155.274	      10.343	      81.801	     -23.227	       9.394	      -8.859	    -137.092
	15.000000000	      -1.605	    -156.373	      10.059	      80.606	     -23.247	       8.902	      -8.807	    -137.768
	15.500000000	      -1.608	    -157.466	       9.786	      79.427	     -23.261	       8.394	      -8.745	    -138.320
	16.000000000	      -1.612	    -158.563	       9.519	      78.268	     -23.277	       7.806	      -8.676	    -138.861
	16.500000000	      -1.615	    -159.608	       9.259	      77.131	     -23.310	       7.283	      -8.611	    -139.377
	17.000000000	      -1.615	    -160.589	       9.007	      76.026	     -23.357	       6.818	      -8.555	    -139.840
	17.500000000	      -1.621	    -161.471	       8.756	      74.941	     -23.372	       6.459	      -8.488	    -140.382
	18.000000000	      -1.630	    -162.344	       8.518	      73.883	     -23.414	       5.954	      -8.421	    -140.895
	18.500000000	      -1.630	    -163.195	       8.283	      72.847	     -23.441	       5.544	      -8.345	    -141.292
	19.000000000	      -1.628	    -164.012	       8.052	      71.817	     -23.493	       5.119	      -8.277	    -141.683
	19.500000000	      -1.625	    -164.787	       7.829	      70.818	     -23.552	       4.747	      -8.218	    -142.072
	20.000000000	      -1.632	    -165.529	       7.609	      69.837	     -23.633	       4.633	      -8.164	    -142.434
	20.500000000	      -1.636	    -166.222	       7.399	      68.856	     -23.667	       4.639	      -8.092	    -142.716
	21.000000000	      -1.633	    -166.916	       7.190	      67.881	     -23.670	       4.435	      -8.014	    -143.055
	21.500000000	      -1.625	    -167.605	       6.986	      66.910	     -23.696	       4.129	      -7.936	    -143.347
	22.000000000	      -1.617	    -168.227	       6.786	      65.966	     -23.727	       3.785	      -7.863	    -143.675
	22.500000000	      -1.615	    -168.839	       6.584	      64.992	     -23.752	       3.378	      -7.797	    -144.027
	23.000000000	      -1.617	    -169.434	       6.386	      64.067	     -23.801	       3.059	      -7.728	    -144.440
	23.500000000	      -1.616	    -170.103	       6.192	      63.169	     -23.914	       2.727	      -7.664	    -144.904
	24.000000000	      -1.624	    -170.698	       6.003	      62.309	     -24.031	       2.833	      -7.614	    -145.123
	24.500000000	      -1.616	    -171.121	       5.828	      61.426	     -24.034	       3.028	      -7.545	    -145.199
	25.000000000	      -1.605	    -171.612	       5.648	      60.495	     -24.013	       2.801	      -7.464	    -145.397
	25.500000000	      -1.602	    -172.209	       5.467	      59.621	     -24.054	       2.725	      -7.387	    -145.739
	26.000000000	      -1.605	    -172.767	       5.289	      58.758	     -24.122	       2.216	      -7.298	    -146.109
	26.500000000	      -1.602	    -173.236	       5.117	      57.894	     -24.165	       2.189	      -7.220	    -146.423
	27.000000000	      -1.597	    -173.640	       4.947	      57.060	     -24.259	       1.827	      -7.158	    -146.723
	27.500000000	      -1.601	    -174.046	       4.780	      56.299	     -24.388	       1.885	      -7.112	    -146.823
	28.000000000	      -1.601	    -174.528	       4.624	      55.494	     -24.471	       2.450	      -7.046	    -147.126
	28.500000000	      -1.578	    -174.946	       4.480	      54.571	     -24.400	       2.667	      -6.945	    -147.405
	29.000000000	      -1.570	    -175.419	       4.313	      53.665	     -24.437	       2.655	      -6.871	    -147.783
	29.500000000	      -1.566	    -175.863	       4.151	      52.845	     -24.472	       2.160	      -6.799	    -148.070
	30.000000000	      -1.570	    -176.257	       3.992	      52.077	     -24.554	       2.060	      -6.738	    -148.280
	30.500000000	      -1.566	    -176.666	       3.842	      51.277	     -24.600	       1.903	      -6.677	    -148.601
	31.000000000	      -1.559	    -177.083	       3.690	      50.467	     -24.661	       1.873	      -6.618	    -148.880
	31.500000000	      -1.543	    -177.436	       3.557	      49.746	     -24.766	       2.684	      -6.550	    -149.138
	32.000000000	      -1.539	    -177.757	       3.416	      48.895	     -24.764	       2.680	      -6.476	    -149.339
	32.500000000	      -1.547	    -178.183	       3.267	      48.011	     -24.750	       2.617	      -6.395	    -149.590
	33.000000000	      -1.543	    -178.650	       3.120	      47.238	     -24.765	       2.479	      -6.335	    -149.877
	33.500000000	      -1.529	    -179.020	       2.973	      46.481	     -24.864	       2.471	      -6.273	    -150.239
	34.000000000	      -1.524	    -179.391	       2.826	      45.697	     -24.907	       2.157	      -6.200	    -150.619
	34.500000000	      -1.528	    -179.782	       2.674	      44.889	     -24.983	       1.935	      -6.118	    -150.824
	35.000000000	      -1.533	     179.899	       2.534	      44.192	     -25.066	       1.875	      -6.064	    -151.237
	35.500000000	      -1.523	     179.551	       2.416	      43.459	     -25.151	       2.863	      -6.011	    -151.393
	36.000000000	      -1.518	     179.218	       2.283	      42.639	     -25.097	       3.031	      -5.934	    -151.650
	36.500000000	      -1.507	     178.971	       2.150	      41.856	     -25.079	       2.718	      -5.862	    -151.950
	37.000000000	      -1.501	     178.706	       2.016	      41.123	     -25.112	       2.522	      -5.797	    -152.269
	37.500000000	      -1.505	     178.355	       1.880	      40.394	     -25.229	       2.183	      -5.753	    -152.575
	38.000000000	      -1.495	     178.011	       1.749	      39.677	     -25.298	       2.594	      -5.686	    -152.832
	38.500000000	      -1.487	     177.682	       1.616	      38.966	     -25.349	       2.110	      -5.619	    -153.245
	39.000000000	      -1.481	     177.449	       1.494	      38.311	     -25.468	       2.994	      -5.556	    -153.549
	39.500000000	      -1.477	     177.287	       1.376	      37.643	     -25.465	       3.556	      -5.492	    -153.895
	40.000000000	      -1.463	     176.846	       1.265	      36.853	     -25.537	       3.528	      -5.420	    -154.175
	40.500000000	      -1.457	     176.454	       1.137	      36.075	     -25.538	       3.332	      -5.352	    -154.435
	41.000000000	      -1.444	     176.087	       1.011	      35.284	     -25.602	       3.306	      -5.307	    -154.898
	41.500000000	      -1.439	     175.907	       0.891	      34.629	     -25.617	       3.669	      -5.270	    -155.068
	42.000000000	      -1.439	     175.619	       0.770	      33.912	     -25.663	       3.475	      -5.196	    -155.248
	42.500000000	      -1.456	     175.258	       0.648	      33.262	     -25.807	       3.634	      -5.131	    -155.352
	43.000000000	      -1.448	     175.011	       0.544	      32.602	     -25.884	       4.596	      -5.069	    -155.675
	43.500000000	      -1.431	     174.781	       0.425	      31.790	     -25.898	       4.720	      -5.017	    -156.070
	44.000000000	      -1.437	     174.420	       0.305	      31.042	     -25.857	       5.174	      -4.951	    -156.451
	44.500000000	      -1.445	     174.087	       0.177	      30.354	     -25.851	       4.392	      -4.882	    -156.754
	45.000000000	      -1.456	     173.812	       0.058	      29.710	     -25.875	       4.479	      -4.816	    -157.147
	45.500000000	      -1.414	     173.466	      -0.222	      29.149	     -26.047	       4.268	      -4.693	    -158.098
	46.000000000	      -1.393	     173.267	      -0.344	      28.544	     -26.281	       4.136	      -4.634	    -158.383
	46.500000000	      -1.378	     172.890	      -0.445	      27.955	     -26.310	       4.935	      -4.571	    -158.580
	47.000000000	      -1.382	     172.606	      -0.549	      27.221	     -26.335	       5.172	      -4.507	    -158.838
	47.500000000	      -1.379	     172.270	      -0.665	      26.571	     -26.366	       6.327	      -4.460	    -159.040
	48.000000000	      -1.361	     171.992	      -0.777	      25.890	     -26.342	       6.144	      -4.403	    -159.263
	48.500000000	      -1.359	     171.687	      -0.898	      25.259	     -26.390	       6.066	      -4.357	    -159.646
	49.000000000	      -1.372	     171.497	      -1.009	      24.597	     -26.408	       5.874	      -4.294	    -159.876
	49.500000000	      -1.376	     171.297	      -1.120	      24.051	     -26.553	       5.955	      -4.225	    -160.338
	50.000000000	      -1.360	     170.969	      -1.231	      23.431	     -26.508	       5.870	      -4.180	    -160.556
	50.500000000	      -1.346	     170.786	      -1.328	      22.768	     -26.582	       8.539	      -4.173	    -161.088
	51.000000000	      -1.345	     170.472	      -1.449	      22.192	     -26.588	       7.995	      -4.141	    -161.390
	51.500000000	      -1.332	     170.263	      -1.552	      21.559	     -26.615	       8.758	      -4.086	    -161.803
	52.000000000	      -1.322	     170.068	      -1.660	      20.931	     -26.567	       7.859	      -4.045	    -162.055
	52.500000000	      -1.321	     169.717	      -1.767	      20.353	     -26.515	       7.805	      -4.007	    -162.133
	53.000000000	      -1.318	     169.365	      -1.866	      19.761	     -26.576	       8.498	      -3.978	    -162.287
	53.500000000	      -1.314	     169.247	      -1.967	      19.270	     -26.600	       8.422	      -3.907	    -162.592
	54.000000000	      -1.302	     169.000	      -2.060	      18.701	     -26.517	       8.184	      -3.856	    -162.872
	54.500000000	      -1.305	     168.597	      -2.148	      18.076	     -26.623	       8.803	      -3.798	    -162.992
	55.000000000	      -1.312	     168.193	      -2.236	      17.405	     -26.574	       9.302	      -3.754	    -163.221
	55.500000000	      -1.307	     167.953	      -2.335	      16.777	     -26.645	       8.030	      -3.714	    -163.637
	56.000000000	      -1.288	     167.653	      -2.420	      16.131	     -26.791	       9.300	      -3.670	    -164.105
	56.500000000	      -1.304	     167.434	      -2.529	      15.497	     -26.929	       8.448	      -3.645	    -164.609
	57.000000000	      -1.295	     167.236	      -2.628	      14.891	     -26.918	       8.908	      -3.619	    -164.892
	57.500000000	      -1.297	     167.079	      -2.742	      14.264	     -26.891	       7.405	      -3.584	    -164.999
	58.000000000	      -1.285	     166.954	      -2.834	      13.615	     -26.911	       7.691	      -3.529	    -165.342
	58.500000000	      -1.255	     166.707	      -2.918	      13.107	     -26.972	       8.811	      -3.508	    -165.541
	59.000000000	      -1.252	     166.329	      -3.007	      12.351	     -26.993	       9.649	      -3.447	    -165.781
	59.500000000	      -1.268	     166.177	      -3.104	      11.627	     -26.764	       9.080	      -3.387	    -166.113
	60.000000000	      -1.258	     166.020	      -3.201	      11.194	     -26.742	      10.099	      -3.403	    -166.420
	60.500000000	      -1.228	     165.743	      -3.293	      10.471	     -26.850	       9.957	      -3.390	    -166.484
	61.000000000	      -1.206	     165.524	      -3.410	       9.943	     -27.024	       9.193	      -3.342	    -166.623
	61.500000000	      -1.197	     165.236	      -3.506	       9.434	     -27.080	      10.717	      -3.312	    -166.950
	62.000000000	      -1.183	     164.949	      -3.552	       8.841	     -27.233	      11.103	      -3.313	    -166.955
	62.500000000	      -1.191	     164.695	      -3.668	       8.217	     -27.190	      12.323	      -3.298	    -167.211
	63.000000000	      -1.167	     164.163	      -3.726	       7.571	     -26.931	      13.557	      -3.230	    -167.357
	63.500000000	      -1.175	     164.061	      -3.812	       6.921	     -26.948	      11.976	      -3.166	    -167.514
	64.000000000	      -1.152	     164.088	      -3.884	       6.058	     -26.985	      12.702	      -3.092	    -167.556
	64.500000000	      -1.141	     163.861	      -3.973	       5.277	     -26.700	      12.529	      -3.058	    -167.502
	65.000000000	      -1.155	     163.487	      -4.078	       4.476	     -26.892	      11.572	      -2.988	    -167.797
	65.500000000	      -1.150	     163.050	      -4.205	       3.875	     -26.907	      12.186	      -2.974	    -168.676
	66.000000000	      -1.151	     162.744	      -4.343	       2.913	     -26.997	      10.699	      -2.943	    -169.074
	66.500000000	      -1.175	     162.554	      -4.427	       2.175	     -26.707	      10.494	      -2.890	    -169.152
	67.000000000	      -1.206	     162.236	      -4.535	       1.502	     -26.970	      11.563	      -2.891	    -168.949
	67.500000000	      -1.207	     161.567	      -4.696	       0.779	     -26.741	      11.196	      -2.890	    -169.601
	68.000000000	      -1.233	     161.393	      -4.799	       0.185	     -26.744	      10.238	      -2.911	    -169.869
	68.500000000	      -1.258	     161.166	      -4.905	      -0.342	     -26.738	      10.119	      -2.874	    -169.974
	69.000000000	      -1.283	     160.959	      -5.032	      -0.879	     -26.755	       9.802	      -2.804	    -170.235
	69.500000000	      -1.282	     160.733	      -5.145	      -1.320	     -26.855	       9.915	      -2.782	    -170.411
	70.000000000	      -1.272	     160.542	      -5.245	      -1.821	     -26.913	      10.189	      -2.754	    -170.548
	70.500000000	      -1.261	     160.325	      -5.345	      -2.349	     -26.811	      10.269	      -2.717	    -170.670
	71.000000000	      -1.265	     160.086	      -5.449	      -2.778	     -26.832	       9.859	      -2.682	    -170.874
	71.500000000	      -1.242	     159.889	      -5.544	      -3.295	     -26.791	       9.382	      -2.605	    -171.067
	72.000000000	      -1.247	     159.596	      -5.657	      -3.810	     -26.796	       8.577	      -2.611	    -171.294
	72.500000000	      -1.266	     159.269	      -5.760	      -4.512	     -26.884	       8.088	      -2.592	    -171.593
	73.000000000	      -1.284	     159.105	      -5.867	      -5.022	     -27.029	       7.208	      -2.550	    -171.788
	73.500000000	      -1.309	     158.994	      -5.988	      -5.559	     -27.242	       7.570	      -2.478	    -172.076
	74.000000000	      -1.312	     158.741	      -6.088	      -6.009	     -27.329	       8.322	      -2.480	    -172.651
	74.500000000	      -1.341	     158.560	      -6.190	      -6.440	     -27.409	       8.773	      -2.500	    -172.920
	75.000000000	      -1.373	     158.447	      -6.300	      -6.975	     -27.471	       9.201	      -2.481	    -172.978
	75.500000000	      -1.399	     158.375	      -6.430	      -7.538	     -27.697	       9.852	      -2.476	    -173.152
	76.000000000	      -1.417	     158.493	      -6.556	      -7.913	     -27.917	      12.051	      -2.482	    -173.207
	76.500000000	      -1.419	     158.672	      -6.685	      -8.106	     -27.916	      16.175	      -2.470	    -173.128
	77.000000000	      -1.392	     158.724	      -6.779	      -8.187	     -27.417	      19.617	      -2.405	    -172.986
	77.500000000	      -1.302	     158.698	      -6.811	      -8.171	     -26.710	      20.289	      -2.319	    -173.113
	78.000000000	      -1.239	     158.460	      -6.844	      -8.441	     -26.187	      18.964	      -2.266	    -173.329
	78.500000000	      -1.185	     157.993	      -6.887	      -9.045	     -25.863	      16.928	      -2.241	    -173.558
	79.000000000	      -1.185	     157.367	      -6.946	      -9.614	     -25.692	      15.079	      -2.175	    -173.902
	79.500000000	      -1.216	     156.753	      -6.986	     -10.450	     -25.476	      13.132	      -2.145	    -174.138
