!File name = EG0520U_1010_6x60_2SDBCB2EV_1915934D06_RC7325_3Vd_45mA.s2p
!Base file name = EG0520U_1010_6x60_2SDBCB2EV_1915934D06_RC7325
!Date = 8/23/2019
!Time = 1:09 PM
!Test duration(min) = 0.15
!Test = S-Parameters
!MPTS version = 8.91.5
!State File = C:\Data\PNA\20190821205423\S-Parameters_2019-08-23.sta
!Cal File = 
!ComputerName = CMPE-LAB-6
!Comments = 
!Attenuation = 0
!Z0 = 50
!Input Power(dBm) = -13.00
!Device ID = EG0520U_1010_6x60_2SDBCB2EV
!Row = 73
!Column = 25
!Technology = QPHT09
!Lot/Wafer = 1915934D06
!Gate Size = 360
!Mask = EG0520
!Cal Standards = GaAs BCB
!Cal Kit = EG2306
!Job Number = 20190821205423
!Device Type = FET
!set_Vg(v) = -1.500
!set_Vd(v) = 3.000
!set_Vd(mA) = 45.000
!file_name = EG0520U_1010_6x60_2SDBCB2EV_1915934D06_RC7325_3Vd_45mA.s2p
!Vd(V) = 3.000
!Vd(mA) = 44.865
!Vg(V) = -0.499
!Vg(mA) = -0.001
# GHz   S   DB   R   50
!%	Freq(GHz)	     s11(dB)	    s11(deg)	     s21(dB)	    s21(deg)	     s12(dB)	    s12(deg)	     s22(dB)	    s22(deg)
	0.500000000	      -0.039	     -14.605	      22.098	     171.110	     -39.196	      81.477	      -9.856	     -16.958
	1.000000000	      -0.122	     -28.873	      21.670	     162.633	     -33.412	      73.810	      -9.788	     -32.341
	1.500000000	      -0.163	     -42.325	      21.318	     155.362	     -30.261	      66.443	      -9.584	     -46.814
	2.000000000	      -0.306	     -54.563	      21.049	     148.021	     -28.251	      59.691	      -9.401	     -60.643
	2.500000000	      -0.401	     -65.880	      20.613	     141.649	     -26.871	      53.910	      -9.353	     -71.662
	3.000000000	      -0.792	     -73.549	      19.929	     136.555	     -26.053	      49.605	      -9.680	     -76.272
	3.500000000	      -0.910	     -82.323	      19.373	     131.507	     -25.295	      45.167	      -9.598	     -84.469
	4.000000000	      -1.008	     -90.064	      18.810	     127.090	     -24.720	      41.295	      -9.518	     -91.540
	4.500000000	      -1.111	     -96.942	      18.249	     122.965	     -24.290	      37.816	      -9.443	     -97.907
	5.000000000	      -1.184	    -103.028	      17.696	     119.388	     -23.949	      34.799	      -9.394	    -103.236
	5.500000000	      -1.253	    -108.533	      17.163	     116.047	     -23.684	      32.131	      -9.358	    -107.910
	6.000000000	      -1.312	    -113.419	      16.639	     113.052	     -23.462	      29.760	      -9.297	    -111.896
	6.500000000	      -1.359	    -117.771	      16.135	     110.351	     -23.292	      27.641	      -9.247	    -115.403
	7.000000000	      -1.403	    -121.700	      15.651	     107.812	     -23.148	      25.717	      -9.194	    -118.458
	7.500000000	      -1.432	    -125.226	      15.181	     105.492	     -23.033	      23.999	      -9.144	    -121.201
	8.000000000	      -1.443	    -128.220	      14.750	     103.452	     -22.911	      22.560	      -9.132	    -122.980
	8.500000000	      -1.472	    -131.200	      14.314	     101.437	     -22.830	      21.079	      -9.092	    -125.127
	9.000000000	      -1.501	    -133.880	      13.889	      99.552	     -22.766	      19.696	      -9.048	    -127.059
	9.500000000	      -1.519	    -136.368	      13.492	      97.727	     -22.710	      18.385	      -9.000	    -128.754
	10.000000000	      -1.534	    -138.673	      13.106	      96.015	     -22.682	      17.177	      -8.956	    -130.382
	10.500000000	      -1.554	    -140.827	      12.733	      94.349	     -22.660	      16.130	      -8.916	    -131.793
	11.000000000	      -1.566	    -142.785	      12.375	      92.812	     -22.640	      15.166	      -8.874	    -133.011
	11.500000000	      -1.583	    -144.647	      12.025	      91.313	     -22.631	      14.207	      -8.829	    -134.152
	12.000000000	      -1.596	    -146.361	      11.691	      89.890	     -22.624	      13.399	      -8.778	    -135.137
	12.500000000	      -1.603	    -147.960	      11.366	      88.517	     -22.620	      12.594	      -8.721	    -136.171
	13.000000000	      -1.612	    -149.461	      11.051	      87.174	     -22.615	      11.842	      -8.670	    -137.075
	13.500000000	      -1.621	    -150.894	      10.747	      85.896	     -22.628	      11.087	      -8.614	    -137.809
	14.000000000	      -1.632	    -152.250	      10.450	      84.653	     -22.645	      10.437	      -8.557	    -138.495
	14.500000000	      -1.636	    -153.474	      10.163	      83.441	     -22.662	       9.840	      -8.507	    -139.211
	15.000000000	      -1.640	    -154.575	       9.883	      82.278	     -22.675	       9.325	      -8.461	    -139.904
	15.500000000	      -1.645	    -155.681	       9.611	      81.120	     -22.684	       8.828	      -8.407	    -140.440
	16.000000000	      -1.649	    -156.775	       9.347	      79.996	     -22.687	       8.237	      -8.344	    -140.950
	16.500000000	      -1.652	    -157.830	       9.090	      78.885	     -22.717	       7.642	      -8.290	    -141.392
	17.000000000	      -1.652	    -158.812	       8.841	      77.808	     -22.752	       7.188	      -8.238	    -141.886
	17.500000000	      -1.660	    -159.698	       8.593	      76.755	     -22.774	       6.757	      -8.177	    -142.391
	18.000000000	      -1.669	    -160.570	       8.357	      75.728	     -22.808	       6.307	      -8.118	    -142.875
	18.500000000	      -1.670	    -161.427	       8.125	      74.719	     -22.828	       5.835	      -8.051	    -143.241
	19.000000000	      -1.668	    -162.243	       7.897	      73.718	     -22.868	       5.361	      -7.993	    -143.610
	19.500000000	      -1.666	    -163.018	       7.675	      72.745	     -22.928	       5.049	      -7.941	    -143.975
	20.000000000	      -1.672	    -163.762	       7.460	      71.794	     -22.990	       4.926	      -7.897	    -144.301
	20.500000000	      -1.675	    -164.452	       7.252	      70.837	     -23.014	       4.793	      -7.831	    -144.576
	21.000000000	      -1.674	    -165.133	       7.046	      69.894	     -23.020	       4.508	      -7.763	    -144.887
	21.500000000	      -1.665	    -165.856	       6.843	      68.956	     -23.048	       4.234	      -7.698	    -145.152
	22.000000000	      -1.658	    -166.464	       6.646	      68.027	     -23.073	       3.785	      -7.633	    -145.442
	22.500000000	      -1.656	    -167.108	       6.447	      67.088	     -23.101	       3.413	      -7.578	    -145.763
	23.000000000	      -1.659	    -167.733	       6.251	      66.192	     -23.144	       3.039	      -7.514	    -146.162
	23.500000000	      -1.660	    -168.389	       6.058	      65.312	     -23.238	       2.634	      -7.457	    -146.586
	24.000000000	      -1.670	    -168.979	       5.873	      64.497	     -23.347	       2.660	      -7.419	    -146.776
	24.500000000	      -1.665	    -169.393	       5.699	      63.643	     -23.367	       2.854	      -7.361	    -146.820
	25.000000000	      -1.653	    -169.850	       5.523	      62.754	     -23.332	       2.624	      -7.293	    -146.985
	25.500000000	      -1.655	    -170.438	       5.343	      61.921	     -23.372	       2.525	      -7.221	    -147.254
	26.000000000	      -1.654	    -170.979	       5.170	      61.083	     -23.422	       2.100	      -7.140	    -147.585
	26.500000000	      -1.648	    -171.480	       5.002	      60.238	     -23.456	       1.775	      -7.068	    -147.869
	27.000000000	      -1.641	    -171.865	       4.835	      59.430	     -23.536	       1.427	      -7.018	    -148.130
	27.500000000	      -1.647	    -172.240	       4.673	      58.704	     -23.672	       1.655	      -6.980	    -148.255
	28.000000000	      -1.642	    -172.765	       4.521	      57.900	     -23.728	       1.859	      -6.914	    -148.455
	28.500000000	      -1.623	    -173.224	       4.375	      57.021	     -23.670	       2.252	      -6.825	    -148.673
	29.000000000	      -1.618	    -173.676	       4.211	      56.147	     -23.670	       2.074	      -6.760	    -148.998
	29.500000000	      -1.613	    -174.112	       4.051	      55.330	     -23.714	       1.517	      -6.699	    -149.259
	30.000000000	      -1.615	    -174.493	       3.900	      54.605	     -23.789	       1.306	      -6.641	    -149.470
	30.500000000	      -1.614	    -174.930	       3.748	      53.825	     -23.840	       1.328	      -6.591	    -149.717
	31.000000000	      -1.606	    -175.385	       3.601	      53.064	     -23.909	       0.959	      -6.538	    -149.979
	31.500000000	      -1.594	    -175.748	       3.467	      52.344	     -24.022	       1.554	      -6.483	    -150.178
	32.000000000	      -1.594	    -176.067	       3.326	      51.529	     -24.019	       1.824	      -6.415	    -150.357
	32.500000000	      -1.602	    -176.527	       3.181	      50.689	     -23.986	       1.571	      -6.346	    -150.543
	33.000000000	      -1.601	    -176.928	       3.038	      49.949	     -23.981	       1.608	      -6.285	    -150.822
	33.500000000	      -1.589	    -177.307	       2.894	      49.220	     -24.082	       1.543	      -6.232	    -151.119
	34.000000000	      -1.580	    -177.646	       2.755	      48.479	     -24.100	       1.048	      -6.171	    -151.461
	34.500000000	      -1.584	    -178.023	       2.609	      47.691	     -24.176	       0.973	      -6.098	    -151.693
	35.000000000	      -1.586	    -178.386	       2.470	      47.015	     -24.274	       0.884	      -6.042	    -152.035
	35.500000000	      -1.583	    -178.724	       2.351	      46.317	     -24.318	       1.577	      -5.998	    -152.148
	36.000000000	      -1.577	    -179.034	       2.225	      45.515	     -24.291	       1.349	      -5.932	    -152.371
	36.500000000	      -1.564	    -179.240	       2.099	      44.786	     -24.275	       1.173	      -5.859	    -152.656
	37.000000000	      -1.558	    -179.518	       1.971	      44.048	     -24.332	       0.901	      -5.810	    -152.886
	37.500000000	      -1.556	    -179.896	       1.841	      43.339	     -24.393	       0.945	      -5.760	    -153.146
	38.000000000	      -1.552	     179.750	       1.712	      42.618	     -24.434	       0.764	      -5.699	    -153.398
	38.500000000	      -1.541	     179.368	       1.578	      41.926	     -24.567	       0.602	      -5.642	    -153.783
	39.000000000	      -1.528	     179.132	       1.459	      41.265	     -24.617	       1.035	      -5.586	    -154.027
	39.500000000	      -1.524	     178.915	       1.344	      40.595	     -24.724	       1.105	      -5.534	    -154.300
	40.000000000	      -1.514	     178.498	       1.234	      39.814	     -24.602	       1.523	      -5.466	    -154.583
	40.500000000	      -1.512	     178.034	       1.107	      39.086	     -24.674	       1.207	      -5.407	    -154.853
	41.000000000	      -1.501	     177.690	       0.987	      38.363	     -24.701	       1.056	      -5.354	    -155.181
	41.500000000	      -1.495	     177.530	       0.866	      37.696	     -24.795	       1.157	      -5.321	    -155.397
	42.000000000	      -1.500	     177.197	       0.749	      37.013	     -24.856	       0.922	      -5.255	    -155.503
	42.500000000	      -1.516	     176.843	       0.628	      36.406	     -24.916	       0.792	      -5.205	    -155.583
	43.000000000	      -1.512	     176.583	       0.532	      35.791	     -25.005	       1.399	      -5.142	    -155.871
	43.500000000	      -1.495	     176.400	       0.419	      35.014	     -24.976	       1.876	      -5.091	    -156.236
	44.000000000	      -1.504	     176.108	       0.303	      34.284	     -25.006	       1.952	      -5.029	    -156.589
	44.500000000	      -1.514	     175.678	       0.180	      33.634	     -24.969	       1.626	      -4.973	    -156.895
	45.000000000	      -1.523	     175.394	       0.063	      32.958	     -25.083	       1.107	      -4.912	    -157.176
	45.500000000	      -1.474	     174.973	      -0.208	      32.415	     -25.222	       0.985	      -4.777	    -158.138
	46.000000000	      -1.459	     174.737	      -0.329	      31.826	     -25.350	       0.497	      -4.739	    -158.405
	46.500000000	      -1.441	     174.400	      -0.427	      31.201	     -25.466	       1.730	      -4.659	    -158.601
	47.000000000	      -1.446	     174.044	      -0.522	      30.542	     -25.516	       1.859	      -4.611	    -158.822
	47.500000000	      -1.440	     173.742	      -0.641	      29.819	     -25.417	       2.445	      -4.577	    -158.979
	48.000000000	      -1.429	     173.453	      -0.753	      29.215	     -25.447	       3.199	      -4.531	    -159.258
	48.500000000	      -1.426	     173.079	      -0.863	      28.574	     -25.460	       1.790	      -4.472	    -159.622
	49.000000000	      -1.440	     172.904	      -0.973	      27.930	     -25.649	       2.261	      -4.412	    -159.821
	49.500000000	      -1.445	     172.647	      -1.071	      27.333	     -25.510	       1.395	      -4.354	    -160.018
	50.000000000	      -1.430	     172.343	      -1.188	      26.829	     -25.692	       2.402	      -4.301	    -160.398
	50.500000000	      -1.418	     172.087	      -1.275	      26.242	     -25.890	       2.957	      -4.300	    -160.842
	51.000000000	      -1.414	     171.845	      -1.393	      25.614	     -25.740	       2.944	      -4.258	    -161.197
	51.500000000	      -1.405	     171.614	      -1.483	      25.007	     -25.764	       3.565	      -4.227	    -161.517
	52.000000000	      -1.392	     171.395	      -1.589	      24.283	     -25.708	       3.158	      -4.172	    -161.729
	52.500000000	      -1.386	     171.029	      -1.704	      23.756	     -25.704	       2.923	      -4.136	    -161.836
	53.000000000	      -1.380	     170.666	      -1.805	      23.144	     -25.841	       3.341	      -4.102	    -161.902
	53.500000000	      -1.378	     170.497	      -1.912	      22.623	     -25.805	       2.330	      -4.053	    -162.131
	54.000000000	      -1.370	     170.195	      -1.991	      22.067	     -25.779	       2.919	      -3.980	    -162.540
	54.500000000	      -1.369	     169.818	      -2.083	      21.517	     -25.989	       3.729	      -3.946	    -162.699
	55.000000000	      -1.381	     169.399	      -2.169	      20.849	     -25.873	       3.266	      -3.900	    -162.883
	55.500000000	      -1.372	     169.063	      -2.250	      20.241	     -25.783	       3.271	      -3.854	    -163.176
	56.000000000	      -1.367	     168.775	      -2.347	      19.625	     -25.781	       2.898	      -3.832	    -163.700
	56.500000000	      -1.380	     168.595	      -2.454	      18.901	     -25.877	       3.247	      -3.789	    -164.061
	57.000000000	      -1.366	     168.323	      -2.543	      18.321	     -25.943	       2.356	      -3.756	    -164.375
	57.500000000	      -1.368	     168.150	      -2.642	      17.724	     -25.965	       2.802	      -3.730	    -164.539
	58.000000000	      -1.340	     167.935	      -2.731	      17.177	     -26.030	       1.640	      -3.691	    -164.872
	58.500000000	      -1.324	     167.797	      -2.815	      16.540	     -26.074	       3.354	      -3.646	    -165.135
	59.000000000	      -1.317	     167.332	      -2.879	      15.949	     -25.931	       3.363	      -3.600	    -165.249
	59.500000000	      -1.333	     167.231	      -3.014	      15.110	     -26.125	       1.780	      -3.541	    -165.542
	60.000000000	      -1.327	     167.049	      -3.080	      14.490	     -26.031	       3.700	      -3.571	    -166.006
	60.500000000	      -1.303	     166.762	      -3.191	      13.869	     -26.357	       2.078	      -3.548	    -165.945
	61.000000000	      -1.274	     166.477	      -3.294	      13.427	     -26.203	       2.596	      -3.515	    -166.270
	61.500000000	      -1.256	     166.247	      -3.394	      12.957	     -26.258	       3.092	      -3.481	    -166.366
	62.000000000	      -1.255	     165.977	      -3.470	      12.362	     -26.406	       2.366	      -3.479	    -166.472
	62.500000000	      -1.266	     165.551	      -3.539	      11.639	     -26.230	       4.326	      -3.470	    -166.621
	63.000000000	      -1.245	     165.091	      -3.618	      11.095	     -26.173	       5.434	      -3.378	    -166.701
	63.500000000	      -1.241	     164.983	      -3.691	      10.278	     -26.413	       3.696	      -3.335	    -167.088
	64.000000000	      -1.239	     165.034	      -3.771	       9.531	     -26.046	       3.173	      -3.256	    -167.031
	64.500000000	      -1.213	     164.893	      -3.856	       8.879	     -26.206	       4.728	      -3.221	    -166.743
	65.000000000	      -1.212	     164.447	      -3.958	       7.833	     -26.284	       3.334	      -3.148	    -167.329
	65.500000000	      -1.206	     163.942	      -4.059	       7.263	     -25.994	       2.168	      -3.139	    -168.137
	66.000000000	      -1.211	     163.586	      -4.191	       6.318	     -26.398	       3.890	      -3.096	    -168.475
	66.500000000	      -1.220	     163.375	      -4.288	       5.565	     -26.429	       2.874	      -3.080	    -168.455
	67.000000000	      -1.278	     163.048	      -4.379	       5.126	     -26.263	       3.908	      -3.068	    -168.452
	67.500000000	      -1.270	     162.263	      -4.538	       4.242	     -26.202	       3.504	      -3.048	    -168.965
	68.000000000	      -1.304	     162.071	      -4.633	       3.641	     -26.227	       3.311	      -3.076	    -169.227
	68.500000000	      -1.341	     161.818	      -4.742	       3.015	     -26.186	       2.727	      -3.022	    -169.307
	69.000000000	      -1.372	     161.581	      -4.874	       2.485	     -26.212	       1.929	      -2.957	    -169.659
	69.500000000	      -1.368	     161.364	      -5.002	       2.001	     -26.319	       1.877	      -2.950	    -169.842
	70.000000000	      -1.356	     161.147	      -5.100	       1.523	     -26.367	       2.113	      -2.918	    -169.904
	70.500000000	      -1.340	     160.957	      -5.206	       1.056	     -26.352	       2.274	      -2.884	    -170.086
	71.000000000	      -1.331	     160.766	      -5.274	       0.646	     -26.330	       1.812	      -2.839	    -170.334
	71.500000000	      -1.274	     160.652	      -5.397	       0.212	     -26.301	       1.299	      -2.781	    -170.609
	72.000000000	      -1.293	     160.307	      -5.523	      -0.478	     -26.265	       0.035	      -2.784	    -170.751
	72.500000000	      -1.313	     159.863	      -5.642	      -1.109	     -26.413	      -0.932	      -2.761	    -171.070
	73.000000000	      -1.341	     159.653	      -5.753	      -1.631	     -26.556	      -1.658	      -2.720	    -171.271
	73.500000000	      -1.371	     159.516	      -5.867	      -2.168	     -26.834	      -1.808	      -2.652	    -171.576
	74.000000000	      -1.379	     159.251	      -5.982	      -2.554	     -27.000	      -1.187	      -2.650	    -172.124
	74.500000000	      -1.413	     159.017	      -6.074	      -2.958	     -27.102	      -0.576	      -2.667	    -172.354
	75.000000000	      -1.446	     158.907	      -6.184	      -3.487	     -27.194	      -0.419	      -2.661	    -172.441
	75.500000000	      -1.474	     158.905	      -6.303	      -3.975	     -27.428	       0.218	      -2.652	    -172.544
	76.000000000	      -1.487	     158.998	      -6.416	      -4.314	     -27.750	       2.348	      -2.659	    -172.636
	76.500000000	      -1.481	     159.121	      -6.538	      -4.440	     -27.882	       6.669	      -2.657	    -172.483
	77.000000000	      -1.452	     159.171	      -6.610	      -4.545	     -27.455	      10.888	      -2.594	    -172.376
	77.500000000	      -1.381	     159.038	      -6.645	      -4.594	     -26.728	      12.507	      -2.504	    -172.442
	78.000000000	      -1.281	     158.760	      -6.646	      -4.889	     -26.099	      11.967	      -2.461	    -172.528
	78.500000000	      -1.253	     158.219	      -6.677	      -5.722	     -25.659	       9.895	      -2.411	    -172.852
	79.000000000	      -1.292	     157.547	      -6.749	      -6.625	     -25.393	       7.437	      -2.351	    -173.177
	79.500000000	      -1.313	     157.082	      -6.825	      -7.414	     -25.210	       5.138	      -2.302	    -173.443
