!File name = EG0520U_1010_6x60_2SDBCB2EV_1915934D06_RC7325_3Vd_18mA.s2p
!Base file name = EG0520U_1010_6x60_2SDBCB2EV_1915934D06_RC7325
!Date = 8/23/2019
!Time = 1:08 PM
!Test duration(min) = 0.15
!Test = S-Parameters
!MPTS version = 8.91.5
!State File = C:\Data\PNA\20190821205423\S-Parameters_2019-08-23.sta
!Cal File = 
!ComputerName = CMPE-LAB-6
!Comments = 
!Attenuation = 0
!Z0 = 50
!Input Power(dBm) = -13.00
!Device ID = EG0520U_1010_6x60_2SDBCB2EV
!Row = 73
!Column = 25
!Technology = QPHT09
!Lot/Wafer = 1915934D06
!Gate Size = 360
!Mask = EG0520
!Cal Standards = GaAs BCB
!Cal Kit = EG2306
!Job Number = 20190821205423
!Device Type = FET
!set_Vg(v) = -1.500
!set_Vd(v) = 3.000
!set_Vd(mA) = 18.000
!file_name = EG0520U_1010_6x60_2SDBCB2EV_1915934D06_RC7325_3Vd_18mA.s2p
!Vd(V) = 3.000
!Vd(mA) = 17.895
!Vg(V) = -0.647
!Vg(mA) = -0.004
# GHz   S   DB   R   50
!%	Freq(GHz)	     s11(dB)	    s11(deg)	     s21(dB)	    s21(deg)	     s12(dB)	    s12(deg)	     s22(dB)	    s22(deg)
	0.500000000	      -0.050	     -12.265	      19.580	     172.305	     -37.489	      81.822	      -7.522	     -12.601
	1.000000000	      -0.127	     -24.293	      19.288	     164.520	     -31.656	      75.338	      -7.557	     -24.395
	1.500000000	      -0.163	     -35.827	      19.023	     158.386	     -28.404	      68.783	      -7.531	     -35.907
	2.000000000	      -0.306	     -46.733	      18.811	     151.245	     -26.288	      62.416	      -7.549	     -47.405
	2.500000000	      -0.397	     -56.909	      18.454	     145.360	     -24.822	      56.998	      -7.697	     -57.009
	3.000000000	      -0.782	     -64.084	      17.853	     140.152	     -23.931	      52.693	      -8.025	     -61.077
	3.500000000	      -0.902	     -72.470	      17.418	     135.259	     -23.078	      48.328	      -8.100	     -68.620
	4.000000000	      -1.019	     -80.002	      16.946	     130.832	     -22.413	      44.379	      -8.163	     -75.413
	4.500000000	      -1.158	     -86.774	      16.449	     126.502	     -21.908	      40.674	      -8.219	     -81.811
	5.000000000	      -1.243	     -92.902	      15.968	     122.884	     -21.504	      37.484	      -8.284	     -87.320
	5.500000000	      -1.339	     -98.572	      15.495	     119.361	     -21.192	      34.655	      -8.369	     -92.275
	6.000000000	      -1.421	    -103.693	      15.031	     116.153	     -20.920	      32.038	      -8.397	     -96.611
	6.500000000	      -1.484	    -108.275	      14.572	     113.293	     -20.704	      29.692	      -8.424	    -100.509
	7.000000000	      -1.550	    -112.466	      14.126	     110.532	     -20.524	      27.501	      -8.439	    -104.005
	7.500000000	      -1.596	    -116.249	      13.690	     108.028	     -20.379	      25.530	      -8.447	    -107.212
	8.000000000	      -1.624	    -119.493	      13.286	     105.802	     -20.241	      23.890	      -8.470	    -109.425
	8.500000000	      -1.668	    -122.734	      12.878	     103.596	     -20.137	      22.186	      -8.479	    -112.019
	9.000000000	      -1.712	    -125.627	      12.472	     101.533	     -20.046	      20.583	      -8.474	    -114.305
	9.500000000	      -1.745	    -128.373	      12.095	      99.510	     -19.974	      19.073	      -8.463	    -116.375
	10.000000000	      -1.770	    -130.891	      11.725	      97.651	     -19.919	      17.648	      -8.449	    -118.327
	10.500000000	      -1.800	    -133.264	      11.369	      95.815	     -19.880	      16.375	      -8.434	    -120.119
	11.000000000	      -1.819	    -135.432	      11.025	      94.131	     -19.842	      15.189	      -8.415	    -121.684
	11.500000000	      -1.845	    -137.479	      10.686	      92.479	     -19.813	      14.030	      -8.390	    -123.146
	12.000000000	      -1.864	    -139.386	      10.365	      90.910	     -19.794	      13.001	      -8.354	    -124.460
	12.500000000	      -1.875	    -141.166	      10.051	      89.429	     -19.776	      11.991	      -8.317	    -125.761
	13.000000000	      -1.891	    -142.840	       9.745	      87.922	     -19.768	      11.019	      -8.279	    -127.012
	13.500000000	      -1.904	    -144.432	       9.449	      86.524	     -19.767	      10.063	      -8.235	    -128.009
	14.000000000	      -1.917	    -145.952	       9.162	      85.153	     -19.767	       9.245	      -8.190	    -128.959
	14.500000000	      -1.923	    -147.334	       8.882	      83.817	     -19.772	       8.415	      -8.149	    -129.970
	15.000000000	      -1.930	    -148.568	       8.608	      82.544	     -19.776	       7.695	      -8.110	    -130.845
	15.500000000	      -1.937	    -149.801	       8.343	      81.273	     -19.782	       6.977	      -8.062	    -131.615
	16.000000000	      -1.943	    -151.012	       8.085	      80.036	     -19.780	       6.187	      -8.006	    -132.347
	16.500000000	      -1.949	    -152.185	       7.832	      78.817	     -19.798	       5.458	      -7.954	    -133.003
	17.000000000	      -1.951	    -153.276	       7.588	      77.635	     -19.819	       4.768	      -7.904	    -133.716
	17.500000000	      -1.960	    -154.268	       7.344	      76.473	     -19.833	       4.186	      -7.851	    -134.382
	18.000000000	      -1.972	    -155.237	       7.112	      75.345	     -19.859	       3.482	      -7.796	    -135.040
	18.500000000	      -1.973	    -156.186	       6.884	      74.245	     -19.875	       2.873	      -7.733	    -135.587
	19.000000000	      -1.973	    -157.092	       6.659	      73.144	     -19.910	       2.243	      -7.676	    -136.125
	19.500000000	      -1.970	    -157.951	       6.442	      72.081	     -19.953	       1.693	      -7.625	    -136.654
	20.000000000	      -1.975	    -158.771	       6.229	      71.040	     -20.002	       1.262	      -7.579	    -137.143
	20.500000000	      -1.978	    -159.551	       6.027	      69.999	     -20.025	       0.928	      -7.515	    -137.578
	21.000000000	      -1.977	    -160.308	       5.823	      68.962	     -20.034	       0.507	      -7.448	    -138.053
	21.500000000	      -1.969	    -161.108	       5.623	      67.935	     -20.058	      -0.022	      -7.385	    -138.464
	22.000000000	      -1.960	    -161.806	       5.427	      66.931	     -20.077	      -0.559	      -7.322	    -138.898
	22.500000000	      -1.960	    -162.491	       5.231	      65.905	     -20.095	      -1.134	      -7.267	    -139.352
	23.000000000	      -1.963	    -163.145	       5.038	      64.930	     -20.135	      -1.686	      -7.206	    -139.875
	23.500000000	      -1.964	    -163.887	       4.846	      63.973	     -20.209	      -2.289	      -7.150	    -140.406
	24.000000000	      -1.972	    -164.531	       4.663	      63.078	     -20.301	      -2.571	      -7.108	    -140.728
	24.500000000	      -1.965	    -165.014	       4.491	      62.160	     -20.324	      -2.615	      -7.047	    -140.903
	25.000000000	      -1.950	    -165.516	       4.318	      61.189	     -20.318	      -2.917	      -6.979	    -141.195
	25.500000000	      -1.950	    -166.154	       4.143	      60.283	     -20.365	      -3.377	      -6.911	    -141.586
	26.000000000	      -1.953	    -166.744	       3.969	      59.379	     -20.392	      -3.853	      -6.829	    -142.039
	26.500000000	      -1.945	    -167.272	       3.803	      58.459	     -20.411	      -4.341	      -6.761	    -142.415
	27.000000000	      -1.938	    -167.716	       3.636	      57.577	     -20.468	      -4.843	      -6.707	    -142.775
	27.500000000	      -1.939	    -168.133	       3.475	      56.790	     -20.593	      -5.026	      -6.663	    -142.990
	28.000000000	      -1.936	    -168.685	       3.323	      55.930	     -20.653	      -4.985	      -6.602	    -143.322
	28.500000000	      -1.915	    -169.191	       3.181	      54.980	     -20.631	      -5.029	      -6.514	    -143.663
	29.000000000	      -1.907	    -169.689	       3.019	      54.040	     -20.634	      -5.509	      -6.451	    -144.082
	29.500000000	      -1.901	    -170.169	       2.863	      53.171	     -20.677	      -6.028	      -6.386	    -144.439
	30.000000000	      -1.903	    -170.591	       2.710	      52.374	     -20.750	      -6.419	      -6.335	    -144.731
	30.500000000	      -1.904	    -171.064	       2.560	      51.519	     -20.759	      -6.786	      -6.280	    -145.066
	31.000000000	      -1.891	    -171.531	       2.411	      50.712	     -20.838	      -7.087	      -6.227	    -145.405
	31.500000000	      -1.879	    -171.927	       2.281	      49.902	     -20.933	      -7.072	      -6.172	    -145.687
	32.000000000	      -1.874	    -172.319	       2.141	      49.063	     -20.955	      -7.017	      -6.104	    -145.951
	32.500000000	      -1.886	    -172.717	       2.000	      48.162	     -20.952	      -7.302	      -6.033	    -146.229
	33.000000000	      -1.882	    -173.194	       1.857	      47.365	     -20.972	      -7.525	      -5.978	    -146.599
	33.500000000	      -1.870	    -173.628	       1.712	      46.578	     -21.060	      -8.147	      -5.922	    -146.954
	34.000000000	      -1.862	    -173.978	       1.574	      45.793	     -21.104	      -8.366	      -5.861	    -147.370
	34.500000000	      -1.860	    -174.381	       1.429	      44.893	     -21.136	      -8.814	      -5.785	    -147.662
	35.000000000	      -1.861	    -174.768	       1.293	      44.171	     -21.213	      -8.901	      -5.738	    -148.070
	35.500000000	      -1.858	    -175.141	       1.174	      43.461	     -21.293	      -9.017	      -5.690	    -148.273
	36.000000000	      -1.852	    -175.468	       1.050	      42.618	     -21.284	      -9.111	      -5.623	    -148.587
	36.500000000	      -1.835	    -175.732	       0.923	      41.825	     -21.284	      -9.151	      -5.554	    -148.917
	37.000000000	      -1.826	    -176.007	       0.796	      41.031	     -21.308	      -9.724	      -5.498	    -149.252
	37.500000000	      -1.826	    -176.384	       0.671	      40.256	     -21.363	     -10.077	      -5.453	    -149.576
	38.000000000	      -1.821	    -176.786	       0.539	      39.511	     -21.433	     -10.170	      -5.402	    -149.857
	38.500000000	      -1.803	    -177.177	       0.406	      38.772	     -21.524	     -10.961	      -5.341	    -150.267
	39.000000000	      -1.792	    -177.405	       0.291	      38.065	     -21.618	     -10.636	      -5.283	    -150.627
	39.500000000	      -1.784	    -177.658	       0.175	      37.359	     -21.692	     -10.870	      -5.224	    -150.987
	40.000000000	      -1.770	    -178.114	       0.067	      36.531	     -21.662	     -11.056	      -5.163	    -151.309
	40.500000000	      -1.770	    -178.603	      -0.061	      35.763	     -21.716	     -11.006	      -5.097	    -151.643
	41.000000000	      -1.755	    -178.949	      -0.180	      34.959	     -21.734	     -11.366	      -5.051	    -152.063
	41.500000000	      -1.749	    -179.171	      -0.300	      34.272	     -21.828	     -11.708	      -5.015	    -152.269
	42.000000000	      -1.753	    -179.479	      -0.418	      33.545	     -21.895	     -11.826	      -4.956	    -152.473
	42.500000000	      -1.765	    -179.876	      -0.535	      32.880	     -21.965	     -12.135	      -4.900	    -152.595
	43.000000000	      -1.762	     179.891	      -0.633	      32.237	     -22.051	     -11.718	      -4.835	    -152.927
	43.500000000	      -1.744	     179.607	      -0.744	      31.464	     -22.072	     -11.705	      -4.799	    -153.367
	44.000000000	      -1.750	     179.403	      -0.864	      30.696	     -22.083	     -11.870	      -4.733	    -153.771
	44.500000000	      -1.759	     178.921	      -0.976	      29.951	     -22.159	     -12.559	      -4.669	    -154.075
	45.000000000	      -1.765	     178.607	      -1.095	      29.237	     -22.105	     -12.740	      -4.616	    -154.464
	45.500000000	      -1.721	     178.104	      -1.365	      28.596	     -22.345	     -13.259	      -4.499	    -155.465
	46.000000000	      -1.693	     177.863	      -1.487	      27.959	     -22.473	     -13.384	      -4.455	    -155.852
	46.500000000	      -1.684	     177.484	      -1.583	      27.361	     -22.534	     -12.955	      -4.388	    -156.017
	47.000000000	      -1.686	     177.107	      -1.684	      26.623	     -22.644	     -13.454	      -4.332	    -156.294
	47.500000000	      -1.676	     176.792	      -1.790	      25.870	     -22.747	     -13.053	      -4.296	    -156.501
	48.000000000	      -1.657	     176.488	      -1.905	      25.171	     -22.619	     -13.137	      -4.253	    -156.821
	48.500000000	      -1.653	     176.150	      -2.007	      24.492	     -22.733	     -13.302	      -4.192	    -157.110
	49.000000000	      -1.663	     175.947	      -2.126	      23.827	     -22.724	     -13.667	      -4.126	    -157.398
	49.500000000	      -1.680	     175.710	      -2.225	      23.266	     -22.892	     -14.027	      -4.065	    -157.647
	50.000000000	      -1.657	     175.444	      -2.352	      22.621	     -23.040	     -14.154	      -4.035	    -158.116
	50.500000000	      -1.651	     175.091	      -2.429	      22.046	     -23.066	     -13.650	      -4.010	    -158.688
	51.000000000	      -1.624	     174.756	      -2.534	      21.358	     -22.999	     -13.390	      -4.004	    -158.973
	51.500000000	      -1.631	     174.622	      -2.646	      20.712	     -23.061	     -13.278	      -3.945	    -159.354
	52.000000000	      -1.608	     174.343	      -2.739	      20.029	     -23.035	     -13.876	      -3.907	    -159.619
	52.500000000	      -1.609	     174.002	      -2.850	      19.354	     -23.091	     -14.362	      -3.873	    -159.712
	53.000000000	      -1.603	     173.611	      -2.954	      18.760	     -23.155	     -14.745	      -3.829	    -159.853
	53.500000000	      -1.598	     173.381	      -3.048	      18.228	     -23.134	     -14.831	      -3.781	    -160.283
	54.000000000	      -1.583	     173.167	      -3.141	      17.685	     -23.125	     -14.800	      -3.716	    -160.568
	54.500000000	      -1.584	     172.654	      -3.226	      17.039	     -23.259	     -14.929	      -3.687	    -160.762
	55.000000000	      -1.594	     172.297	      -3.314	      16.384	     -23.318	     -14.571	      -3.636	    -160.956
	55.500000000	      -1.590	     172.003	      -3.399	      15.727	     -23.309	     -15.468	      -3.599	    -161.313
	56.000000000	      -1.575	     171.626	      -3.488	      15.077	     -23.324	     -14.700	      -3.561	    -161.716
	56.500000000	      -1.589	     171.395	      -3.591	      14.483	     -23.290	     -15.201	      -3.560	    -162.469
	57.000000000	      -1.578	     171.285	      -3.663	      13.691	     -23.322	     -15.086	      -3.523	    -162.358
	57.500000000	      -1.591	     171.020	      -3.788	      13.047	     -23.652	     -16.517	      -3.472	    -162.849
	58.000000000	      -1.546	     170.821	      -3.879	      12.458	     -23.649	     -17.184	      -3.432	    -163.057
	58.500000000	      -1.520	     170.549	      -3.942	      11.872	     -23.722	     -15.762	      -3.378	    -163.461
	59.000000000	      -1.539	     170.217	      -4.030	      11.209	     -23.506	     -17.656	      -3.349	    -163.709
	59.500000000	      -1.525	     170.069	      -4.130	      10.602	     -23.521	     -16.115	      -3.295	    -163.914
	60.000000000	      -1.522	     169.881	      -4.214	       9.667	     -23.687	     -16.890	      -3.305	    -164.217
	60.500000000	      -1.484	     169.536	      -4.328	       9.164	     -23.663	     -17.695	      -3.306	    -164.515
	61.000000000	      -1.457	     169.236	      -4.423	       8.592	     -24.042	     -18.027	      -3.260	    -164.685
	61.500000000	      -1.450	     168.893	      -4.521	       8.077	     -24.051	     -17.292	      -3.232	    -164.914
	62.000000000	      -1.445	     168.529	      -4.583	       7.359	     -24.075	     -16.486	      -3.196	    -165.087
	62.500000000	      -1.449	     168.226	      -4.675	       6.928	     -24.099	     -16.411	      -3.199	    -165.231
	63.000000000	      -1.441	     167.830	      -4.750	       6.178	     -23.865	     -16.499	      -3.115	    -165.293
	63.500000000	      -1.429	     167.647	      -4.810	       5.382	     -24.110	     -17.911	      -3.074	    -165.765
	64.000000000	      -1.410	     167.707	      -4.893	       4.548	     -24.244	     -16.405	      -2.998	    -165.708
	64.500000000	      -1.393	     167.461	      -5.005	       3.845	     -24.196	     -17.207	      -2.943	    -165.705
	65.000000000	      -1.411	     167.020	      -5.069	       2.960	     -24.298	     -18.734	      -2.903	    -166.188
	65.500000000	      -1.399	     166.574	      -5.218	       2.177	     -24.084	     -17.620	      -2.880	    -166.929
	66.000000000	      -1.404	     166.303	      -5.343	       1.450	     -24.460	     -16.620	      -2.845	    -167.384
	66.500000000	      -1.408	     166.114	      -5.447	       0.649	     -24.451	     -17.798	      -2.810	    -167.222
	67.000000000	      -1.452	     165.618	      -5.526	       0.126	     -24.401	     -16.204	      -2.838	    -167.342
	67.500000000	      -1.448	     164.995	      -5.692	      -0.928	     -24.343	     -17.806	      -2.813	    -167.897
	68.000000000	      -1.492	     164.794	      -5.804	      -1.589	     -24.308	     -18.305	      -2.844	    -168.155
	68.500000000	      -1.525	     164.551	      -5.893	      -2.184	     -24.319	     -18.315	      -2.793	    -168.430
	69.000000000	      -1.551	     164.328	      -6.034	      -2.751	     -24.339	     -19.204	      -2.733	    -168.641
	69.500000000	      -1.542	     164.091	      -6.151	      -3.219	     -24.467	     -19.408	      -2.722	    -168.886
	70.000000000	      -1.525	     163.881	      -6.248	      -3.783	     -24.559	     -19.364	      -2.692	    -169.019
	70.500000000	      -1.507	     163.668	      -6.355	      -4.251	     -24.531	     -19.065	      -2.658	    -169.175
	71.000000000	      -1.495	     163.448	      -6.436	      -4.576	     -24.543	     -19.330	      -2.625	    -169.371
	71.500000000	      -1.466	     163.269	      -6.561	      -5.276	     -24.509	     -19.692	      -2.561	    -169.632
	72.000000000	      -1.445	     162.874	      -6.669	      -5.758	     -24.499	     -20.407	      -2.570	    -169.925
	72.500000000	      -1.468	     162.481	      -6.777	      -6.444	     -24.555	     -21.469	      -2.545	    -170.213
	73.000000000	      -1.501	     162.275	      -6.893	      -7.057	     -24.690	     -22.566	      -2.512	    -170.417
	73.500000000	      -1.517	     162.148	      -7.011	      -7.521	     -24.914	     -23.090	      -2.444	    -170.774
	74.000000000	      -1.527	     161.889	      -7.126	      -7.982	     -25.088	     -22.818	      -2.447	    -171.298
	74.500000000	      -1.555	     161.631	      -7.219	      -8.336	     -25.207	     -22.515	      -2.466	    -171.538
	75.000000000	      -1.583	     161.538	      -7.322	      -8.906	     -25.324	     -22.583	      -2.454	    -171.643
	75.500000000	      -1.612	     161.447	      -7.444	      -9.387	     -25.548	     -22.759	      -2.449	    -171.786
	76.000000000	      -1.622	     161.556	      -7.558	      -9.699	     -25.912	     -21.952	      -2.458	    -171.891
	76.500000000	      -1.612	     161.670	      -7.687	      -9.821	     -26.277	     -18.951	      -2.451	    -171.794
	77.000000000	      -1.581	     161.712	      -7.753	      -9.820	     -26.211	     -14.415	      -2.399	    -171.692
	77.500000000	      -1.512	     161.543	      -7.782	      -9.819	     -25.745	     -11.299	      -2.308	    -171.821
	78.000000000	      -1.430	     161.202	      -7.778	     -10.138	     -25.187	     -10.298	      -2.264	    -171.953
	78.500000000	      -1.384	     160.599	      -7.791	     -10.934	     -24.736	     -11.031	      -2.223	    -172.297
	79.000000000	      -1.420	     159.918	      -7.848	     -11.852	     -24.446	     -12.513	      -2.166	    -172.582
	79.500000000	      -1.453	     159.461	      -7.911	     -12.693	     -24.213	     -14.092	      -2.127	    -172.875
