!File name = EG0520U_1010_6x60_2SDBCB2EV_1915934D06_RC7325_3.5Vd_36mA.s2p
!Base file name = EG0520U_1010_6x60_2SDBCB2EV_1915934D06_RC7325
!Date = 8/23/2019
!Time = 1:10 PM
!Test duration(min) = 0.15
!Test = S-Parameters
!MPTS version = 8.91.5
!State File = C:\Data\PNA\20190821205423\S-Parameters_2019-08-23.sta
!Cal File = 
!ComputerName = CMPE-LAB-6
!Comments = 
!Attenuation = 0
!Z0 = 50
!Input Power(dBm) = -13.00
!Device ID = EG0520U_1010_6x60_2SDBCB2EV
!Row = 73
!Column = 25
!Technology = QPHT09
!Lot/Wafer = 1915934D06
!Gate Size = 360
!Mask = EG0520
!Cal Standards = GaAs BCB
!Cal Kit = EG2306
!Job Number = 20190821205423
!Device Type = FET
!set_Vg(v) = -1.500
!set_Vd(v) = 3.500
!set_Vd(mA) = 36.000
!file_name = EG0520U_1010_6x60_2SDBCB2EV_1915934D06_RC7325_3.5Vd_36mA.s2p
!Vd(V) = 3.500
!Vd(mA) = 36.171
!Vg(V) = -0.555
!Vg(mA) = -0.003
# GHz   S   DB   R   50
!%	Freq(GHz)	     s11(dB)	    s11(deg)	     s21(dB)	    s21(deg)	     s12(dB)	    s12(deg)	     s22(dB)	    s22(deg)
	0.500000000	      -0.057	     -14.195	      21.637	     171.298	     -38.955	      81.234	      -8.704	     -14.734
	1.000000000	      -0.139	     -28.079	      21.236	     162.991	     -33.170	      73.942	      -8.732	     -28.235
	1.500000000	      -0.178	     -41.219	      20.898	     155.820	     -29.998	      66.810	      -8.681	     -41.208
	2.000000000	      -0.319	     -53.189	      20.639	     148.567	     -27.969	      60.126	      -8.675	     -53.854
	2.500000000	      -0.413	     -64.351	      20.211	     142.226	     -26.568	      54.407	      -8.776	     -64.148
	3.000000000	      -0.800	     -71.911	      19.541	     137.062	     -25.742	      50.059	      -9.142	     -68.359
	3.500000000	      -0.917	     -80.635	      19.003	     132.022	     -24.970	      45.659	      -9.190	     -76.227
	4.000000000	      -1.016	     -88.355	      18.456	     127.550	     -24.378	      41.736	      -9.227	     -83.178
	4.500000000	      -1.125	     -95.219	      17.906	     123.385	     -23.935	      38.219	      -9.256	     -89.516
	5.000000000	      -1.199	    -101.338	      17.364	     119.754	     -23.582	      35.179	      -9.292	     -94.889
	5.500000000	      -1.271	    -106.865	      16.842	     116.365	     -23.308	      32.488	      -9.332	     -99.638
	6.000000000	      -1.334	    -111.802	      16.325	     113.307	     -23.080	      30.031	      -9.333	    -103.757
	6.500000000	      -1.383	    -116.189	      15.829	     110.547	     -22.899	      27.859	      -9.332	    -107.403
	7.000000000	      -1.428	    -120.172	      15.351	     107.948	     -22.754	      25.881	      -9.322	    -110.602
	7.500000000	      -1.460	    -123.743	      14.886	     105.572	     -22.632	      24.120	      -9.306	    -113.494
	8.000000000	      -1.473	    -126.780	      14.459	     103.478	     -22.511	      22.631	      -9.315	    -115.385
	8.500000000	      -1.505	    -129.805	      14.027	     101.404	     -22.427	      21.114	      -9.300	    -117.689
	9.000000000	      -1.535	    -132.524	      13.605	      99.460	     -22.358	      19.670	      -9.274	    -119.714
	9.500000000	      -1.556	    -135.053	      13.211	      97.584	     -22.301	      18.336	      -9.243	    -121.523
	10.000000000	      -1.571	    -137.394	      12.827	      95.819	     -22.269	      17.079	      -9.214	    -123.226
	10.500000000	      -1.593	    -139.586	      12.457	      94.102	     -22.245	      15.972	      -9.182	    -124.782
	11.000000000	      -1.605	    -141.582	      12.100	      92.514	     -22.217	      14.966	      -9.144	    -126.130
	11.500000000	      -1.624	    -143.477	      11.752	      90.958	     -22.208	      13.966	      -9.107	    -127.340
	12.000000000	      -1.638	    -145.216	      11.419	      89.496	     -22.202	      13.095	      -9.053	    -128.466
	12.500000000	      -1.645	    -146.848	      11.095	      88.069	     -22.194	      12.257	      -9.003	    -129.550
	13.000000000	      -1.655	    -148.373	      10.781	      86.679	     -22.192	      11.458	      -8.954	    -130.543
	13.500000000	      -1.664	    -149.831	      10.477	      85.358	     -22.202	      10.633	      -8.896	    -131.351
	14.000000000	      -1.675	    -151.217	      10.182	      84.066	     -22.220	       9.983	      -8.837	    -132.118
	14.500000000	      -1.679	    -152.466	       9.895	      82.809	     -22.232	       9.326	      -8.786	    -132.945
	15.000000000	      -1.682	    -153.591	       9.615	      81.601	     -22.246	       8.772	      -8.735	    -133.657
	15.500000000	      -1.687	    -154.714	       9.345	      80.402	     -22.257	       8.229	      -8.676	    -134.261
	16.000000000	      -1.692	    -155.831	       9.081	      79.231	     -22.264	       7.559	      -8.608	    -134.837
	16.500000000	      -1.695	    -156.904	       8.823	      78.085	     -22.292	       6.980	      -8.544	    -135.397
	17.000000000	      -1.696	    -157.905	       8.575	      76.965	     -22.328	       6.462	      -8.489	    -135.878
	17.500000000	      -1.703	    -158.810	       8.327	      75.867	     -22.342	       5.992	      -8.423	    -136.462
	18.000000000	      -1.712	    -159.692	       8.092	      74.804	     -22.384	       5.476	      -8.358	    -136.997
	18.500000000	      -1.712	    -160.568	       7.859	      73.756	     -22.405	       4.960	      -8.284	    -137.428
	19.000000000	      -1.711	    -161.407	       7.630	      72.711	     -22.448	       4.458	      -8.218	    -137.842
	19.500000000	      -1.709	    -162.197	       7.409	      71.698	     -22.509	       4.143	      -8.161	    -138.267
	20.000000000	      -1.714	    -162.948	       7.193	      70.707	     -22.563	       3.897	      -8.106	    -138.636
	20.500000000	      -1.716	    -163.655	       6.986	      69.714	     -22.589	       3.741	      -8.034	    -138.966
	21.000000000	      -1.714	    -164.375	       6.780	      68.737	     -22.598	       3.451	      -7.955	    -139.338
	21.500000000	      -1.707	    -165.085	       6.576	      67.755	     -22.624	       3.136	      -7.883	    -139.646
	22.000000000	      -1.699	    -165.700	       6.377	      66.795	     -22.640	       2.659	      -7.811	    -139.989
	22.500000000	      -1.698	    -166.353	       6.179	      65.822	     -22.675	       2.184	      -7.748	    -140.356
	23.000000000	      -1.702	    -166.956	       5.982	      64.888	     -22.724	       1.784	      -7.679	    -140.810
	23.500000000	      -1.702	    -167.653	       5.789	      63.974	     -22.816	       1.343	      -7.615	    -141.284
	24.000000000	      -1.711	    -168.251	       5.602	      63.122	     -22.926	       1.273	      -7.566	    -141.520
	24.500000000	      -1.706	    -168.678	       5.428	      62.241	     -22.957	       1.507	      -7.499	    -141.603
	25.000000000	      -1.692	    -169.142	       5.252	      61.315	     -22.954	       1.293	      -7.423	    -141.802
	25.500000000	      -1.693	    -169.708	       5.073	      60.432	     -22.992	       1.074	      -7.341	    -142.133
	26.000000000	      -1.693	    -170.304	       4.899	      59.571	     -23.010	       0.656	      -7.256	    -142.539
	26.500000000	      -1.687	    -170.794	       4.730	      58.696	     -23.060	       0.305	      -7.178	    -142.871
	27.000000000	      -1.678	    -171.201	       4.561	      57.850	     -23.139	      -0.052	      -7.114	    -143.161
	27.500000000	      -1.683	    -171.583	       4.398	      57.090	     -23.275	      -0.041	      -7.073	    -143.246
	28.000000000	      -1.679	    -172.108	       4.245	      56.262	     -23.348	       0.288	      -7.001	    -143.602
	28.500000000	      -1.660	    -172.572	       4.100	      55.337	     -23.277	       0.651	      -6.902	    -143.884
	29.000000000	      -1.655	    -173.044	       3.935	      54.434	     -23.299	       0.224	      -6.831	    -144.242
	29.500000000	      -1.649	    -173.438	       3.777	      53.593	     -23.342	      -0.256	      -6.760	    -144.563
	30.000000000	      -1.650	    -173.871	       3.621	      52.838	     -23.429	      -0.369	      -6.705	    -144.802
	30.500000000	      -1.651	    -174.308	       3.470	      52.022	     -23.462	      -0.702	      -6.642	    -145.105
	31.000000000	      -1.644	    -174.756	       3.320	      51.236	     -23.547	      -0.819	      -6.581	    -145.422
	31.500000000	      -1.632	    -175.144	       3.187	      50.449	     -23.636	      -0.428	      -6.523	    -145.657
	32.000000000	      -1.629	    -175.453	       3.045	      49.640	     -23.663	      -0.106	      -6.449	    -145.864
	32.500000000	      -1.639	    -175.880	       2.900	      48.770	     -23.645	      -0.377	      -6.368	    -146.118
	33.000000000	      -1.636	    -176.333	       2.758	      47.999	     -23.650	      -0.487	      -6.311	    -146.425
	33.500000000	      -1.626	    -176.732	       2.610	      47.236	     -23.728	      -0.809	      -6.248	    -146.791
	34.000000000	      -1.615	    -177.069	       2.469	      46.460	     -23.759	      -0.866	      -6.180	    -147.152
	34.500000000	      -1.615	    -177.458	       2.321	      45.645	     -23.852	      -1.271	      -6.098	    -147.419
	35.000000000	      -1.620	    -177.808	       2.183	      44.936	     -23.907	      -1.117	      -6.045	    -147.852
	35.500000000	      -1.618	    -178.160	       2.063	      44.206	     -23.966	      -0.785	      -5.992	    -147.987
	36.000000000	      -1.612	    -178.470	       1.938	      43.397	     -23.954	      -0.648	      -5.919	    -148.271
	36.500000000	      -1.596	    -178.710	       1.808	      42.626	     -23.984	      -0.909	      -5.848	    -148.588
	37.000000000	      -1.591	    -178.966	       1.679	      41.872	     -24.013	      -1.434	      -5.786	    -148.884
	37.500000000	      -1.583	    -179.364	       1.550	      41.098	     -24.106	      -1.427	      -5.741	    -149.171
	38.000000000	      -1.585	    -179.729	       1.418	      40.377	     -24.072	      -1.645	      -5.671	    -149.453
	38.500000000	      -1.573	     179.901	       1.281	      39.659	     -24.283	      -1.954	      -5.612	    -149.880
	39.000000000	      -1.562	     179.669	       1.164	      38.977	     -24.226	      -1.381	      -5.549	    -150.191
	39.500000000	      -1.556	     179.426	       1.046	      38.286	     -24.368	      -1.558	      -5.483	    -150.546
	40.000000000	      -1.544	     179.014	       0.936	      37.466	     -24.384	      -1.266	      -5.421	    -150.810
	40.500000000	      -1.542	     178.549	       0.807	      36.717	     -24.373	      -1.149	      -5.353	    -151.149
	41.000000000	      -1.527	     178.212	       0.683	      35.959	     -24.467	      -1.459	      -5.302	    -151.585
	41.500000000	      -1.524	     177.989	       0.562	      35.284	     -24.506	      -1.316	      -5.265	    -151.767
	42.000000000	      -1.530	     177.713	       0.444	      34.549	     -24.569	      -1.303	      -5.194	    -151.947
	42.500000000	      -1.544	     177.352	       0.325	      33.918	     -24.671	      -1.844	      -5.136	    -151.986
	43.000000000	      -1.539	     177.123	       0.223	      33.289	     -24.721	      -1.077	      -5.071	    -152.371
	43.500000000	      -1.516	     176.840	       0.112	      32.514	     -24.647	      -0.757	      -5.027	    -152.744
	44.000000000	      -1.535	     176.615	      -0.004	      31.703	     -24.712	      -0.872	      -4.949	    -153.166
	44.500000000	      -1.539	     176.165	      -0.131	      31.059	     -24.753	      -0.990	      -4.894	    -153.529
	45.000000000	      -1.548	     175.840	      -0.247	      30.363	     -24.782	      -1.134	      -4.835	    -153.849
	45.500000000	      -1.506	     175.437	      -0.520	      29.757	     -24.954	      -1.628	      -4.704	    -154.914
	46.000000000	      -1.486	     175.210	      -0.638	      29.143	     -25.154	      -1.911	      -4.665	    -155.274
	46.500000000	      -1.468	     174.840	      -0.744	      28.526	     -25.195	      -1.011	      -4.589	    -155.442
	47.000000000	      -1.469	     174.463	      -0.843	      27.758	     -25.335	      -1.455	      -4.520	    -155.585
	47.500000000	      -1.468	     174.164	      -0.966	      27.092	     -25.279	      -0.427	      -4.498	    -155.853
	48.000000000	      -1.448	     173.889	      -1.078	      26.422	     -25.314	       0.256	      -4.438	    -156.134
	48.500000000	      -1.446	     173.546	      -1.184	      25.796	     -25.201	      -0.433	      -4.383	    -156.490
	49.000000000	      -1.461	     173.378	      -1.294	      25.145	     -25.382	      -0.219	      -4.317	    -156.799
	49.500000000	      -1.466	     173.124	      -1.404	      24.478	     -25.452	      -0.351	      -4.239	    -157.153
	50.000000000	      -1.450	     172.771	      -1.516	      23.911	     -25.484	      -0.101	      -4.217	    -157.410
	50.500000000	      -1.445	     172.497	      -1.603	      23.262	     -25.618	      -0.110	      -4.187	    -158.023
	51.000000000	      -1.441	     172.191	      -1.722	      22.660	     -25.548	      -0.552	      -4.160	    -158.399
	51.500000000	      -1.431	     172.046	      -1.818	      22.037	     -25.532	       0.359	      -4.128	    -158.716
	52.000000000	      -1.412	     171.854	      -1.926	      21.302	     -25.457	       0.540	      -4.069	    -158.943
	52.500000000	      -1.412	     171.440	      -2.046	      20.712	     -25.503	       0.770	      -4.034	    -159.094
	53.000000000	      -1.408	     171.062	      -2.137	      20.096	     -25.613	       0.335	      -3.999	    -159.279
	53.500000000	      -1.400	     170.895	      -2.239	      19.573	     -25.629	       0.450	      -3.929	    -159.486
	54.000000000	      -1.396	     170.641	      -2.334	      19.031	     -25.598	       0.507	      -3.873	    -159.841
	54.500000000	      -1.394	     170.207	      -2.417	      18.421	     -25.683	       1.069	      -3.817	    -160.130
	55.000000000	      -1.400	     169.799	      -2.517	      17.720	     -25.698	       0.775	      -3.775	    -160.194
	55.500000000	      -1.396	     169.453	      -2.597	      17.139	     -25.709	       0.911	      -3.734	    -160.563
	56.000000000	      -1.387	     169.237	      -2.682	      16.585	     -25.703	       0.313	      -3.704	    -161.109
	56.500000000	      -1.400	     168.948	      -2.791	      15.737	     -25.769	       0.495	      -3.680	    -161.576
	57.000000000	      -1.388	     168.789	      -2.890	      15.214	     -26.005	       0.724	      -3.660	    -161.706
	57.500000000	      -1.389	     168.525	      -3.014	      14.491	     -26.045	      -1.006	      -3.603	    -162.206
	58.000000000	      -1.371	     168.431	      -3.084	      13.985	     -26.047	      -0.616	      -3.570	    -162.440
	58.500000000	      -1.358	     168.070	      -3.175	      13.361	     -25.972	      -0.575	      -3.516	    -162.786
	59.000000000	      -1.345	     167.773	      -3.258	      12.632	     -25.797	       0.252	      -3.455	    -162.977
	59.500000000	      -1.345	     167.610	      -3.344	      11.781	     -26.081	       2.763	      -3.389	    -163.234
	60.000000000	      -1.354	     167.400	      -3.436	      11.255	     -26.136	       0.579	      -3.445	    -163.626
	60.500000000	      -1.326	     167.080	      -3.551	      10.669	     -25.824	       0.648	      -3.413	    -163.682
	61.000000000	      -1.287	     166.756	      -3.652	      10.138	     -26.237	       0.861	      -3.381	    -164.010
	61.500000000	      -1.284	     166.574	      -3.760	       9.596	     -26.462	       0.109	      -3.334	    -164.344
	62.000000000	      -1.270	     166.221	      -3.822	       8.870	     -26.521	      -0.928	      -3.316	    -164.385
	62.500000000	      -1.283	     165.920	      -3.892	       8.339	     -26.343	       1.963	      -3.312	    -164.540
	63.000000000	      -1.256	     165.442	      -3.974	       7.649	     -26.410	       2.778	      -3.231	    -164.512
	63.500000000	      -1.253	     165.261	      -4.068	       6.885	     -26.188	       2.862	      -3.176	    -164.912
	64.000000000	      -1.253	     165.345	      -4.137	       5.999	     -26.367	       2.670	      -3.114	    -164.921
	64.500000000	      -1.239	     165.149	      -4.189	       5.102	     -26.205	       2.650	      -3.048	    -164.695
	65.000000000	      -1.239	     164.785	      -4.318	       4.380	     -26.461	       1.561	      -2.976	    -165.062
	65.500000000	      -1.225	     164.161	      -4.455	       3.595	     -26.287	       2.338	      -2.984	    -166.147
	66.000000000	      -1.219	     163.980	      -4.568	       2.928	     -26.225	       0.529	      -2.940	    -166.683
	66.500000000	      -1.249	     163.712	      -4.688	       2.201	     -26.238	       1.393	      -2.914	    -166.475
	67.000000000	      -1.298	     163.258	      -4.803	       1.549	     -25.772	       1.128	      -2.916	    -166.563
	67.500000000	      -1.290	     162.636	      -4.940	       0.607	     -26.174	       1.013	      -2.894	    -167.111
	68.000000000	      -1.330	     162.392	      -5.045	      -0.087	     -26.139	       0.747	      -2.920	    -167.425
	68.500000000	      -1.365	     162.130	      -5.145	      -0.574	     -26.122	       0.410	      -2.880	    -167.603
	69.000000000	      -1.393	     161.910	      -5.273	      -1.245	     -26.106	      -0.367	      -2.814	    -167.847
	69.500000000	      -1.390	     161.684	      -5.403	      -1.705	     -26.284	      -0.554	      -2.797	    -168.102
	70.000000000	      -1.375	     161.460	      -5.502	      -2.226	     -26.327	      -0.258	      -2.781	    -168.235
	70.500000000	      -1.361	     161.275	      -5.618	      -2.761	     -26.288	      -0.182	      -2.728	    -168.360
	71.000000000	      -1.355	     161.058	      -5.713	      -3.238	     -26.258	      -0.559	      -2.698	    -168.622
	71.500000000	      -1.311	     160.930	      -5.845	      -3.757	     -26.253	      -1.205	      -2.626	    -168.845
	72.000000000	      -1.316	     160.634	      -5.952	      -4.296	     -26.237	      -2.152	      -2.639	    -169.152
	72.500000000	      -1.331	     160.166	      -6.067	      -4.943	     -26.357	      -3.300	      -2.612	    -169.475
	73.000000000	      -1.366	     159.950	      -6.180	      -5.503	     -26.527	      -4.280	      -2.570	    -169.685
	73.500000000	      -1.388	     159.830	      -6.304	      -6.016	     -26.796	      -4.309	      -2.503	    -170.037
	74.000000000	      -1.395	     159.559	      -6.419	      -6.391	     -26.983	      -3.584	      -2.505	    -170.601
	74.500000000	      -1.430	     159.316	      -6.517	      -6.795	     -27.076	      -3.036	      -2.524	    -170.836
	75.000000000	      -1.462	     159.221	      -6.624	      -7.307	     -27.161	      -2.650	      -2.514	    -170.950
	75.500000000	      -1.498	     159.179	      -6.750	      -7.765	     -27.428	      -1.981	      -2.506	    -171.081
	76.000000000	      -1.506	     159.263	      -6.870	      -8.121	     -27.747	      -0.059	      -2.515	    -171.207
	76.500000000	      -1.496	     159.444	      -6.990	      -8.194	     -27.922	       4.280	      -2.506	    -171.067
	77.000000000	      -1.471	     159.444	      -7.062	      -8.276	     -27.476	       8.791	      -2.436	    -170.976
	77.500000000	      -1.386	     159.312	      -7.089	      -8.298	     -26.768	      10.600	      -2.358	    -171.113
	78.000000000	      -1.302	     158.938	      -7.085	      -8.639	     -26.104	      10.245	      -2.311	    -171.258
	78.500000000	      -1.271	     158.440	      -7.112	      -9.449	     -25.674	       8.284	      -2.271	    -171.586
	79.000000000	      -1.302	     157.754	      -7.176	     -10.379	     -25.372	       5.742	      -2.215	    -171.904
	79.500000000	      -1.330	     157.269	      -7.248	     -11.251	     -25.212	       3.701	      -2.157	    -172.202
