!File name = EG0520U_1010_6x60_2SDBCB2EV_1915934D06_RC4034_3Vd_18mA.s2p
!Base file name = EG0520U_1010_6x60_2SDBCB2EV_1915934D06_RC4034
!Date = 8/23/2019
!Time = 12:57 PM
!Test duration(min) = 0.15
!Test = S-Parameters
!MPTS version = 8.91.5
!State File = C:\Data\PNA\20190821205423\S-Parameters_2019-08-23.sta
!Cal File = 
!ComputerName = CMPE-LAB-6
!Comments = 
!Attenuation = 0
!Z0 = 50
!Input Power(dBm) = -13.00
!Device ID = EG0520U_1010_6x60_2SDBCB2EV
!Row = 40
!Column = 34
!Technology = QPHT09
!Lot/Wafer = 1915934D06
!Gate Size = 360
!Mask = EG0520
!Cal Standards = GaAs BCB
!Cal Kit = EG2306
!Job Number = 20190821205423
!Device Type = FET
!set_Vg(v) = -1.500
!set_Vd(v) = 3.000
!set_Vd(mA) = 18.000
!file_name = EG0520U_1010_6x60_2SDBCB2EV_1915934D06_RC4034_3Vd_18mA.s2p
!Vd(V) = 3.000
!Vd(mA) = 17.802
!Vg(V) = -0.629
!Vg(mA) = -0.005
# GHz   S   DB   R   50
!%	Freq(GHz)	     s11(dB)	    s11(deg)	     s21(dB)	    s21(deg)	     s12(dB)	    s12(deg)	     s22(dB)	    s22(deg)
	0.500000000	      -0.055	     -12.466	      19.707	     172.179	     -37.447	      81.628	      -7.589	     -12.934
	1.000000000	      -0.134	     -24.702	      19.415	     164.269	     -31.614	      75.104	      -7.619	     -25.004
	1.500000000	      -0.170	     -36.419	      19.145	     158.041	     -28.373	      68.462	      -7.587	     -36.775
	2.000000000	      -0.318	     -47.467	      18.922	     150.805	     -26.267	      61.996	      -7.599	     -48.526
	2.500000000	      -0.409	     -57.796	      18.563	     144.850	     -24.810	      56.539	      -7.744	     -58.281
	3.000000000	      -0.798	     -65.027	      17.950	     139.627	     -23.927	      52.217	      -8.080	     -62.444
	3.500000000	      -0.921	     -73.507	      17.508	     134.674	     -23.083	      47.814	      -8.149	     -70.098
	4.000000000	      -1.037	     -81.089	      17.028	     130.226	     -22.429	      43.849	      -8.207	     -76.962
	4.500000000	      -1.176	     -87.904	      16.523	     125.873	     -21.932	      40.123	      -8.257	     -83.440
	5.000000000	      -1.261	     -94.067	      16.036	     122.232	     -21.534	      36.936	      -8.316	     -88.984
	5.500000000	      -1.355	     -99.754	      15.556	     118.699	     -21.229	      34.104	      -8.395	     -93.992
	6.000000000	      -1.435	    -104.904	      15.089	     115.470	     -20.963	      31.498	      -8.419	     -98.336
	6.500000000	      -1.499	    -109.495	      14.625	     112.603	     -20.750	      29.132	      -8.442	    -102.257
	7.000000000	      -1.563	    -113.697	      14.175	     109.827	     -20.575	      26.957	      -8.454	    -105.770
	7.500000000	      -1.609	    -117.488	      13.735	     107.313	     -20.438	      24.974	      -8.459	    -109.000
	8.000000000	      -1.636	    -120.733	      13.328	     105.075	     -20.300	      23.341	      -8.480	    -111.227
	8.500000000	      -1.678	    -123.986	      12.917	     102.857	     -20.199	      21.640	      -8.485	    -113.828
	9.000000000	      -1.721	    -126.883	      12.508	     100.787	     -20.114	      20.025	      -8.477	    -116.129
	9.500000000	      -1.753	    -129.639	      12.129	      98.748	     -20.044	      18.517	      -8.463	    -118.206
	10.000000000	      -1.776	    -132.158	      11.756	      96.879	     -19.992	      17.074	      -8.446	    -120.202
	10.500000000	      -1.806	    -134.538	      11.398	      95.032	     -19.953	      15.825	      -8.433	    -121.939
	11.000000000	      -1.824	    -136.704	      11.051	      93.336	     -19.919	      14.629	      -8.408	    -123.550
	11.500000000	      -1.849	    -138.761	      10.711	      91.668	     -19.895	      13.484	      -8.381	    -125.025
	12.000000000	      -1.867	    -140.673	      10.388	      90.100	     -19.877	      12.435	      -8.348	    -126.362
	12.500000000	      -1.878	    -142.466	      10.072	      88.590	     -19.861	      11.432	      -8.306	    -127.703
	13.000000000	      -1.893	    -144.135	       9.765	      87.080	     -19.855	      10.480	      -8.269	    -128.912
	13.500000000	      -1.903	    -145.746	       9.469	      85.662	     -19.849	       9.484	      -8.223	    -129.935
	14.000000000	      -1.916	    -147.281	       9.179	      84.272	     -19.861	       8.639	      -8.177	    -130.930
	14.500000000	      -1.924	    -148.669	       8.899	      82.921	     -19.866	       7.853	      -8.137	    -131.923
	15.000000000	      -1.930	    -149.917	       8.622	      81.631	     -19.877	       7.103	      -8.097	    -132.819
	15.500000000	      -1.938	    -151.163	       8.355	      80.343	     -19.881	       6.356	      -8.047	    -133.604
	16.000000000	      -1.943	    -152.391	       8.095	      79.086	     -19.888	       5.588	      -7.991	    -134.354
	16.500000000	      -1.950	    -153.564	       7.840	      77.855	     -19.904	       4.887	      -7.939	    -135.030
	17.000000000	      -1.951	    -154.665	       7.595	      76.661	     -19.930	       4.202	      -7.891	    -135.728
	17.500000000	      -1.960	    -155.666	       7.349	      75.481	     -19.948	       3.588	      -7.834	    -136.450
	18.000000000	      -1.969	    -156.647	       7.116	      74.336	     -19.975	       2.901	      -7.779	    -137.120
	18.500000000	      -1.971	    -157.606	       6.886	      73.219	     -19.991	       2.274	      -7.715	    -137.691
	19.000000000	      -1.971	    -158.515	       6.659	      72.099	     -20.026	       1.630	      -7.656	    -138.195
	19.500000000	      -1.968	    -159.387	       6.441	      71.024	     -20.070	       1.047	      -7.604	    -138.787
	20.000000000	      -1.974	    -160.224	       6.226	      69.966	     -20.132	       0.632	      -7.558	    -139.297
	20.500000000	      -1.977	    -161.015	       6.021	      68.914	     -20.155	       0.323	      -7.494	    -139.739
	21.000000000	      -1.975	    -161.793	       5.816	      67.871	     -20.172	      -0.131	      -7.427	    -140.234
	21.500000000	      -1.967	    -162.570	       5.615	      66.824	     -20.195	      -0.611	      -7.361	    -140.669
	22.000000000	      -1.960	    -163.238	       5.418	      65.811	     -20.219	      -1.141	      -7.296	    -141.045
	22.500000000	      -1.958	    -163.956	       5.221	      64.769	     -20.240	      -1.691	      -7.238	    -141.587
	23.000000000	      -1.960	    -164.617	       5.027	      63.778	     -20.285	      -2.207	      -7.177	    -142.101
	23.500000000	      -1.958	    -165.343	       4.835	      62.814	     -20.358	      -2.812	      -7.122	    -142.647
	24.000000000	      -1.965	    -166.005	       4.650	      61.894	     -20.447	      -3.013	      -7.078	    -142.979
	24.500000000	      -1.958	    -166.512	       4.477	      60.960	     -20.456	      -3.120	      -7.014	    -143.217
	25.000000000	      -1.943	    -167.051	       4.301	      59.962	     -20.452	      -3.466	      -6.942	    -143.514
	25.500000000	      -1.942	    -167.704	       4.125	      59.031	     -20.499	      -3.905	      -6.876	    -143.932
	26.000000000	      -1.946	    -168.303	       3.949	      58.106	     -20.528	      -4.404	      -6.798	    -144.398
	26.500000000	      -1.941	    -168.837	       3.778	      57.189	     -20.587	      -4.830	      -6.729	    -144.775
	27.000000000	      -1.935	    -169.283	       3.610	      56.297	     -20.644	      -5.443	      -6.671	    -145.174
	27.500000000	      -1.938	    -169.723	       3.446	      55.479	     -20.746	      -5.622	      -6.631	    -145.351
	28.000000000	      -1.937	    -170.266	       3.293	      54.634	     -20.837	      -5.667	      -6.567	    -145.752
	28.500000000	      -1.912	    -170.726	       3.152	      53.663	     -20.792	      -5.540	      -6.479	    -146.097
	29.000000000	      -1.903	    -171.257	       2.987	      52.698	     -20.802	      -5.944	      -6.415	    -146.546
	29.500000000	      -1.903	    -171.706	       2.826	      51.834	     -20.865	      -6.528	      -6.352	    -146.905
	30.000000000	      -1.901	    -172.179	       2.672	      51.030	     -20.926	      -6.928	      -6.298	    -147.194
	30.500000000	      -1.899	    -172.629	       2.522	      50.173	     -20.961	      -7.321	      -6.239	    -147.546
	31.000000000	      -1.887	    -173.055	       2.373	      49.352	     -21.025	      -7.531	      -6.183	    -147.889
	31.500000000	      -1.871	    -173.473	       2.244	      48.527	     -21.104	      -7.396	      -6.128	    -148.240
	32.000000000	      -1.866	    -173.862	       2.101	      47.663	     -21.136	      -7.576	      -6.060	    -148.510
	32.500000000	      -1.871	    -174.337	       1.957	      46.732	     -21.147	      -7.843	      -5.984	    -148.792
	33.000000000	      -1.864	    -174.760	       1.815	      45.888	     -21.155	      -8.182	      -5.927	    -149.134
	33.500000000	      -1.853	    -175.171	       1.669	      45.124	     -21.237	      -8.488	      -5.870	    -149.552
	34.000000000	      -1.844	    -175.585	       1.524	      44.307	     -21.286	      -8.931	      -5.807	    -149.937
	34.500000000	      -1.848	    -175.982	       1.378	      43.428	     -21.346	      -9.387	      -5.731	    -150.212
	35.000000000	      -1.850	    -176.342	       1.238	      42.738	     -21.440	      -9.693	      -5.682	    -150.630
	35.500000000	      -1.839	    -176.714	       1.120	      41.961	     -21.492	      -9.314	      -5.632	    -150.872
	36.000000000	      -1.836	    -177.071	       0.992	      41.090	     -21.514	      -9.437	      -5.558	    -151.187
	36.500000000	      -1.821	    -177.365	       0.862	      40.295	     -21.488	      -9.664	      -5.498	    -151.544
	37.000000000	      -1.817	    -177.659	       0.729	      39.504	     -21.562	     -10.026	      -5.439	    -151.903
	37.500000000	      -1.814	    -178.005	       0.596	      38.731	     -21.623	     -10.531	      -5.398	    -152.214
	38.000000000	      -1.809	    -178.361	       0.465	      38.006	     -21.715	     -10.640	      -5.330	    -152.534
	38.500000000	      -1.798	    -178.743	       0.336	      37.249	     -21.780	     -11.097	      -5.273	    -152.960
	39.000000000	      -1.789	    -178.997	       0.213	      36.561	     -21.856	     -10.853	      -5.215	    -153.336
	39.500000000	      -1.783	    -179.203	       0.097	      35.878	     -21.949	     -11.054	      -5.164	    -153.670
	40.000000000	      -1.766	    -179.617	      -0.007	      35.048	     -21.939	     -11.089	      -5.100	    -154.006
	40.500000000	      -1.756	     179.963	      -0.135	      34.240	     -21.976	     -11.301	      -5.041	    -154.299
	41.000000000	      -1.747	     179.577	      -0.256	      33.447	     -22.022	     -11.305	      -4.989	    -154.775
	41.500000000	      -1.741	     179.361	      -0.376	      32.719	     -22.110	     -12.030	      -4.953	    -154.964
	42.000000000	      -1.737	     179.041	      -0.495	      32.019	     -22.112	     -12.165	      -4.894	    -155.217
	42.500000000	      -1.745	     178.680	      -0.615	      31.295	     -22.231	     -12.119	      -4.826	    -155.390
	43.000000000	      -1.742	     178.415	      -0.717	      30.644	     -22.308	     -11.799	      -4.768	    -155.737
	43.500000000	      -1.719	     178.114	      -0.830	      29.815	     -22.271	     -11.641	      -4.727	    -156.124
	44.000000000	      -1.724	     177.829	      -0.950	      29.059	     -22.408	     -12.330	      -4.661	    -156.526
	44.500000000	      -1.735	     177.457	      -1.074	      28.337	     -22.390	     -12.500	      -4.599	    -156.831
	45.000000000	      -1.742	     177.123	      -1.188	      27.628	     -22.396	     -12.437	      -4.538	    -157.224
	45.500000000	      -1.701	     176.722	      -1.467	      27.051	     -22.620	     -12.937	      -4.417	    -158.160
	46.000000000	      -1.679	     176.471	      -1.584	      26.398	     -22.738	     -13.427	      -4.372	    -158.501
	46.500000000	      -1.665	     176.140	      -1.685	      25.781	     -22.920	     -13.309	      -4.298	    -158.702
	47.000000000	      -1.657	     175.762	      -1.793	      25.030	     -22.918	     -13.026	      -4.244	    -158.983
	47.500000000	      -1.655	     175.485	      -1.899	      24.331	     -22.977	     -12.806	      -4.210	    -159.189
	48.000000000	      -1.637	     175.185	      -2.007	      23.663	     -22.962	     -12.753	      -4.169	    -159.513
	48.500000000	      -1.632	     174.835	      -2.116	      22.965	     -22.965	     -13.362	      -4.119	    -159.847
	49.000000000	      -1.646	     174.592	      -2.234	      22.305	     -23.042	     -13.562	      -4.048	    -160.116
	49.500000000	      -1.644	     174.359	      -2.351	      21.644	     -23.059	     -14.025	      -3.976	    -160.464
	50.000000000	      -1.632	     174.105	      -2.450	      21.215	     -23.244	     -13.899	      -3.947	    -160.819
	50.500000000	      -1.624	     173.832	      -2.542	      20.579	     -23.193	     -13.687	      -3.935	    -161.288
	51.000000000	      -1.616	     173.540	      -2.664	      19.799	     -23.345	     -13.464	      -3.921	    -161.735
	51.500000000	      -1.610	     173.372	      -2.765	      19.216	     -23.338	     -12.719	      -3.871	    -162.098
	52.000000000	      -1.588	     173.133	      -2.858	      18.564	     -23.329	     -13.747	      -3.831	    -162.361
	52.500000000	      -1.582	     172.761	      -2.971	      17.948	     -23.360	     -13.661	      -3.801	    -162.473
	53.000000000	      -1.577	     172.459	      -3.070	      17.316	     -23.437	     -13.697	      -3.753	    -162.694
	53.500000000	      -1.572	     172.265	      -3.173	      16.854	     -23.495	     -14.371	      -3.695	    -162.949
	54.000000000	      -1.560	     172.010	      -3.264	      16.275	     -23.502	     -13.406	      -3.651	    -163.197
	54.500000000	      -1.556	     171.595	      -3.341	      15.607	     -23.536	     -13.291	      -3.606	    -163.499
	55.000000000	      -1.567	     171.233	      -3.438	      14.928	     -23.568	     -13.832	      -3.555	    -163.661
	55.500000000	      -1.556	     170.982	      -3.522	      14.334	     -23.639	     -14.117	      -3.519	    -163.970
	56.000000000	      -1.553	     170.716	      -3.623	      13.551	     -23.618	     -15.152	      -3.485	    -164.343
	56.500000000	      -1.551	     170.444	      -3.709	      13.057	     -23.488	     -15.072	      -3.449	    -165.004
	57.000000000	      -1.549	     170.244	      -3.830	      12.339	     -23.771	     -15.534	      -3.442	    -165.012
	57.500000000	      -1.554	     170.040	      -3.933	      11.757	     -23.915	     -15.046	      -3.368	    -165.413
	58.000000000	      -1.534	     169.895	      -4.015	      11.155	     -23.971	     -14.394	      -3.341	    -165.792
	58.500000000	      -1.511	     169.654	      -4.089	      10.604	     -24.016	     -15.812	      -3.311	    -166.007
	59.000000000	      -1.508	     169.252	      -4.176	       9.946	     -23.989	     -14.644	      -3.270	    -166.294
	59.500000000	      -1.496	     169.175	      -4.277	       9.069	     -23.654	     -14.811	      -3.219	    -166.491
	60.000000000	      -1.497	     169.014	      -4.350	       8.568	     -24.056	     -15.922	      -3.234	    -166.806
	60.500000000	      -1.463	     168.700	      -4.471	       7.909	     -24.072	     -14.750	      -3.214	    -166.961
	61.000000000	      -1.446	     168.387	      -4.551	       7.269	     -24.173	     -14.849	      -3.173	    -167.219
	61.500000000	      -1.441	     168.090	      -4.650	       6.822	     -24.235	     -16.318	      -3.142	    -167.451
	62.000000000	      -1.427	     167.837	      -4.727	       6.248	     -24.387	     -15.534	      -3.115	    -167.508
	62.500000000	      -1.429	     167.554	      -4.796	       5.501	     -24.511	     -14.378	      -3.112	    -167.697
	63.000000000	      -1.418	     167.042	      -4.891	       4.957	     -24.394	     -14.769	      -3.052	    -167.925
	63.500000000	      -1.400	     166.854	      -4.939	       4.116	     -24.353	     -14.631	      -2.996	    -168.311
	64.000000000	      -1.392	     166.915	      -5.022	       3.556	     -24.344	     -14.067	      -2.956	    -168.217
	64.500000000	      -1.387	     166.626	      -5.135	       2.587	     -24.446	     -14.920	      -2.922	    -168.165
	65.000000000	      -1.396	     166.306	      -5.205	       1.794	     -24.681	     -14.345	      -2.838	    -168.634
	65.500000000	      -1.386	     165.857	      -5.320	       1.037	     -24.646	     -15.326	      -2.821	    -169.299
	66.000000000	      -1.381	     165.561	      -5.464	       0.363	     -24.466	     -16.501	      -2.807	    -169.814
	66.500000000	      -1.399	     165.397	      -5.566	      -0.480	     -24.757	     -15.258	      -2.779	    -169.703
	67.000000000	      -1.425	     164.968	      -5.670	      -1.115	     -24.549	     -15.449	      -2.758	    -169.841
	67.500000000	      -1.429	     164.459	      -5.833	      -1.982	     -24.643	     -15.807	      -2.752	    -170.185
	68.000000000	      -1.456	     164.315	      -5.946	      -2.548	     -24.660	     -16.005	      -2.777	    -170.542
	68.500000000	      -1.478	     164.126	      -6.032	      -3.092	     -24.675	     -16.453	      -2.734	    -170.655
	69.000000000	      -1.500	     163.884	      -6.159	      -3.634	     -24.753	     -16.817	      -2.684	    -170.870
	69.500000000	      -1.496	     163.639	      -6.283	      -4.061	     -24.804	     -16.902	      -2.661	    -171.069
	70.000000000	      -1.484	     163.465	      -6.375	      -4.581	     -24.879	     -16.605	      -2.634	    -171.167
	70.500000000	      -1.472	     163.247	      -6.471	      -5.041	     -24.862	     -16.295	      -2.600	    -171.350
	71.000000000	      -1.466	     162.977	      -6.576	      -5.508	     -24.901	     -16.571	      -2.569	    -171.442
	71.500000000	      -1.447	     162.643	      -6.652	      -6.056	     -24.859	     -17.028	      -2.502	    -171.703
	72.000000000	      -1.446	     162.483	      -6.757	      -6.508	     -24.853	     -17.747	      -2.504	    -171.958
	72.500000000	      -1.459	     162.135	      -6.858	      -7.179	     -24.901	     -18.291	      -2.481	    -172.252
	73.000000000	      -1.480	     161.982	      -6.970	      -7.761	     -25.028	     -19.023	      -2.442	    -172.444
	73.500000000	      -1.495	     161.854	      -7.075	      -8.246	     -25.212	     -19.410	      -2.378	    -172.733
	74.000000000	      -1.495	     161.640	      -7.181	      -8.718	     -25.334	     -19.143	      -2.379	    -173.279
	74.500000000	      -1.518	     161.421	      -7.277	      -9.172	     -25.425	     -18.818	      -2.400	    -173.552
	75.000000000	      -1.545	     161.306	      -7.374	      -9.745	     -25.525	     -18.930	      -2.378	    -173.612
	75.500000000	      -1.564	     161.258	      -7.496	     -10.271	     -25.752	     -19.191	      -2.384	    -173.803
	76.000000000	      -1.583	     161.250	      -7.622	     -10.690	     -26.089	     -18.122	      -2.389	    -173.879
	76.500000000	      -1.579	     161.334	      -7.754	     -10.865	     -26.373	     -15.205	      -2.375	    -173.774
	77.000000000	      -1.551	     161.425	      -7.842	     -10.873	     -26.302	     -11.080	      -2.323	    -173.653
	77.500000000	      -1.490	     161.293	      -7.867	     -10.842	     -25.810	      -8.507	      -2.240	    -173.771
	78.000000000	      -1.409	     160.949	      -7.882	     -11.133	     -25.291	      -7.968	      -2.192	    -173.868
	78.500000000	      -1.365	     160.500	      -7.923	     -11.694	     -24.965	      -8.882	      -2.157	    -174.229
	79.000000000	      -1.374	     159.944	      -7.978	     -12.306	     -24.732	      -9.859	      -2.101	    -174.535
	79.500000000	      -1.393	     159.411	      -8.006	     -13.029	     -24.457	     -11.015	      -2.058	    -174.790
