!File name = EG0520U_1010_6x60_2SDBCB2EV_1915934D06_RC2952_2.5Vd_18mA.s2p
!Base file name = EG0520U_1010_6x60_2SDBCB2EV_1915934D06_RC2952
!Date = 8/23/2019
!Time = 1:13 PM
!Test duration(min) = 0.15
!Test = S-Parameters
!MPTS version = 8.91.5
!State File = C:\Data\PNA\20190821205423\S-Parameters_2019-08-23.sta
!Cal File = 
!ComputerName = CMPE-LAB-6
!Comments = 
!Attenuation = 0
!Z0 = 50
!Input Power(dBm) = -13.00
!Device ID = EG0520U_1010_6x60_2SDBCB2EV
!Row = 29
!Column = 52
!Technology = QPHT09
!Lot/Wafer = 1915934D06
!Gate Size = 360
!Mask = EG0520
!Cal Standards = GaAs BCB
!Cal Kit = EG2306
!Job Number = 20190821205423
!Device Type = FET
!set_Vg(v) = -1.500
!set_Vd(v) = 2.500
!set_Vd(mA) = 18.000
!file_name = EG0520U_1010_6x60_2SDBCB2EV_1915934D06_RC2952_2.5Vd_18mA.s2p
!Vd(V) = 2.500
!Vd(mA) = 17.938
!Vg(V) = -0.592
!Vg(mA) = -0.002
# GHz   S   DB   R   50
!%	Freq(GHz)	     s11(dB)	    s11(deg)	     s21(dB)	    s21(deg)	     s12(dB)	    s12(deg)	     s22(dB)	    s22(deg)
	0.500000000	      -0.039	     -12.693	      19.757	     172.155	     -37.083	      81.829	      -8.351	     -14.563
	1.000000000	      -0.121	     -25.155	      19.471	     164.013	     -31.260	      74.996	      -8.322	     -28.097
	1.500000000	      -0.160	     -37.063	      19.194	     157.820	     -28.029	      68.117	      -8.187	     -41.149
	2.000000000	      -0.317	     -48.345	      18.963	     150.383	     -25.944	      61.482	      -8.079	     -54.052
	2.500000000	      -0.411	     -58.820	      18.605	     144.406	     -24.508	      55.970	      -8.130	     -64.581
	3.000000000	      -0.811	     -66.162	      17.978	     139.222	     -23.630	      51.668	      -8.441	     -69.191
	3.500000000	      -0.935	     -74.759	      17.532	     134.226	     -22.797	      47.237	      -8.408	     -77.279
	4.000000000	      -1.054	     -82.403	      17.039	     129.823	     -22.155	      43.241	      -8.371	     -84.439
	4.500000000	      -1.197	     -89.273	      16.523	     125.452	     -21.670	      39.516	      -8.331	     -91.134
	5.000000000	      -1.282	     -95.472	      16.031	     121.848	     -21.282	      36.300	      -8.318	     -96.820
	5.500000000	      -1.377	    -101.197	      15.541	     118.337	     -20.985	      33.511	      -8.333	    -101.905
	6.000000000	      -1.459	    -106.375	      15.069	     115.124	     -20.726	      30.893	      -8.299	    -106.274
	6.500000000	      -1.522	    -110.981	      14.599	     112.293	     -20.521	      28.516	      -8.275	    -110.214
	7.000000000	      -1.586	    -115.185	      14.143	     109.550	     -20.352	      26.359	      -8.246	    -113.685
	7.500000000	      -1.632	    -118.992	      13.698	     107.059	     -20.219	      24.379	      -8.216	    -116.848
	8.000000000	      -1.661	    -122.240	      13.287	     104.860	     -20.088	      22.768	      -8.219	    -119.089
	8.500000000	      -1.703	    -125.491	      12.872	     102.674	     -19.990	      21.080	      -8.199	    -121.629
	9.000000000	      -1.745	    -128.386	      12.460	     100.636	     -19.907	      19.471	      -8.170	    -123.925
	9.500000000	      -1.777	    -131.144	      12.078	      98.629	     -19.837	      17.980	      -8.140	    -125.977
	10.000000000	      -1.800	    -133.681	      11.702	      96.784	     -19.793	      16.546	      -8.112	    -127.960
	10.500000000	      -1.833	    -136.063	      11.339	      94.965	     -19.761	      15.331	      -8.092	    -129.687
	11.000000000	      -1.853	    -138.221	      10.990	      93.313	     -19.726	      14.175	      -8.062	    -131.202
	11.500000000	      -1.876	    -140.261	      10.648	      91.688	     -19.699	      13.024	      -8.028	    -132.638
	12.000000000	      -1.892	    -142.181	      10.324	      90.151	     -19.685	      12.006	      -7.991	    -133.919
	12.500000000	      -1.902	    -143.977	      10.008	      88.676	     -19.669	      10.975	      -7.945	    -135.183
	13.000000000	      -1.915	    -145.666	       9.699	      87.191	     -19.663	      10.014	      -7.902	    -136.427
	13.500000000	      -1.928	    -147.270	       9.400	      85.801	     -19.667	       9.057	      -7.861	    -137.427
	14.000000000	      -1.943	    -148.806	       9.109	      84.451	     -19.679	       8.241	      -7.818	    -138.358
	14.500000000	      -1.949	    -150.196	       8.827	      83.132	     -19.691	       7.470	      -7.780	    -139.310
	15.000000000	      -1.954	    -151.447	       8.550	      81.867	     -19.698	       6.767	      -7.747	    -140.227
	15.500000000	      -1.962	    -152.680	       8.283	      80.615	     -19.699	       6.084	      -7.702	    -140.959
	16.000000000	      -1.967	    -153.903	       8.023	      79.392	     -19.698	       5.340	      -7.650	    -141.668
	16.500000000	      -1.970	    -155.093	       7.769	      78.190	     -19.715	       4.576	      -7.601	    -142.357
	17.000000000	      -1.972	    -156.199	       7.523	      77.021	     -19.740	       3.892	      -7.555	    -143.029
	17.500000000	      -1.979	    -157.210	       7.278	      75.865	     -19.754	       3.270	      -7.506	    -143.690
	18.000000000	      -1.988	    -158.201	       7.044	      74.740	     -19.785	       2.581	      -7.456	    -144.341
	18.500000000	      -1.989	    -159.168	       6.814	      73.642	     -19.801	       1.957	      -7.400	    -144.881
	19.000000000	      -1.989	    -160.110	       6.586	      72.548	     -19.842	       1.353	      -7.351	    -145.375
	19.500000000	      -1.988	    -160.990	       6.366	      71.495	     -19.893	       0.845	      -7.309	    -145.943
	20.000000000	      -1.993	    -161.812	       6.152	      70.467	     -19.927	       0.486	      -7.265	    -146.423
	20.500000000	      -1.995	    -162.606	       5.948	      69.432	     -19.942	       0.190	      -7.207	    -146.850
	21.000000000	      -1.995	    -163.423	       5.740	      68.403	     -19.952	      -0.418	      -7.147	    -147.354
	21.500000000	      -1.988	    -164.203	       5.539	      67.390	     -19.981	      -0.937	      -7.092	    -147.773
	22.000000000	      -1.985	    -164.887	       5.339	      66.417	     -20.024	      -1.544	      -7.039	    -148.204
	22.500000000	      -1.977	    -165.542	       5.145	      65.406	     -20.049	      -2.014	      -6.989	    -148.642
	23.000000000	      -1.978	    -166.228	       4.951	      64.421	     -20.082	      -2.576	      -6.932	    -149.156
	23.500000000	      -1.979	    -166.966	       4.759	      63.493	     -20.171	      -3.091	      -6.881	    -149.673
	24.000000000	      -1.982	    -167.630	       4.576	      62.579	     -20.240	      -3.313	      -6.840	    -150.023
	24.500000000	      -1.972	    -168.136	       4.403	      61.634	     -20.262	      -3.501	      -6.793	    -150.257
	25.000000000	      -1.956	    -168.646	       4.225	      60.680	     -20.262	      -3.763	      -6.737	    -150.567
	25.500000000	      -1.949	    -169.323	       4.048	      59.757	     -20.319	      -4.243	      -6.676	    -150.907
	26.000000000	      -1.956	    -169.984	       3.871	      58.844	     -20.333	      -4.663	      -6.603	    -151.323
	26.500000000	      -1.953	    -170.546	       3.698	      57.939	     -20.383	      -5.093	      -6.543	    -151.681
	27.000000000	      -1.946	    -170.972	       3.529	      57.076	     -20.421	      -5.586	      -6.494	    -152.047
	27.500000000	      -1.951	    -171.434	       3.361	      56.285	     -20.557	      -5.832	      -6.468	    -152.244
	28.000000000	      -1.955	    -171.962	       3.207	      55.467	     -20.607	      -5.860	      -6.405	    -152.626
	28.500000000	      -1.938	    -172.434	       3.060	      54.555	     -20.617	      -5.878	      -6.334	    -152.923
	29.000000000	      -1.925	    -172.885	       2.901	      53.640	     -20.613	      -6.164	      -6.279	    -153.290
	29.500000000	      -1.914	    -173.357	       2.745	      52.774	     -20.655	      -6.641	      -6.221	    -153.586
	30.000000000	      -1.908	    -173.787	       2.593	      51.974	     -20.709	      -7.097	      -6.172	    -153.868
	30.500000000	      -1.913	    -174.284	       2.443	      51.134	     -20.748	      -7.438	      -6.121	    -154.196
	31.000000000	      -1.898	    -174.748	       2.294	      50.295	     -20.804	      -7.800	      -6.073	    -154.536
	31.500000000	      -1.882	    -175.157	       2.159	      49.565	     -20.908	      -7.803	      -6.028	    -154.852
	32.000000000	      -1.882	    -175.555	       2.014	      48.703	     -20.934	      -7.618	      -5.971	    -155.048
	32.500000000	      -1.890	    -175.981	       1.872	      47.827	     -20.912	      -7.930	      -5.903	    -155.267
	33.000000000	      -1.889	    -176.423	       1.729	      47.035	     -20.961	      -8.293	      -5.848	    -155.608
	33.500000000	      -1.876	    -176.807	       1.581	      46.255	     -21.001	      -8.737	      -5.797	    -155.988
	34.000000000	      -1.864	    -177.124	       1.443	      45.491	     -21.070	      -9.039	      -5.734	    -156.371
	34.500000000	      -1.858	    -177.510	       1.299	      44.605	     -21.104	      -9.474	      -5.673	    -156.622
	35.000000000	      -1.855	    -177.892	       1.159	      43.874	     -21.211	      -9.517	      -5.616	    -157.035
	35.500000000	      -1.850	    -178.257	       1.043	      43.142	     -21.253	      -9.653	      -5.585	    -157.249
	36.000000000	      -1.833	    -178.619	       0.919	      42.320	     -21.252	      -9.592	      -5.515	    -157.515
	36.500000000	      -1.817	    -178.919	       0.782	      41.486	     -21.290	      -9.789	      -5.458	    -157.850
	37.000000000	      -1.811	    -179.222	       0.646	      40.742	     -21.286	     -10.338	      -5.407	    -158.134
	37.500000000	      -1.816	    -179.662	       0.510	      39.989	     -21.353	     -11.005	      -5.373	    -158.492
	38.000000000	      -1.819	     179.947	       0.373	      39.284	     -21.414	     -11.230	      -5.322	    -158.695
	38.500000000	      -1.811	     179.673	       0.238	      38.628	     -21.540	     -11.318	      -5.261	    -159.064
	39.000000000	      -1.796	     179.470	       0.126	      37.974	     -21.624	     -11.175	      -5.211	    -159.323
	39.500000000	      -1.794	     179.271	       0.012	      37.283	     -21.684	     -11.437	      -5.151	    -159.678
	40.000000000	      -1.782	     178.829	      -0.096	      36.499	     -21.668	     -11.362	      -5.094	    -159.944
	40.500000000	      -1.773	     178.424	      -0.217	      35.764	     -21.717	     -11.453	      -5.032	    -160.207
	41.000000000	      -1.754	     178.115	      -0.330	      35.012	     -21.760	     -11.642	      -4.989	    -160.639
	41.500000000	      -1.740	     177.953	      -0.450	      34.270	     -21.805	     -11.977	      -4.955	    -160.831
	42.000000000	      -1.740	     177.639	      -0.568	      33.533	     -21.845	     -12.481	      -4.897	    -160.994
	42.500000000	      -1.753	     177.257	      -0.693	      32.850	     -21.937	     -12.474	      -4.843	    -161.119
	43.000000000	      -1.747	     177.003	      -0.792	      32.255	     -22.067	     -12.291	      -4.792	    -161.365
	43.500000000	      -1.724	     176.740	      -0.908	      31.441	     -22.037	     -12.139	      -4.749	    -161.787
	44.000000000	      -1.728	     176.491	      -1.025	      30.701	     -22.082	     -12.564	      -4.680	    -162.147
	44.500000000	      -1.743	     176.049	      -1.151	      30.019	     -22.099	     -12.791	      -4.628	    -162.423
	45.000000000	      -1.753	     175.768	      -1.269	      29.338	     -22.157	     -13.161	      -4.573	    -162.804
	45.500000000	      -1.702	     175.387	      -1.547	      28.851	     -22.367	     -13.320	      -4.445	    -163.605
	46.000000000	      -1.682	     175.200	      -1.665	      28.229	     -22.390	     -13.863	      -4.410	    -163.868
	46.500000000	      -1.661	     174.822	      -1.768	      27.706	     -22.562	     -13.800	      -4.353	    -164.051
	47.000000000	      -1.666	     174.497	      -1.865	      27.007	     -22.637	     -13.722	      -4.298	    -164.184
	47.500000000	      -1.655	     174.226	      -1.978	      26.262	     -22.722	     -12.764	      -4.265	    -164.443
	48.000000000	      -1.638	     173.941	      -2.090	      25.676	     -22.689	     -13.199	      -4.225	    -164.752
	48.500000000	      -1.638	     173.645	      -2.199	      25.132	     -22.743	     -13.548	      -4.170	    -164.896
	49.000000000	      -1.643	     173.453	      -2.294	      24.495	     -22.770	     -13.210	      -4.120	    -165.060
	49.500000000	      -1.650	     173.225	      -2.410	      23.944	     -22.865	     -13.958	      -4.049	    -165.425
	50.000000000	      -1.632	     172.950	      -2.494	      23.435	     -22.878	     -14.207	      -4.011	    -165.642
	50.500000000	      -1.619	     172.732	      -2.581	      22.625	     -22.957	     -14.072	      -3.984	    -166.176
	51.000000000	      -1.603	     172.443	      -2.684	      21.972	     -23.101	     -12.828	      -3.973	    -166.400
	51.500000000	      -1.613	     172.258	      -2.789	      21.421	     -22.968	     -13.430	      -3.913	    -166.727
	52.000000000	      -1.587	     172.041	      -2.884	      20.692	     -23.034	     -13.903	      -3.870	    -166.933
	52.500000000	      -1.584	     171.689	      -2.997	      19.990	     -23.002	     -13.972	      -3.830	    -167.113
	53.000000000	      -1.580	     171.308	      -3.099	      19.355	     -23.098	     -14.109	      -3.779	    -167.218
	53.500000000	      -1.577	     171.223	      -3.205	      18.853	     -23.185	     -14.771	      -3.727	    -167.555
	54.000000000	      -1.559	     170.963	      -3.307	      18.311	     -23.178	     -14.554	      -3.678	    -167.767
	54.500000000	      -1.562	     170.616	      -3.389	      17.754	     -23.287	     -13.973	      -3.635	    -168.108
	55.000000000	      -1.565	     170.233	      -3.488	      17.098	     -23.296	     -14.535	      -3.588	    -168.302
	55.500000000	      -1.563	     169.922	      -3.561	      16.536	     -23.245	     -14.999	      -3.554	    -168.564
	56.000000000	      -1.551	     169.642	      -3.646	      15.884	     -23.236	     -14.868	      -3.525	    -169.017
	56.500000000	      -1.561	     169.433	      -3.763	      15.274	     -23.289	     -14.742	      -3.507	    -169.568
	57.000000000	      -1.556	     169.314	      -3.865	      14.581	     -23.419	     -16.407	      -3.492	    -169.675
	57.500000000	      -1.554	     169.154	      -3.980	      14.023	     -23.527	     -16.290	      -3.440	    -170.039
	58.000000000	      -1.526	     169.042	      -4.073	      13.547	     -23.808	     -14.904	      -3.418	    -170.261
	58.500000000	      -1.498	     168.942	      -4.145	      13.000	     -23.582	     -17.059	      -3.369	    -170.479
	59.000000000	      -1.484	     168.611	      -4.229	      12.294	     -23.745	     -15.715	      -3.342	    -170.708
	59.500000000	      -1.499	     168.330	      -4.340	      11.654	     -23.692	     -15.453	      -3.285	    -171.038
	60.000000000	      -1.494	     168.261	      -4.412	      11.213	     -23.807	     -15.189	      -3.311	    -171.341
	60.500000000	      -1.458	     168.035	      -4.512	      10.591	     -23.930	     -16.581	      -3.292	    -171.323
	61.000000000	      -1.419	     167.784	      -4.612	      10.186	     -23.945	     -15.804	      -3.250	    -171.597
	61.500000000	      -1.418	     167.505	      -4.703	       9.590	     -23.960	     -15.885	      -3.247	    -171.717
	62.000000000	      -1.398	     167.159	      -4.766	       9.066	     -24.166	     -16.599	      -3.215	    -171.795
	62.500000000	      -1.416	     166.933	      -4.853	       8.567	     -24.142	     -15.610	      -3.205	    -171.824
	63.000000000	      -1.388	     166.447	      -4.902	       7.949	     -24.245	     -16.021	      -3.147	    -171.891
	63.500000000	      -1.379	     166.340	      -4.988	       7.294	     -24.044	     -14.734	      -3.107	    -172.426
	64.000000000	      -1.375	     166.502	      -5.044	       6.450	     -24.171	     -15.855	      -3.066	    -172.308
	64.500000000	      -1.356	     166.380	      -5.118	       5.716	     -24.212	     -15.306	      -3.015	    -172.094
	65.000000000	      -1.366	     166.031	      -5.202	       5.038	     -24.106	     -15.658	      -2.977	    -172.514
	65.500000000	      -1.354	     165.467	      -5.342	       4.243	     -24.299	     -16.119	      -2.969	    -173.162
	66.000000000	      -1.356	     165.256	      -5.435	       3.459	     -24.343	     -16.571	      -2.943	    -173.540
	66.500000000	      -1.398	     165.052	      -5.566	       2.681	     -24.208	     -16.869	      -2.903	    -173.477
	67.000000000	      -1.428	     164.653	      -5.652	       2.029	     -24.220	     -16.040	      -2.884	    -173.355
	67.500000000	      -1.413	     164.081	      -5.820	       1.092	     -24.329	     -16.428	      -2.878	    -173.908
	68.000000000	      -1.458	     163.890	      -5.929	       0.556	     -24.347	     -16.409	      -2.899	    -174.110
	68.500000000	      -1.500	     163.680	      -6.003	       0.059	     -24.334	     -16.958	      -2.855	    -174.237
	69.000000000	      -1.525	     163.519	      -6.137	      -0.449	     -24.390	     -17.183	      -2.799	    -174.388
	69.500000000	      -1.520	     163.361	      -6.237	      -0.837	     -24.493	     -17.282	      -2.783	    -174.508
	70.000000000	      -1.495	     163.204	      -6.327	      -1.298	     -24.555	     -17.034	      -2.754	    -174.569
	70.500000000	      -1.471	     163.044	      -6.417	      -1.692	     -24.541	     -16.895	      -2.723	    -174.682
	71.000000000	      -1.462	     162.896	      -6.476	      -1.841	     -24.579	     -17.108	      -2.683	    -174.887
	71.500000000	      -1.407	     162.820	      -6.570	      -2.523	     -24.526	     -17.447	      -2.619	    -175.098
	72.000000000	      -1.405	     162.460	      -6.687	      -3.033	     -24.552	     -17.882	      -2.627	    -175.390
	72.500000000	      -1.424	     162.040	      -6.777	      -3.761	     -24.579	     -18.487	      -2.602	    -175.642
	73.000000000	      -1.460	     161.861	      -6.877	      -4.371	     -24.678	     -19.338	      -2.564	    -175.776
	73.500000000	      -1.475	     161.792	      -6.980	      -4.858	     -24.838	     -19.656	      -2.498	    -176.002
	74.000000000	      -1.479	     161.528	      -7.076	      -5.281	     -24.959	     -19.471	      -2.494	    -176.503
	74.500000000	      -1.515	     161.281	      -7.163	      -5.730	     -25.052	     -19.286	      -2.514	    -176.738
	75.000000000	      -1.551	     161.240	      -7.254	      -6.326	     -25.165	     -19.489	      -2.506	    -176.746
	75.500000000	      -1.581	     161.206	      -7.376	      -6.883	     -25.358	     -19.575	      -2.500	    -176.889
	76.000000000	      -1.594	     161.390	      -7.497	      -7.230	     -25.686	     -18.791	      -2.507	    -176.974
	76.500000000	      -1.584	     161.543	      -7.626	      -7.344	     -25.996	     -15.833	      -2.499	    -176.817
	77.000000000	      -1.543	     161.503	      -7.698	      -7.394	     -25.886	     -12.045	      -2.444	    -176.699
	77.500000000	      -1.461	     161.456	      -7.719	      -7.321	     -25.428	      -9.187	      -2.368	    -176.768
	78.000000000	      -1.395	     161.179	      -7.722	      -7.649	     -24.884	      -8.522	      -2.330	    -176.872
	78.500000000	      -1.345	     160.670	      -7.742	      -8.403	     -24.471	      -9.599	      -2.294	    -177.128
	79.000000000	      -1.379	     160.028	      -7.812	      -9.244	     -24.244	     -11.254	      -2.234	    -177.368
	79.500000000	      -1.397	     159.649	      -7.867	      -9.932	     -24.064	     -12.672	      -2.185	    -177.551
