!File name = EG0520U_1010_6x60_2SDBCB2EV_1915934D06_RC2943_2.5Vd_45mA.s2p
!Base file name = EG0520U_1010_6x60_2SDBCB2EV_1915934D06_RC2943
!Date = 8/23/2019
!Time = 1:02 PM
!Test duration(min) = 0.15
!Test = S-Parameters
!MPTS version = 8.91.5
!State File = C:\Data\PNA\20190821205423\S-Parameters_2019-08-23.sta
!Cal File = 
!ComputerName = CMPE-LAB-6
!Comments = 
!Attenuation = 0
!Z0 = 50
!Input Power(dBm) = -13.00
!Device ID = EG0520U_1010_6x60_2SDBCB2EV
!Row = 29
!Column = 43
!Technology = QPHT09
!Lot/Wafer = 1915934D06
!Gate Size = 360
!Mask = EG0520
!Cal Standards = GaAs BCB
!Cal Kit = EG2306
!Job Number = 20190821205423
!Device Type = FET
!set_Vg(v) = -1.500
!set_Vd(v) = 2.500
!set_Vd(mA) = 45.000
!file_name = EG0520U_1010_6x60_2SDBCB2EV_1915934D06_RC2943_2.5Vd_45mA.s2p
!Vd(V) = 2.500
!Vd(mA) = 45.089
!Vg(V) = -0.456
!Vg(mA) = -0.001
# GHz   S   DB   R   50
!%	Freq(GHz)	     s11(dB)	    s11(deg)	     s21(dB)	    s21(deg)	     s12(dB)	    s12(deg)	     s22(dB)	    s22(deg)
	0.500000000	      -0.033	     -14.819	      22.147	     171.040	     -38.979	      81.405	     -10.858	     -19.432
	1.000000000	      -0.117	     -29.297	      21.718	     162.389	     -33.214	      73.585	     -10.647	     -36.827
	1.500000000	      -0.162	     -42.925	      21.359	     155.067	     -30.067	      66.098	     -10.237	     -52.721
	2.000000000	      -0.310	     -55.316	      21.076	     147.607	     -28.073	      59.240	      -9.836	     -67.514
	2.500000000	      -0.409	     -66.752	      20.635	     141.188	     -26.707	      53.432	      -9.617	     -79.033
	3.000000000	      -0.807	     -74.472	      19.940	     136.138	     -25.895	      49.133	      -9.884	     -84.063
	3.500000000	      -0.926	     -83.318	      19.379	     131.043	     -25.148	      44.701	      -9.667	     -92.373
	4.000000000	      -1.025	     -91.104	      18.806	     126.631	     -24.583	      40.804	      -9.477	     -99.435
	4.500000000	      -1.129	     -98.006	      18.237	     122.497	     -24.157	      37.294	      -9.306	    -105.741
	5.000000000	      -1.203	    -104.119	      17.680	     118.926	     -23.822	      34.292	      -9.180	    -110.994
	5.500000000	      -1.273	    -109.637	      17.139	     115.591	     -23.560	      31.633	      -9.083	    -115.562
	6.000000000	      -1.332	    -114.535	      16.612	     112.595	     -23.347	      29.258	      -8.975	    -119.442
	6.500000000	      -1.379	    -118.900	      16.104	     109.899	     -23.180	      27.116	      -8.885	    -122.849
	7.000000000	      -1.421	    -122.830	      15.615	     107.360	     -23.039	      25.211	      -8.804	    -125.804
	7.500000000	      -1.452	    -126.390	      15.141	     105.039	     -22.933	      23.498	      -8.730	    -128.433
	8.000000000	      -1.463	    -129.373	      14.707	     103.015	     -22.811	      22.095	      -8.706	    -130.206
	8.500000000	      -1.492	    -132.363	      14.269	     101.002	     -22.735	      20.591	      -8.646	    -132.328
	9.000000000	      -1.520	    -135.047	      13.843	      99.122	     -22.672	      19.186	      -8.587	    -134.175
	9.500000000	      -1.538	    -137.556	      13.444	      97.293	     -22.621	      17.899	      -8.531	    -135.831
	10.000000000	      -1.552	    -139.870	      13.056	      95.585	     -22.595	      16.676	      -8.478	    -137.423
	10.500000000	      -1.571	    -142.040	      12.682	      93.925	     -22.571	      15.644	      -8.428	    -138.827
	11.000000000	      -1.584	    -144.020	      12.322	      92.382	     -22.553	      14.631	      -8.383	    -140.041
	11.500000000	      -1.603	    -145.893	      11.969	      90.883	     -22.550	      13.701	      -8.336	    -141.183
	12.000000000	      -1.617	    -147.621	      11.632	      89.459	     -22.549	      12.890	      -8.287	    -142.187
	12.500000000	      -1.625	    -149.228	      11.304	      88.087	     -22.545	      12.113	      -8.234	    -143.194
	13.000000000	      -1.636	    -150.739	      10.987	      86.752	     -22.551	      11.347	      -8.186	    -144.088
	13.500000000	      -1.643	    -152.161	      10.683	      85.485	     -22.553	      10.625	      -8.131	    -144.814
	14.000000000	      -1.652	    -153.550	      10.385	      84.233	     -22.573	       9.926	      -8.077	    -145.534
	14.500000000	      -1.656	    -154.795	      10.096	      83.014	     -22.596	       9.344	      -8.032	    -146.301
	15.000000000	      -1.660	    -155.917	       9.814	      81.853	     -22.613	       8.783	      -7.990	    -146.977
	15.500000000	      -1.669	    -157.041	       9.540	      80.692	     -22.633	       8.333	      -7.944	    -147.526
	16.000000000	      -1.674	    -158.141	       9.274	      79.571	     -22.637	       7.777	      -7.887	    -148.040
	16.500000000	      -1.677	    -159.202	       9.015	      78.464	     -22.665	       7.239	      -7.836	    -148.513
	17.000000000	      -1.678	    -160.197	       8.764	      77.387	     -22.703	       6.778	      -7.791	    -149.007
	17.500000000	      -1.686	    -161.091	       8.515	      76.340	     -22.720	       6.362	      -7.736	    -149.519
	18.000000000	      -1.695	    -161.973	       8.276	      75.315	     -22.762	       5.910	      -7.683	    -150.014
	18.500000000	      -1.695	    -162.844	       8.043	      74.301	     -22.773	       5.450	      -7.621	    -150.399
	19.000000000	      -1.695	    -163.678	       7.811	      73.301	     -22.820	       4.960	      -7.569	    -150.756
	19.500000000	      -1.694	    -164.466	       7.588	      72.334	     -22.890	       4.670	      -7.527	    -151.204
	20.000000000	      -1.703	    -165.198	       7.371	      71.397	     -22.948	       4.595	      -7.485	    -151.523
	20.500000000	      -1.704	    -165.900	       7.163	      70.446	     -22.960	       4.486	      -7.426	    -151.819
	21.000000000	      -1.706	    -166.589	       6.955	      69.507	     -22.964	       4.175	      -7.365	    -152.161
	21.500000000	      -1.698	    -167.315	       6.750	      68.571	     -23.004	       3.801	      -7.309	    -152.456
	22.000000000	      -1.696	    -167.900	       6.549	      67.672	     -23.029	       3.465	      -7.250	    -152.759
	22.500000000	      -1.694	    -168.521	       6.350	      66.749	     -23.062	       3.025	      -7.200	    -153.097
	23.000000000	      -1.699	    -169.116	       6.153	      65.858	     -23.124	       2.696	      -7.145	    -153.499
	23.500000000	      -1.699	    -169.730	       5.962	      65.023	     -23.237	       2.539	      -7.098	    -153.878
	24.000000000	      -1.699	    -170.299	       5.782	      64.188	     -23.305	       2.829	      -7.053	    -154.099
	24.500000000	      -1.690	    -170.741	       5.607	      63.322	     -23.303	       2.857	      -7.002	    -154.232
	25.000000000	      -1.675	    -171.224	       5.430	      62.423	     -23.270	       2.580	      -6.946	    -154.433
	25.500000000	      -1.666	    -171.821	       5.252	      61.567	     -23.326	       2.284	      -6.883	    -154.675
	26.000000000	      -1.670	    -172.399	       5.074	      60.733	     -23.347	       1.869	      -6.812	    -155.022
	26.500000000	      -1.669	    -172.894	       4.903	      59.908	     -23.405	       1.689	      -6.749	    -155.263
	27.000000000	      -1.661	    -173.263	       4.737	      59.118	     -23.476	       1.448	      -6.698	    -155.485
	27.500000000	      -1.658	    -173.636	       4.580	      58.377	     -23.566	       1.824	      -6.662	    -155.648
	28.000000000	      -1.650	    -174.151	       4.429	      57.549	     -23.616	       1.870	      -6.597	    -155.948
	28.500000000	      -1.636	    -174.665	       4.273	      56.649	     -23.560	       1.755	      -6.529	    -156.187
	29.000000000	      -1.629	    -175.081	       4.112	      55.810	     -23.597	       1.449	      -6.464	    -156.475
	29.500000000	      -1.624	    -175.492	       3.954	      55.024	     -23.655	       1.290	      -6.410	    -156.783
	30.000000000	      -1.617	    -175.882	       3.801	      54.280	     -23.725	       1.065	      -6.360	    -156.997
	30.500000000	      -1.612	    -176.337	       3.650	      53.471	     -23.755	       0.842	      -6.308	    -157.262
	31.000000000	      -1.600	    -176.790	       3.500	      52.713	     -23.827	       0.683	      -6.264	    -157.529
	31.500000000	      -1.590	    -177.194	       3.364	      51.925	     -23.928	       1.004	      -6.216	    -157.775
	32.000000000	      -1.586	    -177.532	       3.219	      51.137	     -23.922	       1.383	      -6.163	    -157.933
	32.500000000	      -1.596	    -177.940	       3.074	      50.323	     -23.927	       1.134	      -6.093	    -158.090
	33.000000000	      -1.594	    -178.376	       2.931	      49.599	     -23.964	       0.947	      -6.038	    -158.325
	33.500000000	      -1.581	    -178.751	       2.786	      48.858	     -24.061	       0.907	      -5.990	    -158.641
	34.000000000	      -1.566	    -179.080	       2.647	      48.088	     -24.071	       1.086	      -5.926	    -158.956
	34.500000000	      -1.564	    -179.502	       2.498	      47.289	     -24.123	       0.683	      -5.860	    -159.168
	35.000000000	      -1.562	    -179.873	       2.359	      46.548	     -24.219	       0.756	      -5.804	    -159.471
	35.500000000	      -1.559	     179.730	       2.233	      45.853	     -24.201	       1.306	      -5.767	    -159.668
	36.000000000	      -1.556	     179.394	       2.101	      45.071	     -24.213	       1.143	      -5.704	    -159.898
	36.500000000	      -1.546	     179.122	       1.966	      44.325	     -24.213	       0.702	      -5.644	    -160.148
	37.000000000	      -1.542	     178.832	       1.828	      43.611	     -24.227	       1.040	      -5.593	    -160.389
	37.500000000	      -1.544	     178.463	       1.695	      42.882	     -24.379	       0.464	      -5.557	    -160.672
	38.000000000	      -1.543	     178.123	       1.563	      42.231	     -24.411	       1.020	      -5.497	    -160.841
	38.500000000	      -1.529	     177.756	       1.426	      41.538	     -24.468	       0.061	      -5.443	    -161.211
	39.000000000	      -1.532	     177.441	       1.298	      40.876	     -24.526	       0.486	      -5.389	    -161.513
	39.500000000	      -1.538	     177.206	       1.170	      40.269	     -24.608	       0.491	      -5.335	    -161.743
	40.000000000	      -1.542	     176.875	       1.058	      39.615	     -24.682	       1.183	      -5.278	    -161.947
	40.500000000	      -1.540	     176.533	       0.938	      38.924	     -24.679	       0.947	      -5.213	    -162.124
	41.000000000	      -1.528	     176.291	       0.822	      38.223	     -24.723	       1.277	      -5.160	    -162.499
	41.500000000	      -1.518	     176.105	       0.707	      37.574	     -24.763	       1.140	      -5.128	    -162.696
	42.000000000	      -1.521	     175.806	       0.586	      36.896	     -24.756	       0.888	      -5.071	    -162.878
	42.500000000	      -1.533	     175.440	       0.462	      36.284	     -24.879	       0.747	      -5.020	    -162.985
	43.000000000	      -1.535	     175.239	       0.364	      35.701	     -25.023	       1.772	      -4.963	    -163.267
	43.500000000	      -1.516	     175.076	       0.252	      34.936	     -24.958	       1.501	      -4.924	    -163.603
	44.000000000	      -1.523	     174.801	       0.135	      34.257	     -24.942	       2.407	      -4.868	    -163.882
	44.500000000	      -1.523	     174.405	       0.013	      33.567	     -24.943	       1.801	      -4.798	    -164.107
	45.000000000	      -1.530	     174.161	      -0.101	      32.941	     -25.001	       1.844	      -4.742	    -164.398
	45.500000000	      -1.482	     173.784	      -0.377	      32.443	     -25.233	       1.518	      -4.612	    -165.144
	46.000000000	      -1.462	     173.570	      -0.499	      31.860	     -25.314	       1.110	      -4.560	    -165.457
	46.500000000	      -1.456	     173.214	      -0.600	      31.311	     -25.378	       2.394	      -4.500	    -165.622
	47.000000000	      -1.458	     172.930	      -0.705	      30.687	     -25.369	       2.526	      -4.436	    -165.787
	47.500000000	      -1.455	     172.695	      -0.809	      30.017	     -25.552	       2.791	      -4.404	    -165.957
	48.000000000	      -1.435	     172.409	      -0.924	      29.375	     -25.407	       3.328	      -4.366	    -166.228
	48.500000000	      -1.433	     172.081	      -1.038	      28.770	     -25.417	       2.795	      -4.307	    -166.383
	49.000000000	      -1.438	     171.914	      -1.153	      28.163	     -25.415	       2.667	      -4.259	    -166.701
	49.500000000	      -1.450	     171.656	      -1.258	      27.610	     -25.507	       1.169	      -4.214	    -167.072
	50.000000000	      -1.437	     171.417	      -1.351	      27.101	     -25.620	       1.832	      -4.160	    -167.259
	50.500000000	      -1.423	     171.215	      -1.461	      26.466	     -25.723	       3.415	      -4.139	    -167.603
	51.000000000	      -1.419	     170.932	      -1.562	      25.961	     -25.909	       3.611	      -4.132	    -167.994
	51.500000000	      -1.414	     170.759	      -1.664	      25.423	     -25.570	       3.421	      -4.077	    -168.214
	52.000000000	      -1.396	     170.569	      -1.768	      24.706	     -25.641	       3.633	      -4.054	    -168.425
	52.500000000	      -1.392	     170.211	      -1.875	      24.199	     -25.599	       3.469	      -4.011	    -168.551
	53.000000000	      -1.387	     169.898	      -1.983	      23.578	     -25.728	       3.051	      -3.969	    -168.664
	53.500000000	      -1.384	     169.710	      -2.080	      23.185	     -25.768	       3.159	      -3.918	    -168.897
	54.000000000	      -1.376	     169.526	      -2.158	      22.572	     -25.708	       4.423	      -3.861	    -169.127
	54.500000000	      -1.371	     169.144	      -2.261	      22.051	     -25.783	       4.569	      -3.808	    -169.293
	55.000000000	      -1.380	     168.795	      -2.344	      21.423	     -25.744	       4.503	      -3.773	    -169.492
	55.500000000	      -1.372	     168.563	      -2.436	      20.812	     -25.832	       3.981	      -3.725	    -169.785
	56.000000000	      -1.361	     168.268	      -2.502	      20.154	     -25.703	       4.552	      -3.701	    -170.151
	56.500000000	      -1.362	     168.029	      -2.618	      19.570	     -25.915	       4.432	      -3.654	    -170.565
	57.000000000	      -1.373	     167.879	      -2.727	      19.016	     -25.815	       3.927	      -3.665	    -170.802
	57.500000000	      -1.371	     167.728	      -2.817	      18.497	     -26.169	       3.282	      -3.622	    -171.126
	58.000000000	      -1.335	     167.696	      -2.898	      17.910	     -25.993	       3.773	      -3.581	    -171.211
	58.500000000	      -1.331	     167.396	      -2.988	      17.370	     -25.910	       3.748	      -3.562	    -171.549
	59.000000000	      -1.310	     167.045	      -3.050	      16.683	     -25.843	       4.427	      -3.496	    -171.758
	59.500000000	      -1.327	     166.855	      -3.166	      16.017	     -26.044	       3.844	      -3.459	    -172.026
	60.000000000	      -1.327	     166.720	      -3.247	      15.627	     -25.945	       3.345	      -3.485	    -172.249
	60.500000000	      -1.284	     166.534	      -3.354	      14.907	     -26.167	       4.634	      -3.472	    -172.331
	61.000000000	      -1.273	     166.274	      -3.448	      14.403	     -26.253	       2.996	      -3.425	    -172.545
	61.500000000	      -1.262	     165.993	      -3.562	      13.875	     -26.108	       4.011	      -3.411	    -172.656
	62.000000000	      -1.251	     165.682	      -3.616	      13.328	     -26.264	       2.915	      -3.391	    -172.815
	62.500000000	      -1.244	     165.510	      -3.703	      12.774	     -26.453	       4.641	      -3.388	    -172.887
	63.000000000	      -1.228	     164.983	      -3.774	      12.270	     -26.057	       4.914	      -3.332	    -172.834
	63.500000000	      -1.225	     164.878	      -3.856	      11.524	     -26.171	       4.358	      -3.279	    -173.208
	64.000000000	      -1.212	     164.973	      -3.929	      10.836	     -26.364	       7.015	      -3.261	    -173.157
	64.500000000	      -1.210	     164.752	      -4.007	       9.985	     -26.185	       3.903	      -3.214	    -173.126
	65.000000000	      -1.203	     164.390	      -4.122	       9.327	     -26.451	       4.274	      -3.151	    -173.239
	65.500000000	      -1.208	     164.005	      -4.235	       8.611	     -26.188	       3.790	      -3.131	    -173.764
	66.000000000	      -1.181	     163.632	      -4.374	       8.047	     -26.259	       5.751	      -3.096	    -174.331
	66.500000000	      -1.197	     163.493	      -4.441	       7.210	     -26.215	       4.183	      -3.068	    -174.031
	67.000000000	      -1.259	     163.015	      -4.558	       6.876	     -26.008	       3.642	      -3.059	    -174.136
	67.500000000	      -1.242	     162.519	      -4.682	       6.048	     -26.271	       4.585	      -3.036	    -174.501
	68.000000000	      -1.275	     162.366	      -4.788	       5.544	     -26.227	       4.215	      -3.058	    -174.765
	68.500000000	      -1.306	     162.163	      -4.878	       5.034	     -26.165	       3.984	      -3.042	    -174.816
	69.000000000	      -1.332	     161.973	      -5.000	       4.582	     -26.222	       3.407	      -2.977	    -175.000
	69.500000000	      -1.329	     161.798	      -5.111	       4.179	     -26.350	       3.354	      -2.938	    -175.093
	70.000000000	      -1.311	     161.619	      -5.194	       3.790	     -26.389	       4.054	      -2.919	    -175.136
	70.500000000	      -1.294	     161.443	      -5.291	       3.306	     -26.372	       4.381	      -2.879	    -175.207
	71.000000000	      -1.287	     161.249	      -5.368	       3.006	     -26.303	       4.236	      -2.842	    -175.319
	71.500000000	      -1.257	     160.931	      -5.474	       2.526	     -26.296	       3.883	      -2.767	    -175.569
	72.000000000	      -1.252	     160.822	      -5.554	       2.045	     -26.264	       3.550	      -2.784	    -175.814
	72.500000000	      -1.262	     160.441	      -5.639	       1.399	     -26.306	       2.746	      -2.758	    -175.993
	73.000000000	      -1.283	     160.243	      -5.725	       0.853	     -26.383	       2.270	      -2.720	    -176.139
	73.500000000	      -1.306	     160.148	      -5.826	       0.307	     -26.521	       2.111	      -2.648	    -176.391
	74.000000000	      -1.312	     159.931	      -5.915	      -0.204	     -26.561	       2.385	      -2.642	    -176.878
	74.500000000	      -1.338	     159.725	      -5.994	      -0.744	     -26.585	       2.432	      -2.655	    -177.104
	75.000000000	      -1.366	     159.655	      -6.092	      -1.396	     -26.629	       2.253	      -2.647	    -177.097
	75.500000000	      -1.388	     159.710	      -6.206	      -2.032	     -26.759	       1.715	      -2.637	    -177.321
	76.000000000	      -1.388	     159.744	      -6.338	      -2.653	     -27.036	       2.049	      -2.645	    -177.399
	76.500000000	      -1.380	     159.836	      -6.497	      -3.021	     -27.360	       4.186	      -2.643	    -177.283
	77.000000000	      -1.360	     159.815	      -6.639	      -3.134	     -27.374	       7.797	      -2.602	    -177.087
	77.500000000	      -1.300	     159.823	      -6.725	      -2.870	     -26.962	      11.015	      -2.524	    -177.069
	78.000000000	      -1.197	     159.706	      -6.755	      -2.747	     -26.424	      11.776	      -2.473	    -177.094
	78.500000000	      -1.147	     159.248	      -6.786	      -3.104	     -26.014	      11.093	      -2.419	    -177.414
	79.000000000	      -1.135	     158.619	      -6.826	      -3.567	     -25.725	       9.813	      -2.366	    -177.655
	79.500000000	      -1.136	     158.071	      -6.847	      -4.172	     -25.491	       8.206	      -2.323	    -177.907
