!File name = EG0520U_1010_6x60_2SDBCB2EV_1915934D06_RC2952_3Vd_45mA.s2p
!Base file name = EG0520U_1010_6x60_2SDBCB2EV_1915934D06_RC2952
!Date = 8/23/2019
!Time = 1:15 PM
!Test duration(min) = 0.15
!Test = S-Parameters
!MPTS version = 8.91.5
!State File = C:\Data\PNA\20190821205423\S-Parameters_2019-08-23.sta
!Cal File = 
!ComputerName = CMPE-LAB-6
!Comments = 
!Attenuation = 0
!Z0 = 50
!Input Power(dBm) = -13.00
!Device ID = EG0520U_1010_6x60_2SDBCB2EV
!Row = 29
!Column = 52
!Technology = QPHT09
!Lot/Wafer = 1915934D06
!Gate Size = 360
!Mask = EG0520
!Cal Standards = GaAs BCB
!Cal Kit = EG2306
!Job Number = 20190821205423
!Device Type = FET
!set_Vg(v) = -1.500
!set_Vd(v) = 3.000
!set_Vd(mA) = 45.000
!file_name = EG0520U_1010_6x60_2SDBCB2EV_1915934D06_RC2952_3Vd_45mA.s2p
!Vd(V) = 3.000
!Vd(mA) = 45.015
!Vg(V) = -0.461
!Vg(mA) = -0.001
# GHz   S   DB   R   50
!%	Freq(GHz)	     s11(dB)	    s11(deg)	     s21(dB)	    s21(deg)	     s12(dB)	    s12(deg)	     s22(dB)	    s22(deg)
	0.500000000	      -0.038	     -15.023	      22.284	     170.885	     -39.059	      81.218	      -9.547	     -16.856
	1.000000000	      -0.126	     -29.691	      21.837	     162.188	     -33.303	      73.383	      -9.511	     -32.179
	1.500000000	      -0.168	     -43.480	      21.468	     154.716	     -30.170	      65.832	      -9.349	     -46.648
	2.000000000	      -0.318	     -55.957	      21.191	     147.243	     -28.184	      58.934	      -9.222	     -60.534
	2.500000000	      -0.417	     -67.494	      20.737	     140.753	     -26.823	      53.073	      -9.225	     -71.556
	3.000000000	      -0.813	     -75.250	      20.039	     135.615	     -26.025	      48.743	      -9.588	     -76.191
	3.500000000	      -0.933	     -84.138	      19.466	     130.498	     -25.287	      44.300	      -9.547	     -84.418
	4.000000000	      -1.028	     -91.945	      18.889	     126.031	     -24.724	      40.401	      -9.500	     -91.546
	4.500000000	      -1.131	     -98.862	      18.317	     121.879	     -24.307	      36.915	      -9.454	     -97.974
	5.000000000	      -1.203	    -104.993	      17.752	     118.263	     -23.980	      33.898	      -9.429	    -103.367
	5.500000000	      -1.271	    -110.511	      17.210	     114.901	     -23.720	      31.248	      -9.416	    -108.089
	6.000000000	      -1.328	    -115.415	      16.678	     111.882	     -23.512	      28.865	      -9.371	    -112.124
	6.500000000	      -1.374	    -119.775	      16.167	     109.151	     -23.345	      26.715	      -9.335	    -115.709
	7.000000000	      -1.415	    -123.714	      15.677	     106.590	     -23.210	      24.810	      -9.295	    -118.811
	7.500000000	      -1.444	    -127.267	      15.200	     104.236	     -23.100	      23.067	      -9.256	    -121.629
	8.000000000	      -1.455	    -130.261	      14.763	     102.179	     -22.988	      21.678	      -9.255	    -123.440
	8.500000000	      -1.482	    -133.246	      14.324	     100.139	     -22.913	      20.200	      -9.220	    -125.670
	9.000000000	      -1.510	    -135.933	      13.895	      98.227	     -22.852	      18.792	      -9.178	    -127.667
	9.500000000	      -1.527	    -138.447	      13.495	      96.366	     -22.805	      17.478	      -9.134	    -129.437
	10.000000000	      -1.541	    -140.779	      13.104	      94.617	     -22.785	      16.253	      -9.101	    -131.067
	10.500000000	      -1.564	    -142.942	      12.726	      92.931	     -22.775	      15.255	      -9.067	    -132.545
	11.000000000	      -1.575	    -144.898	      12.364	      91.372	     -22.754	      14.326	      -9.023	    -133.816
	11.500000000	      -1.591	    -146.764	      12.011	      89.846	     -22.742	      13.341	      -8.980	    -134.988
	12.000000000	      -1.602	    -148.495	      11.674	      88.398	     -22.741	      12.540	      -8.929	    -136.006
	12.500000000	      -1.607	    -150.116	      11.346	      87.001	     -22.737	      11.698	      -8.869	    -137.095
	13.000000000	      -1.614	    -151.643	      11.029	      85.617	     -22.739	      10.908	      -8.816	    -138.063
	13.500000000	      -1.624	    -153.098	      10.721	      84.303	     -22.764	      10.127	      -8.763	    -138.899
	14.000000000	      -1.634	    -154.477	      10.422	      83.030	     -22.791	       9.508	      -8.706	    -139.595
	14.500000000	      -1.639	    -155.723	      10.131	      81.780	     -22.820	       8.963	      -8.658	    -140.391
	15.000000000	      -1.642	    -156.842	       9.847	      80.587	     -22.838	       8.518	      -8.610	    -141.081
	15.500000000	      -1.647	    -157.951	       9.574	      79.408	     -22.846	       8.023	      -8.555	    -141.634
	16.000000000	      -1.649	    -159.061	       9.308	      78.251	     -22.847	       7.457	      -8.487	    -142.177
	16.500000000	      -1.650	    -160.141	       9.048	      77.111	     -22.874	       6.844	      -8.427	    -142.708
	17.000000000	      -1.649	    -161.147	       8.797	      76.002	     -22.914	       6.374	      -8.373	    -143.189
	17.500000000	      -1.654	    -162.060	       8.548	      74.912	     -22.938	       5.974	      -8.307	    -143.762
	18.000000000	      -1.662	    -162.963	       8.309	      73.842	     -22.987	       5.451	      -8.243	    -144.299
	18.500000000	      -1.662	    -163.842	       8.074	      72.800	     -23.009	       4.994	      -8.174	    -144.712
	19.000000000	      -1.661	    -164.700	       7.841	      71.757	     -23.060	       4.539	      -8.114	    -145.120
	19.500000000	      -1.660	    -165.507	       7.618	      70.749	     -23.135	       4.307	      -8.060	    -145.526
	20.000000000	      -1.664	    -166.250	       7.400	      69.766	     -23.178	       4.219	      -8.006	    -145.887
	20.500000000	      -1.667	    -166.960	       7.189	      68.781	     -23.186	       4.145	      -7.934	    -146.196
	21.000000000	      -1.665	    -167.702	       6.979	      67.799	     -23.196	       3.700	      -7.861	    -146.594
	21.500000000	      -1.659	    -168.418	       6.772	      66.823	     -23.238	       3.310	      -7.792	    -146.905
	22.000000000	      -1.655	    -169.039	       6.570	      65.890	     -23.286	       2.902	      -7.729	    -147.249
	22.500000000	      -1.648	    -169.630	       6.372	      64.920	     -23.307	       2.629	      -7.666	    -147.616
	23.000000000	      -1.649	    -170.269	       6.173	      63.976	     -23.364	       2.218	      -7.597	    -148.052
	23.500000000	      -1.650	    -170.957	       5.979	      63.082	     -23.478	       1.901	      -7.537	    -148.498
	24.000000000	      -1.654	    -171.565	       5.792	      62.211	     -23.575	       2.012	      -7.483	    -148.763
	24.500000000	      -1.645	    -172.013	       5.614	      61.304	     -23.586	       2.054	      -7.425	    -148.899
	25.000000000	      -1.632	    -172.474	       5.434	      60.379	     -23.623	       1.921	      -7.359	    -149.112
	25.500000000	      -1.625	    -173.099	       5.254	      59.501	     -23.641	       1.855	      -7.282	    -149.405
	26.000000000	      -1.629	    -173.722	       5.074	      58.620	     -23.655	       1.551	      -7.194	    -149.806
	26.500000000	      -1.625	    -174.211	       4.898	      57.745	     -23.723	       1.210	      -7.123	    -150.088
	27.000000000	      -1.619	    -174.641	       4.727	      56.905	     -23.785	       0.899	      -7.061	    -150.402
	27.500000000	      -1.627	    -175.049	       4.556	      56.137	     -23.929	       0.782	      -7.024	    -150.589
	28.000000000	      -1.632	    -175.547	       4.398	      55.351	     -24.005	       1.244	      -6.959	    -150.858
	28.500000000	      -1.617	    -175.972	       4.250	      54.455	     -24.000	       1.706	      -6.869	    -151.134
	29.000000000	      -1.604	    -176.404	       4.084	      53.568	     -23.972	       1.288	      -6.804	    -151.440
	29.500000000	      -1.594	    -176.774	       3.928	      52.744	     -24.012	       1.086	      -6.732	    -151.715
	30.000000000	      -1.595	    -177.190	       3.771	      51.980	     -24.090	       0.992	      -6.672	    -151.970
	30.500000000	      -1.592	    -177.683	       3.618	      51.160	     -24.147	       0.852	      -6.612	    -152.247
	31.000000000	      -1.580	    -178.154	       3.463	      50.365	     -24.217	       0.747	      -6.552	    -152.532
	31.500000000	      -1.570	    -178.536	       3.326	      49.610	     -24.312	       1.357	      -6.500	    -152.832
	32.000000000	      -1.570	    -178.842	       3.179	      48.782	     -24.317	       1.575	      -6.430	    -153.046
	32.500000000	      -1.579	    -179.243	       3.034	      47.925	     -24.310	       1.486	      -6.350	    -153.215
	33.000000000	      -1.577	    -179.714	       2.888	      47.156	     -24.299	       1.257	      -6.287	    -153.541
	33.500000000	      -1.565	     179.921	       2.739	      46.405	     -24.380	       1.227	      -6.225	    -153.903
	34.000000000	      -1.556	     179.630	       2.596	      45.660	     -24.458	       0.917	      -6.157	    -154.284
	34.500000000	      -1.551	     179.261	       2.446	      44.834	     -24.467	       0.593	      -6.086	    -154.502
	35.000000000	      -1.551	     178.921	       2.306	      44.126	     -24.595	       0.635	      -6.025	    -154.905
	35.500000000	      -1.543	     178.571	       2.187	      43.403	     -24.630	       1.374	      -5.980	    -155.075
	36.000000000	      -1.526	     178.233	       2.059	      42.545	     -24.614	       1.724	      -5.904	    -155.326
	36.500000000	      -1.514	     177.959	       1.921	      41.759	     -24.655	       1.111	      -5.830	    -155.631
	37.000000000	      -1.508	     177.663	       1.780	      41.023	     -24.682	       0.863	      -5.781	    -155.947
	37.500000000	      -1.521	     177.255	       1.640	      40.265	     -24.726	       1.016	      -5.733	    -156.222
	38.000000000	      -1.517	     176.885	       1.501	      39.584	     -24.834	       0.935	      -5.668	    -156.442
	38.500000000	      -1.514	     176.593	       1.367	      38.977	     -24.956	       0.575	      -5.618	    -156.826
	39.000000000	      -1.501	     176.417	       1.252	      38.324	     -25.000	       1.357	      -5.551	    -157.089
	39.500000000	      -1.500	     176.244	       1.134	      37.625	     -25.041	       1.575	      -5.487	    -157.408
	40.000000000	      -1.490	     175.800	       1.022	      36.850	     -25.075	       1.637	      -5.412	    -157.672
	40.500000000	      -1.488	     175.434	       0.895	      36.125	     -25.073	       1.780	      -5.344	    -157.976
	41.000000000	      -1.462	     175.138	       0.776	      35.365	     -25.093	       1.907	      -5.288	    -158.329
	41.500000000	      -1.454	     174.970	       0.660	      34.658	     -25.149	       1.636	      -5.253	    -158.574
	42.000000000	      -1.451	     174.663	       0.534	      33.943	     -25.190	       1.723	      -5.186	    -158.760
	42.500000000	      -1.471	     174.286	       0.410	      33.295	     -25.365	       1.108	      -5.132	    -158.837
	43.000000000	      -1.464	     174.048	       0.304	      32.685	     -25.404	       2.356	      -5.072	    -159.112
	43.500000000	      -1.448	     173.803	       0.190	      31.861	     -25.339	       2.382	      -5.014	    -159.492
	44.000000000	      -1.460	     173.567	       0.064	      31.141	     -25.348	       2.917	      -4.946	    -159.897
	44.500000000	      -1.465	     173.147	      -0.068	      30.464	     -25.400	       2.503	      -4.886	    -160.210
	45.000000000	      -1.478	     172.861	      -0.189	      29.809	     -25.445	       2.481	      -4.823	    -160.543
	45.500000000	      -1.424	     172.591	      -0.467	      29.322	     -25.698	       2.459	      -4.690	    -161.448
	46.000000000	      -1.407	     172.366	      -0.589	      28.734	     -25.873	       2.505	      -4.641	    -161.799
	46.500000000	      -1.394	     172.042	      -0.688	      28.186	     -25.822	       3.367	      -4.576	    -161.910
	47.000000000	      -1.397	     171.740	      -0.795	      27.468	     -25.788	       3.890	      -4.527	    -162.102
	47.500000000	      -1.386	     171.434	      -0.916	      26.808	     -25.807	       3.618	      -4.484	    -162.350
	48.000000000	      -1.372	     171.153	      -1.028	      26.147	     -25.873	       4.604	      -4.435	    -162.579
	48.500000000	      -1.368	     170.874	      -1.146	      25.623	     -25.899	       4.573	      -4.382	    -162.882
	49.000000000	      -1.384	     170.739	      -1.249	      24.991	     -26.004	       3.994	      -4.301	    -163.096
	49.500000000	      -1.387	     170.476	      -1.351	      24.493	     -26.019	       3.038	      -4.262	    -163.219
	50.000000000	      -1.364	     170.275	      -1.445	      23.971	     -25.993	       5.481	      -4.207	    -163.516
	50.500000000	      -1.364	     170.001	      -1.540	      23.280	     -26.238	       5.478	      -4.184	    -164.065
	51.000000000	      -1.349	     169.699	      -1.637	      22.646	     -26.072	       6.485	      -4.144	    -164.321
	51.500000000	      -1.355	     169.547	      -1.746	      21.935	     -25.974	       6.060	      -4.110	    -164.681
	52.000000000	      -1.334	     169.369	      -1.853	      21.220	     -26.067	       5.575	      -4.049	    -164.840
	52.500000000	      -1.329	     169.026	      -1.961	      20.576	     -26.042	       5.781	      -3.994	    -164.997
	53.000000000	      -1.329	     168.671	      -2.078	      19.920	     -26.103	       4.929	      -3.949	    -165.150
	53.500000000	      -1.328	     168.592	      -2.179	      19.420	     -26.073	       5.471	      -3.891	    -165.490
	54.000000000	      -1.317	     168.370	      -2.286	      18.920	     -26.118	       5.318	      -3.835	    -165.738
	54.500000000	      -1.309	     167.937	      -2.375	      18.321	     -26.191	       5.428	      -3.787	    -165.978
	55.000000000	      -1.325	     167.571	      -2.468	      17.694	     -26.229	       6.176	      -3.735	    -166.160
	55.500000000	      -1.312	     167.316	      -2.565	      17.088	     -26.152	       5.342	      -3.693	    -166.520
	56.000000000	      -1.301	     166.999	      -2.648	      16.442	     -26.312	       5.325	      -3.668	    -167.033
	56.500000000	      -1.302	     166.883	      -2.757	      15.646	     -26.322	       3.699	      -3.635	    -167.624
	57.000000000	      -1.313	     166.647	      -2.877	      15.231	     -26.339	       5.406	      -3.626	    -167.611
	57.500000000	      -1.313	     166.491	      -2.998	      14.751	     -26.400	       5.005	      -3.579	    -167.955
	58.000000000	      -1.301	     166.444	      -3.095	      14.230	     -26.646	       5.291	      -3.541	    -168.328
	58.500000000	      -1.273	     166.265	      -3.170	      13.601	     -26.545	       6.547	      -3.503	    -168.567
	59.000000000	      -1.260	     165.968	      -3.257	      12.939	     -26.726	       6.781	      -3.447	    -168.696
	59.500000000	      -1.267	     165.823	      -3.363	      12.217	     -26.748	       4.769	      -3.403	    -168.917
	60.000000000	      -1.274	     165.648	      -3.429	      11.791	     -26.605	       6.596	      -3.448	    -169.374
	60.500000000	      -1.234	     165.471	      -3.565	      11.239	     -26.694	       7.488	      -3.414	    -169.439
	61.000000000	      -1.192	     165.204	      -3.652	      10.879	     -26.632	       6.688	      -3.379	    -169.697
	61.500000000	      -1.199	     164.924	      -3.742	      10.325	     -26.739	       5.847	      -3.329	    -169.786
	62.000000000	      -1.184	     164.737	      -3.779	       9.724	     -26.696	      10.020	      -3.320	    -169.903
	62.500000000	      -1.180	     164.357	      -3.876	       9.138	     -26.720	       8.940	      -3.322	    -169.902
	63.000000000	      -1.167	     164.007	      -3.950	       8.593	     -26.572	      11.358	      -3.258	    -170.033
	63.500000000	      -1.155	     163.854	      -4.034	       7.820	     -26.591	      10.429	      -3.195	    -170.393
	64.000000000	      -1.159	     164.058	      -4.103	       7.139	     -26.566	       9.676	      -3.143	    -170.298
	64.500000000	      -1.138	     163.932	      -4.154	       6.331	     -26.410	       9.155	      -3.127	    -170.174
	65.000000000	      -1.161	     163.355	      -4.270	       5.406	     -26.588	       8.981	      -3.045	    -170.593
	65.500000000	      -1.139	     162.909	      -4.384	       4.683	     -26.289	       9.052	      -3.031	    -171.269
	66.000000000	      -1.134	     162.654	      -4.511	       3.919	     -26.280	       9.840	      -2.972	    -171.615
	66.500000000	      -1.161	     162.484	      -4.603	       3.352	     -26.289	       8.279	      -2.932	    -171.449
	67.000000000	      -1.207	     162.099	      -4.728	       2.660	     -26.804	       7.620	      -2.939	    -171.539
	67.500000000	      -1.197	     161.460	      -4.874	       1.725	     -26.415	       8.395	      -2.929	    -171.997
	68.000000000	      -1.245	     161.253	      -4.974	       1.192	     -26.361	       8.279	      -2.965	    -172.311
	68.500000000	      -1.288	     161.035	      -5.067	       0.635	     -26.375	       8.042	      -2.909	    -172.417
	69.000000000	      -1.323	     160.871	      -5.198	       0.161	     -26.416	       7.543	      -2.846	    -172.701
	69.500000000	      -1.319	     160.737	      -5.317	      -0.273	     -26.520	       7.413	      -2.825	    -172.795
	70.000000000	      -1.296	     160.570	      -5.408	      -0.690	     -26.545	       7.898	      -2.795	    -172.865
	70.500000000	      -1.276	     160.438	      -5.502	      -1.135	     -26.502	       7.954	      -2.760	    -172.985
	71.000000000	      -1.259	     160.312	      -5.572	      -1.552	     -26.498	       7.800	      -2.709	    -173.145
	71.500000000	      -1.212	     160.215	      -5.704	      -2.006	     -26.458	       7.331	      -2.664	    -173.415
	72.000000000	      -1.205	     159.880	      -5.810	      -2.533	     -26.523	       6.642	      -2.648	    -173.661
	72.500000000	      -1.239	     159.454	      -5.909	      -3.219	     -26.512	       5.966	      -2.629	    -173.946
	73.000000000	      -1.275	     159.301	      -6.012	      -3.771	     -26.665	       5.365	      -2.587	    -174.085
	73.500000000	      -1.298	     159.200	      -6.122	      -4.302	     -26.823	       5.608	      -2.520	    -174.345
	74.000000000	      -1.308	     158.956	      -6.230	      -4.714	     -26.951	       6.219	      -2.515	    -174.912
	74.500000000	      -1.345	     158.674	      -6.311	      -5.118	     -27.015	       6.666	      -2.533	    -175.169
	75.000000000	      -1.390	     158.622	      -6.413	      -5.659	     -27.109	       6.958	      -2.524	    -175.214
	75.500000000	      -1.422	     158.694	      -6.536	      -6.200	     -27.297	       7.766	      -2.523	    -175.353
	76.000000000	      -1.446	     158.827	      -6.667	      -6.554	     -27.523	       9.959	      -2.522	    -175.427
	76.500000000	      -1.427	     159.064	      -6.786	      -6.651	     -27.530	      13.900	      -2.503	    -175.281
	77.000000000	      -1.391	     159.133	      -6.861	      -6.693	     -27.076	      17.256	      -2.443	    -175.200
	77.500000000	      -1.304	     158.982	      -6.885	      -6.741	     -26.387	      18.423	      -2.367	    -175.322
	78.000000000	      -1.227	     158.709	      -6.888	      -7.066	     -25.767	      17.196	      -2.324	    -175.443
	78.500000000	      -1.181	     158.286	      -6.922	      -7.815	     -25.381	      14.896	      -2.284	    -175.719
	79.000000000	      -1.203	     157.588	      -6.992	      -8.636	     -25.207	      12.320	      -2.222	    -175.988
	79.500000000	      -1.237	     157.212	      -7.066	      -9.435	     -25.077	       9.998	      -2.175	    -176.132
