!File name = EG0520U_1010_6x60_2SDBCB2EV_1915934D06_RC2952_3.5Vd_54mA.s2p
!Base file name = EG0520U_1010_6x60_2SDBCB2EV_1915934D06_RC2952
!Date = 8/23/2019
!Time = 1:16 PM
!Test duration(min) = 0.15
!Test = S-Parameters
!MPTS version = 8.91.5
!State File = C:\Data\PNA\20190821205423\S-Parameters_2019-08-23.sta
!Cal File = 
!ComputerName = CMPE-LAB-6
!Comments = 
!Attenuation = 0
!Z0 = 50
!Input Power(dBm) = -13.00
!Device ID = EG0520U_1010_6x60_2SDBCB2EV
!Row = 29
!Column = 52
!Technology = QPHT09
!Lot/Wafer = 1915934D06
!Gate Size = 360
!Mask = EG0520
!Cal Standards = GaAs BCB
!Cal Kit = EG2306
!Job Number = 20190821205423
!Device Type = FET
!set_Vg(v) = -1.500
!set_Vd(v) = 3.500
!set_Vd(mA) = 54.000
!file_name = EG0520U_1010_6x60_2SDBCB2EV_1915934D06_RC2952_3.5Vd_54mA.s2p
!Vd(V) = 3.500
!Vd(mA) = 54.054
!Vg(V) = -0.432
!Vg(mA) = -0.001
# GHz   S   DB   R   50
!%	Freq(GHz)	     s11(dB)	    s11(deg)	     s21(dB)	    s21(deg)	     s12(dB)	    s12(deg)	     s22(dB)	    s22(deg)
	0.500000000	      -0.043	     -15.417	      22.676	     170.610	     -39.359	      81.007	      -9.064	     -16.142
	1.000000000	      -0.132	     -30.441	      22.188	     161.853	     -33.612	      73.023	      -9.092	     -30.746
	1.500000000	      -0.176	     -44.518	      21.797	     154.118	     -30.496	      65.424	      -9.023	     -44.655
	2.000000000	      -0.324	     -57.153	      21.526	     146.667	     -28.526	      58.500	      -9.004	     -58.110
	2.500000000	      -0.424	     -68.819	      21.049	     140.104	     -27.179	      52.578	      -9.096	     -68.835
	3.000000000	      -0.819	     -76.611	      20.343	     134.930	     -26.394	      48.226	      -9.500	     -73.228
	3.500000000	      -0.937	     -85.517	      19.749	     129.805	     -25.670	      43.778	      -9.539	     -81.308
	4.000000000	      -1.029	     -93.326	      19.159	     125.302	     -25.124	      39.896	      -9.564	     -88.350
	4.500000000	      -1.127	    -100.227	      18.579	     121.182	     -24.715	      36.459	      -9.580	     -94.714
	5.000000000	      -1.197	    -106.333	      18.003	     117.550	     -24.396	      33.433	      -9.606	    -100.060
	5.500000000	      -1.261	    -111.796	      17.455	     114.196	     -24.149	      30.826	      -9.632	    -104.756
	6.000000000	      -1.314	    -116.657	      16.914	     111.193	     -23.942	      28.460	      -9.621	    -108.792
	6.500000000	      -1.360	    -120.977	      16.397	     108.457	     -23.785	      26.354	      -9.612	    -112.371
	7.000000000	      -1.397	    -124.861	      15.901	     105.912	     -23.654	      24.471	      -9.596	    -115.478
	7.500000000	      -1.424	    -128.382	      15.421	     103.561	     -23.553	      22.785	      -9.574	    -118.296
	8.000000000	      -1.433	    -131.329	      14.980	     101.511	     -23.442	      21.404	      -9.584	    -120.073
	8.500000000	      -1.459	    -134.277	      14.537	      99.473	     -23.370	      19.937	      -9.560	    -122.317
	9.000000000	      -1.485	    -136.923	      14.106	      97.566	     -23.312	      18.581	      -9.527	    -124.277
	9.500000000	      -1.501	    -139.401	      13.702	      95.709	     -23.267	      17.279	      -9.489	    -126.053
	10.000000000	      -1.514	    -141.695	      13.308	      93.958	     -23.250	      16.048	      -9.458	    -127.763
	10.500000000	      -1.535	    -143.829	      12.928	      92.270	     -23.241	      15.086	      -9.433	    -129.207
	11.000000000	      -1.545	    -145.760	      12.564	      90.704	     -23.220	      14.192	      -9.393	    -130.437
	11.500000000	      -1.560	    -147.592	      12.210	      89.183	     -23.222	      13.238	      -9.345	    -131.626
	12.000000000	      -1.571	    -149.296	      11.872	      87.728	     -23.220	      12.453	      -9.290	    -132.704
	12.500000000	      -1.575	    -150.897	      11.542	      86.314	     -23.220	      11.647	      -9.232	    -133.754
	13.000000000	      -1.583	    -152.387	      11.222	      84.922	     -23.228	      10.890	      -9.176	    -134.726
	13.500000000	      -1.591	    -153.823	      10.914	      83.614	     -23.251	      10.122	      -9.121	    -135.562
	14.000000000	      -1.602	    -155.182	      10.613	      82.333	     -23.282	       9.536	      -9.059	    -136.233
	14.500000000	      -1.605	    -156.404	      10.320	      81.078	     -23.313	       9.028	      -9.008	    -137.039
	15.000000000	      -1.609	    -157.503	      10.035	      79.877	     -23.332	       8.539	      -8.956	    -137.729
	15.500000000	      -1.613	    -158.592	       9.761	      78.689	     -23.346	       8.140	      -8.893	    -138.286
	16.000000000	      -1.614	    -159.686	       9.494	      77.521	     -23.351	       7.519	      -8.820	    -138.827
	16.500000000	      -1.614	    -160.749	       9.233	      76.375	     -23.380	       7.015	      -8.752	    -139.363
	17.000000000	      -1.613	    -161.740	       8.981	      75.261	     -23.423	       6.522	      -8.688	    -139.881
	17.500000000	      -1.619	    -162.640	       8.730	      74.157	     -23.448	       6.143	      -8.619	    -140.419
	18.000000000	      -1.627	    -163.524	       8.491	      73.082	     -23.498	       5.630	      -8.550	    -140.961
	18.500000000	      -1.626	    -164.397	       8.254	      72.025	     -23.527	       5.194	      -8.474	    -141.380
	19.000000000	      -1.625	    -165.241	       8.021	      70.976	     -23.583	       4.783	      -8.406	    -141.791
	19.500000000	      -1.624	    -166.029	       7.796	      69.962	     -23.654	       4.580	      -8.346	    -142.201
	20.000000000	      -1.628	    -166.764	       7.577	      68.967	     -23.708	       4.520	      -8.286	    -142.557
	20.500000000	      -1.630	    -167.461	       7.367	      67.969	     -23.719	       4.473	      -8.205	    -142.875
	21.000000000	      -1.630	    -168.166	       7.155	      66.978	     -23.731	       4.057	      -8.123	    -143.286
	21.500000000	      -1.622	    -168.864	       6.947	      65.996	     -23.767	       3.656	      -8.047	    -143.615
	22.000000000	      -1.618	    -169.510	       6.744	      65.046	     -23.820	       3.308	      -7.976	    -143.952
	22.500000000	      -1.611	    -170.098	       6.544	      64.062	     -23.860	       2.974	      -7.908	    -144.343
	23.000000000	      -1.611	    -170.724	       6.345	      63.107	     -23.902	       2.610	      -7.831	    -144.803
	23.500000000	      -1.613	    -171.400	       6.149	      62.203	     -24.036	       2.303	      -7.764	    -145.250
	24.000000000	      -1.617	    -171.999	       5.961	      61.322	     -24.131	       2.522	      -7.702	    -145.524
	24.500000000	      -1.608	    -172.444	       5.782	      60.408	     -24.150	       2.685	      -7.635	    -145.673
	25.000000000	      -1.594	    -172.904	       5.602	      59.472	     -24.158	       2.488	      -7.562	    -145.886
	25.500000000	      -1.586	    -173.510	       5.421	      58.573	     -24.219	       2.351	      -7.478	    -146.207
	26.000000000	      -1.589	    -174.123	       5.238	      57.689	     -24.251	       2.153	      -7.381	    -146.636
	26.500000000	      -1.588	    -174.643	       5.063	      56.804	     -24.280	       1.819	      -7.303	    -146.946
	27.000000000	      -1.582	    -175.028	       4.890	      55.947	     -24.347	       1.580	      -7.236	    -147.273
	27.500000000	      -1.589	    -175.442	       4.720	      55.174	     -24.538	       1.757	      -7.191	    -147.383
	28.000000000	      -1.592	    -175.919	       4.561	      54.372	     -24.624	       2.068	      -7.121	    -147.727
	28.500000000	      -1.574	    -176.334	       4.410	      53.472	     -24.576	       2.612	      -7.024	    -148.049
	29.000000000	      -1.565	    -176.765	       4.244	      52.566	     -24.590	       2.250	      -6.952	    -148.402
	29.500000000	      -1.554	    -177.191	       4.085	      51.734	     -24.609	       2.103	      -6.874	    -148.661
	30.000000000	      -1.553	    -177.586	       3.928	      50.943	     -24.706	       1.878	      -6.812	    -148.913
	30.500000000	      -1.552	    -178.035	       3.774	      50.115	     -24.739	       1.910	      -6.746	    -149.259
	31.000000000	      -1.542	    -178.487	       3.618	      49.308	     -24.827	       1.673	      -6.686	    -149.586
	31.500000000	      -1.528	    -178.877	       3.479	      48.536	     -24.954	       2.278	      -6.625	    -149.872
	32.000000000	      -1.528	    -179.213	       3.332	      47.708	     -24.958	       2.913	      -6.548	    -150.074
	32.500000000	      -1.537	    -179.589	       3.187	      46.835	     -24.900	       2.941	      -6.458	    -150.254
	33.000000000	      -1.535	     179.960	       3.037	      46.054	     -24.915	       2.710	      -6.393	    -150.632
	33.500000000	      -1.524	     179.592	       2.888	      45.279	     -24.990	       2.578	      -6.326	    -151.009
	34.000000000	      -1.513	     179.293	       2.745	      44.520	     -25.043	       2.223	      -6.254	    -151.427
	34.500000000	      -1.512	     178.929	       2.595	      43.679	     -25.138	       2.052	      -6.170	    -151.663
	35.000000000	      -1.510	     178.570	       2.452	      42.965	     -25.235	       2.269	      -6.107	    -152.108
	35.500000000	      -1.502	     178.235	       2.331	      42.220	     -25.288	       3.154	      -6.061	    -152.284
	36.000000000	      -1.488	     177.894	       2.201	      41.389	     -25.186	       3.164	      -5.975	    -152.549
	36.500000000	      -1.475	     177.647	       2.064	      40.551	     -25.228	       3.191	      -5.900	    -152.920
	37.000000000	      -1.467	     177.350	       1.923	      39.795	     -25.280	       2.807	      -5.839	    -153.215
	37.500000000	      -1.475	     176.933	       1.781	      39.034	     -25.375	       2.344	      -5.795	    -153.502
	38.000000000	      -1.479	     176.591	       1.641	      38.343	     -25.419	       2.584	      -5.728	    -153.781
	38.500000000	      -1.472	     176.302	       1.504	      37.711	     -25.548	       2.265	      -5.666	    -154.189
	39.000000000	      -1.462	     176.130	       1.385	      37.044	     -25.693	       3.552	      -5.596	    -154.504
	39.500000000	      -1.460	     175.926	       1.266	      36.357	     -25.685	       3.935	      -5.529	    -154.811
	40.000000000	      -1.446	     175.492	       1.154	      35.557	     -25.681	       3.923	      -5.449	    -155.091
	40.500000000	      -1.444	     175.130	       1.025	      34.829	     -25.705	       3.829	      -5.375	    -155.392
	41.000000000	      -1.421	     174.845	       0.907	      34.035	     -25.751	       4.015	      -5.318	    -155.813
	41.500000000	      -1.415	     174.672	       0.785	      33.341	     -25.775	       3.845	      -5.281	    -156.068
	42.000000000	      -1.411	     174.374	       0.660	      32.591	     -25.875	       4.019	      -5.217	    -156.250
	42.500000000	      -1.430	     173.991	       0.533	      31.936	     -25.970	       3.498	      -5.159	    -156.351
	43.000000000	      -1.428	     173.755	       0.428	      31.331	     -26.140	       4.814	      -5.090	    -156.647
	43.500000000	      -1.413	     173.548	       0.307	      30.458	     -26.070	       5.316	      -5.036	    -157.089
	44.000000000	      -1.419	     173.249	       0.181	      29.749	     -26.025	       4.886	      -4.956	    -157.517
	44.500000000	      -1.421	     172.827	       0.052	      29.032	     -26.013	       5.378	      -4.893	    -157.864
	45.000000000	      -1.437	     172.553	      -0.070	      28.387	     -26.155	       4.804	      -4.832	    -158.190
	45.500000000	      -1.388	     172.252	      -0.354	      27.872	     -26.251	       4.960	      -4.699	    -159.192
	46.000000000	      -1.368	     172.069	      -0.478	      27.272	     -26.467	       5.058	      -4.644	    -159.613
	46.500000000	      -1.350	     171.744	      -0.584	      26.706	     -26.674	       5.975	      -4.575	    -159.722
	47.000000000	      -1.355	     171.397	      -0.687	      26.007	     -26.691	       6.431	      -4.508	    -159.875
	47.500000000	      -1.347	     171.188	      -0.804	      25.301	     -26.431	       7.029	      -4.473	    -160.171
	48.000000000	      -1.331	     170.882	      -0.932	      24.635	     -26.419	       7.979	      -4.428	    -160.399
	48.500000000	      -1.329	     170.631	      -1.038	      24.110	     -26.515	       7.610	      -4.373	    -160.728
	49.000000000	      -1.341	     170.471	      -1.145	      23.477	     -26.494	       7.469	      -4.310	    -160.918
	49.500000000	      -1.350	     170.230	      -1.257	      22.951	     -26.574	       8.021	      -4.244	    -161.084
	50.000000000	      -1.339	     169.891	      -1.343	      22.424	     -26.528	       7.294	      -4.221	    -161.408
	50.500000000	      -1.316	     169.676	      -1.442	      21.584	     -26.529	       8.261	      -4.147	    -161.934
	51.000000000	      -1.313	     169.440	      -1.548	      20.962	     -26.810	       9.240	      -4.128	    -162.301
	51.500000000	      -1.309	     169.254	      -1.657	      20.259	     -26.599	       9.392	      -4.067	    -162.614
	52.000000000	      -1.290	     169.088	      -1.767	      19.542	     -26.551	       9.359	      -4.016	    -162.865
	52.500000000	      -1.297	     168.708	      -1.878	      18.959	     -26.499	       8.903	      -3.965	    -163.006
	53.000000000	      -1.287	     168.381	      -1.991	      18.248	     -26.701	       9.244	      -3.916	    -163.231
	53.500000000	      -1.283	     168.220	      -2.100	      17.790	     -26.728	       9.004	      -3.855	    -163.490
	54.000000000	      -1.277	     168.044	      -2.195	      17.241	     -26.748	       9.983	      -3.794	    -163.879
	54.500000000	      -1.269	     167.699	      -2.293	      16.570	     -26.829	       9.440	      -3.736	    -164.117
	55.000000000	      -1.275	     167.277	      -2.399	      15.984	     -26.694	       9.509	      -3.702	    -164.332
	55.500000000	      -1.275	     166.975	      -2.477	      15.340	     -26.763	      10.360	      -3.656	    -164.697
	56.000000000	      -1.255	     166.675	      -2.585	      14.783	     -26.532	      10.283	      -3.604	    -165.264
	56.500000000	      -1.256	     166.551	      -2.705	      14.102	     -26.594	       8.679	      -3.572	    -165.865
	57.000000000	      -1.276	     166.444	      -2.820	      13.427	     -26.883	       8.995	      -3.581	    -165.959
	57.500000000	      -1.277	     166.301	      -2.943	      12.959	     -26.970	       8.185	      -3.535	    -166.245
	58.000000000	      -1.248	     166.133	      -3.030	      12.378	     -27.164	       9.244	      -3.513	    -166.462
	58.500000000	      -1.230	     165.995	      -3.104	      11.819	     -27.042	      10.839	      -3.445	    -166.790
	59.000000000	      -1.219	     165.644	      -3.194	      11.184	     -27.085	      10.611	      -3.401	    -166.993
	59.500000000	      -1.224	     165.516	      -3.304	      10.419	     -27.010	      10.795	      -3.358	    -167.369
	60.000000000	      -1.239	     165.404	      -3.385	       9.980	     -27.058	      10.624	      -3.344	    -167.693
	60.500000000	      -1.200	     165.125	      -3.497	       9.398	     -27.102	      12.092	      -3.362	    -167.845
	61.000000000	      -1.158	     164.872	      -3.598	       8.952	     -27.285	      11.337	      -3.309	    -167.970
	61.500000000	      -1.153	     164.717	      -3.683	       8.473	     -27.448	      10.797	      -3.290	    -168.080
	62.000000000	      -1.133	     164.332	      -3.739	       7.942	     -27.208	      12.276	      -3.280	    -168.217
	62.500000000	      -1.152	     164.105	      -3.821	       7.311	     -27.243	      13.339	      -3.256	    -168.336
	63.000000000	      -1.122	     163.756	      -3.899	       6.661	     -27.125	      15.284	      -3.191	    -168.448
	63.500000000	      -1.126	     163.577	      -3.979	       5.943	     -26.921	      13.971	      -3.121	    -168.752
	64.000000000	      -1.113	     163.640	      -4.039	       5.128	     -26.918	      15.969	      -3.061	    -168.716
	64.500000000	      -1.110	     163.526	      -4.121	       4.325	     -26.847	      12.690	      -3.028	    -168.478
	65.000000000	      -1.096	     163.137	      -4.239	       3.486	     -26.660	      13.940	      -2.952	    -168.921
	65.500000000	      -1.105	     162.690	      -4.351	       2.774	     -27.090	      14.853	      -2.920	    -169.798
	66.000000000	      -1.084	     162.387	      -4.452	       1.879	     -27.198	      12.830	      -2.893	    -170.093
	66.500000000	      -1.125	     162.108	      -4.574	       1.163	     -26.258	      12.516	      -2.853	    -170.009
	67.000000000	      -1.184	     161.788	      -4.674	       0.589	     -26.692	      12.640	      -2.863	    -170.141
	67.500000000	      -1.157	     161.110	      -4.847	      -0.405	     -26.725	      13.300	      -2.843	    -170.580
	68.000000000	      -1.208	     160.943	      -4.960	      -0.971	     -26.757	      13.356	      -2.885	    -170.957
	68.500000000	      -1.252	     160.712	      -5.053	      -1.468	     -26.699	      12.871	      -2.835	    -171.222
	69.000000000	      -1.283	     160.543	      -5.179	      -2.006	     -26.695	      12.182	      -2.771	    -171.369
	69.500000000	      -1.282	     160.418	      -5.313	      -2.439	     -26.849	      11.968	      -2.743	    -171.518
	70.000000000	      -1.259	     160.247	      -5.403	      -2.879	     -26.877	      12.806	      -2.711	    -171.576
	70.500000000	      -1.241	     160.124	      -5.494	      -3.334	     -26.809	      12.701	      -2.673	    -171.756
	71.000000000	      -1.230	     159.974	      -5.587	      -3.735	     -26.821	      12.384	      -2.631	    -171.899
	71.500000000	      -1.187	     159.874	      -5.707	      -4.165	     -26.820	      11.931	      -2.558	    -172.215
	72.000000000	      -1.175	     159.579	      -5.821	      -4.817	     -26.828	      11.386	      -2.560	    -172.417
	72.500000000	      -1.205	     159.135	      -5.923	      -5.495	     -26.863	      10.545	      -2.538	    -172.714
	73.000000000	      -1.242	     158.975	      -6.030	      -6.006	     -27.005	      10.083	      -2.497	    -172.906
	73.500000000	      -1.265	     158.876	      -6.146	      -6.542	     -27.221	      10.503	      -2.428	    -173.205
	74.000000000	      -1.273	     158.584	      -6.250	      -6.952	     -27.298	      11.103	      -2.430	    -173.802
	74.500000000	      -1.311	     158.352	      -6.346	      -7.341	     -27.383	      11.808	      -2.443	    -174.036
	75.000000000	      -1.355	     158.293	      -6.447	      -7.868	     -27.449	      12.281	      -2.439	    -174.167
	75.500000000	      -1.396	     158.348	      -6.571	      -8.373	     -27.628	      13.103	      -2.436	    -174.241
	76.000000000	      -1.408	     158.521	      -6.699	      -8.733	     -27.834	      15.644	      -2.440	    -174.287
	76.500000000	      -1.394	     158.701	      -6.822	      -8.845	     -27.774	      19.699	      -2.418	    -174.193
	77.000000000	      -1.365	     158.772	      -6.900	      -8.870	     -27.229	      22.851	      -2.351	    -174.162
	77.500000000	      -1.267	     158.697	      -6.925	      -8.875	     -26.499	      23.551	      -2.271	    -174.305
	78.000000000	      -1.183	     158.431	      -6.924	      -9.183	     -25.904	      22.052	      -2.230	    -174.473
	78.500000000	      -1.152	     157.914	      -6.957	     -10.005	     -25.521	      19.456	      -2.194	    -174.716
	79.000000000	      -1.190	     157.321	      -7.031	     -10.871	     -25.348	      16.643	      -2.135	    -175.002
	79.500000000	      -1.203	     156.865	      -7.099	     -11.662	     -25.247	      14.385	      -2.087	    -175.320
