!File name = EG0520U_1010_6x60_2SDBCB2EV_1915934D06_RC2943_3Vd_54mA.s2p
!Base file name = EG0520U_1010_6x60_2SDBCB2EV_1915934D06_RC2943
!Date = 8/23/2019
!Time = 1:04 PM
!Test duration(min) = 0.15
!Test = S-Parameters
!MPTS version = 8.91.5
!State File = C:\Data\PNA\20190821205423\S-Parameters_2019-08-23.sta
!Cal File = 
!ComputerName = CMPE-LAB-6
!Comments = 
!Attenuation = 0
!Z0 = 50
!Input Power(dBm) = -13.00
!Device ID = EG0520U_1010_6x60_2SDBCB2EV
!Row = 29
!Column = 43
!Technology = QPHT09
!Lot/Wafer = 1915934D06
!Gate Size = 360
!Mask = EG0520
!Cal Standards = GaAs BCB
!Cal Kit = EG2306
!Job Number = 20190821205423
!Device Type = FET
!set_Vg(v) = -1.500
!set_Vd(v) = 3.000
!set_Vd(mA) = 54.000
!file_name = EG0520U_1010_6x60_2SDBCB2EV_1915934D06_RC2943_3Vd_54mA.s2p
!Vd(V) = 3.000
!Vd(mA) = 54.176
!Vg(V) = -0.427
!Vg(mA) = -0.001
# GHz   S   DB   R   50
!%	Freq(GHz)	     s11(dB)	    s11(deg)	     s21(dB)	    s21(deg)	     s12(dB)	    s12(deg)	     s22(dB)	    s22(deg)
	0.500000000	      -0.035	     -15.161	      22.580	     170.767	     -39.391	      81.264	      -9.897	     -17.490
	1.000000000	      -0.121	     -29.956	      22.110	     162.081	     -33.631	      73.330	      -9.837	     -33.259
	1.500000000	      -0.165	     -43.839	      21.731	     154.511	     -30.504	      65.790	      -9.635	     -48.044
	2.000000000	      -0.312	     -56.360	      21.457	     147.089	     -28.525	      58.875	      -9.461	     -62.154
	2.500000000	      -0.411	     -67.927	      20.997	     140.584	     -27.170	      53.008	      -9.421	     -73.293
	3.000000000	      -0.806	     -75.676	      20.297	     135.471	     -26.372	      48.663	      -9.767	     -77.980
	3.500000000	      -0.925	     -84.537	      19.713	     130.371	     -25.634	      44.229	      -9.694	     -86.226
	4.000000000	      -1.019	     -92.326	      19.132	     125.906	     -25.082	      40.354	      -9.622	     -93.335
	4.500000000	      -1.119	     -99.214	      18.557	     121.792	     -24.670	      36.882	      -9.551	     -99.716
	5.000000000	      -1.190	    -105.310	      17.988	     118.186	     -24.339	      33.886	      -9.505	    -105.045
	5.500000000	      -1.255	    -110.785	      17.444	     114.848	     -24.087	      31.274	      -9.472	    -109.707
	6.000000000	      -1.312	    -115.645	      16.907	     111.855	     -23.880	      28.901	      -9.415	    -113.683
	6.500000000	      -1.358	    -119.965	      16.394	     109.141	     -23.717	      26.770	      -9.365	    -117.191
	7.000000000	      -1.396	    -123.857	      15.902	     106.600	     -23.583	      24.918	      -9.315	    -120.226
	7.500000000	      -1.425	    -127.375	      15.423	     104.274	     -23.475	      23.193	      -9.268	    -122.979
	8.000000000	      -1.434	    -130.320	      14.986	     102.240	     -23.366	      21.825	      -9.259	    -124.716
	8.500000000	      -1.461	    -133.274	      14.545	     100.221	     -23.287	      20.348	      -9.215	    -126.892
	9.000000000	      -1.488	    -135.929	      14.116	      98.329	     -23.229	      18.976	      -9.169	    -128.795
	9.500000000	      -1.504	    -138.402	      13.714	      96.495	     -23.182	      17.674	      -9.120	    -130.501
	10.000000000	      -1.516	    -140.687	      13.324	      94.770	     -23.156	      16.457	      -9.073	    -132.129
	10.500000000	      -1.533	    -142.827	      12.949	      93.101	     -23.137	      15.429	      -9.030	    -133.563
	11.000000000	      -1.545	    -144.781	      12.586	      91.539	     -23.125	      14.480	      -8.987	    -134.806
	11.500000000	      -1.563	    -146.629	      12.232	      90.022	     -23.127	      13.528	      -8.940	    -135.968
	12.000000000	      -1.577	    -148.336	      11.893	      88.582	     -23.134	      12.747	      -8.884	    -137.038
	12.500000000	      -1.584	    -149.911	      11.564	      87.199	     -23.129	      11.979	      -8.833	    -138.025
	13.000000000	      -1.594	    -151.401	      11.245	      85.842	     -23.138	      11.258	      -8.781	    -138.937
	13.500000000	      -1.602	    -152.806	      10.937	      84.543	     -23.143	      10.544	      -8.720	    -139.665
	14.000000000	      -1.610	    -154.162	      10.639	      83.292	     -23.167	       9.867	      -8.662	    -140.401
	14.500000000	      -1.614	    -155.397	      10.349	      82.050	     -23.191	       9.277	      -8.608	    -141.138
	15.000000000	      -1.618	    -156.504	      10.064	      80.867	     -23.216	       8.803	      -8.562	    -141.861
	15.500000000	      -1.626	    -157.599	       9.789	      79.696	     -23.242	       8.343	      -8.508	    -142.407
	16.000000000	      -1.629	    -158.687	       9.522	      78.551	     -23.247	       7.822	      -8.442	    -142.933
	16.500000000	      -1.633	    -159.740	       9.261	      77.428	     -23.279	       7.274	      -8.381	    -143.453
	17.000000000	      -1.634	    -160.717	       9.009	      76.337	     -23.324	       6.846	      -8.329	    -143.909
	17.500000000	      -1.640	    -161.599	       8.759	      75.263	     -23.345	       6.503	      -8.264	    -144.430
	18.000000000	      -1.650	    -162.468	       8.519	      74.218	     -23.387	       6.035	      -8.201	    -144.938
	18.500000000	      -1.650	    -163.325	       8.284	      73.188	     -23.404	       5.562	      -8.129	    -145.337
	19.000000000	      -1.649	    -164.154	       8.052	      72.167	     -23.456	       5.107	      -8.067	    -145.697
	19.500000000	      -1.648	    -164.929	       7.828	      71.178	     -23.535	       4.783	      -8.016	    -146.154
	20.000000000	      -1.656	    -165.647	       7.609	      70.222	     -23.598	       4.818	      -7.964	    -146.464
	20.500000000	      -1.657	    -166.339	       7.400	      69.245	     -23.610	       4.719	      -7.894	    -146.770
	21.000000000	      -1.658	    -167.017	       7.189	      68.283	     -23.618	       4.392	      -7.820	    -147.127
	21.500000000	      -1.650	    -167.739	       6.983	      67.326	     -23.657	       4.073	      -7.754	    -147.433
	22.000000000	      -1.648	    -168.311	       6.781	      66.407	     -23.695	       3.771	      -7.684	    -147.745
	22.500000000	      -1.647	    -168.918	       6.581	      65.467	     -23.725	       3.326	      -7.623	    -148.095
	23.000000000	      -1.650	    -169.509	       6.383	      64.551	     -23.790	       2.965	      -7.557	    -148.525
	23.500000000	      -1.651	    -170.118	       6.191	      63.699	     -23.921	       2.840	      -7.501	    -148.913
	24.000000000	      -1.650	    -170.677	       6.008	      62.847	     -23.988	       3.193	      -7.447	    -149.132
	24.500000000	      -1.641	    -171.158	       5.830	      61.951	     -23.989	       3.347	      -7.382	    -149.275
	25.000000000	      -1.625	    -171.576	       5.654	      61.037	     -23.968	       3.012	      -7.312	    -149.470
	25.500000000	      -1.617	    -172.133	       5.475	      60.160	     -24.007	       2.804	      -7.242	    -149.772
	26.000000000	      -1.619	    -172.752	       5.295	      59.302	     -24.040	       2.487	      -7.157	    -150.137
	26.500000000	      -1.620	    -173.242	       5.122	      58.452	     -24.126	       2.205	      -7.086	    -150.413
	27.000000000	      -1.612	    -173.609	       4.954	      57.641	     -24.200	       1.916	      -7.024	    -150.710
	27.500000000	      -1.607	    -173.973	       4.795	      56.874	     -24.287	       2.335	      -6.976	    -150.781
	28.000000000	      -1.597	    -174.478	       4.643	      56.039	     -24.343	       2.710	      -6.904	    -151.138
	28.500000000	      -1.586	    -174.983	       4.486	      55.117	     -24.300	       2.698	      -6.818	    -151.438
	29.000000000	      -1.577	    -175.401	       4.322	      54.255	     -24.315	       2.341	      -6.752	    -151.744
	29.500000000	      -1.570	    -175.764	       4.163	      53.440	     -24.404	       2.158	      -6.683	    -152.065
	30.000000000	      -1.565	    -176.194	       4.008	      52.667	     -24.462	       1.941	      -6.623	    -152.319
	30.500000000	      -1.561	    -176.648	       3.859	      51.844	     -24.518	       1.864	      -6.566	    -152.587
	31.000000000	      -1.543	    -177.086	       3.706	      51.052	     -24.543	       1.570	      -6.512	    -152.918
	31.500000000	      -1.537	    -177.493	       3.568	      50.256	     -24.666	       1.985	      -6.458	    -153.161
	32.000000000	      -1.533	    -177.834	       3.419	      49.445	     -24.697	       2.165	      -6.391	    -153.349
	32.500000000	      -1.542	    -178.289	       3.271	      48.608	     -24.702	       2.098	      -6.316	    -153.544
	33.000000000	      -1.542	    -178.661	       3.128	      47.861	     -24.765	       2.268	      -6.250	    -153.843
	33.500000000	      -1.527	    -179.053	       2.982	      47.094	     -24.829	       2.118	      -6.192	    -154.133
	34.000000000	      -1.511	    -179.383	       2.841	      46.316	     -24.897	       2.322	      -6.121	    -154.476
	34.500000000	      -1.509	    -179.739	       2.687	      45.479	     -24.900	       2.039	      -6.046	    -154.727
	35.000000000	      -1.508	     179.847	       2.548	      44.726	     -25.020	       2.040	      -5.985	    -155.062
	35.500000000	      -1.506	     179.450	       2.422	      44.022	     -25.019	       2.879	      -5.935	    -155.283
	36.000000000	      -1.502	     179.113	       2.288	      43.213	     -24.981	       2.856	      -5.864	    -155.536
	36.500000000	      -1.492	     178.839	       2.149	      42.429	     -25.038	       2.732	      -5.798	    -155.828
	37.000000000	      -1.489	     178.587	       2.012	      41.697	     -25.112	       2.155	      -5.742	    -156.131
	37.500000000	      -1.492	     178.197	       1.877	      40.958	     -25.165	       2.215	      -5.693	    -156.390
	38.000000000	      -1.486	     177.862	       1.740	      40.281	     -25.223	       2.286	      -5.634	    -156.593
	38.500000000	      -1.476	     177.496	       1.603	      39.554	     -25.316	       1.985	      -5.571	    -157.042
	39.000000000	      -1.475	     177.184	       1.473	      38.886	     -25.355	       2.498	      -5.514	    -157.345
	39.500000000	      -1.480	     176.939	       1.343	      38.232	     -25.451	       2.421	      -5.450	    -157.597
	40.000000000	      -1.487	     176.609	       1.229	      37.562	     -25.491	       3.049	      -5.387	    -157.814
	40.500000000	      -1.488	     176.273	       1.106	      36.861	     -25.569	       3.018	      -5.312	    -158.124
	41.000000000	      -1.472	     175.966	       0.990	      36.120	     -25.532	       3.199	      -5.262	    -158.519
	41.500000000	      -1.459	     175.822	       0.869	      35.451	     -25.595	       3.278	      -5.217	    -158.714
	42.000000000	      -1.467	     175.561	       0.748	      34.769	     -25.577	       3.257	      -5.153	    -158.915
	42.500000000	      -1.479	     175.177	       0.622	      34.118	     -25.750	       3.062	      -5.099	    -159.057
	43.000000000	      -1.480	     174.951	       0.518	      33.558	     -25.801	       4.124	      -5.040	    -159.362
	43.500000000	      -1.465	     174.794	       0.406	      32.774	     -25.716	       4.523	      -4.989	    -159.700
	44.000000000	      -1.457	     174.574	       0.290	      32.060	     -25.776	       4.706	      -4.918	    -160.097
	44.500000000	      -1.468	     174.178	       0.164	      31.338	     -25.736	       4.418	      -4.860	    -160.341
	45.000000000	      -1.477	     173.894	       0.045	      30.686	     -25.796	       4.511	      -4.793	    -160.685
	45.500000000	      -1.427	     173.552	      -0.233	      30.171	     -26.123	       3.964	      -4.652	    -161.525
	46.000000000	      -1.406	     173.325	      -0.359	      29.536	     -26.171	       3.711	      -4.600	    -161.901
	46.500000000	      -1.402	     172.975	      -0.463	      29.008	     -26.152	       4.609	      -4.539	    -161.999
	47.000000000	      -1.401	     172.633	      -0.565	      28.320	     -26.262	       5.204	      -4.497	    -162.185
	47.500000000	      -1.396	     172.407	      -0.675	      27.626	     -26.188	       6.313	      -4.433	    -162.478
	48.000000000	      -1.379	     172.140	      -0.793	      26.995	     -26.130	       6.726	      -4.385	    -162.628
	48.500000000	      -1.377	     171.844	      -0.914	      26.339	     -26.287	       6.227	      -4.335	    -163.087
	49.000000000	      -1.387	     171.635	      -1.024	      25.735	     -26.263	       5.566	      -4.281	    -163.303
	49.500000000	      -1.396	     171.419	      -1.131	      25.200	     -26.445	       5.857	      -4.219	    -163.584
	50.000000000	      -1.368	     171.194	      -1.247	      24.692	     -26.608	       6.799	      -4.173	    -163.985
	50.500000000	      -1.377	     170.920	      -1.357	      24.005	     -26.548	       6.358	      -4.148	    -164.411
	51.000000000	      -1.359	     170.655	      -1.453	      23.467	     -26.580	       7.542	      -4.144	    -164.548
	51.500000000	      -1.359	     170.498	      -1.563	      22.800	     -26.514	       7.619	      -4.073	    -165.087
	52.000000000	      -1.332	     170.299	      -1.669	      22.180	     -26.402	       7.562	      -4.041	    -165.271
	52.500000000	      -1.332	     169.939	      -1.772	      21.616	     -26.461	       7.223	      -3.999	    -165.389
	53.000000000	      -1.323	     169.601	      -1.874	      20.992	     -26.473	       7.493	      -3.960	    -165.509
	53.500000000	      -1.326	     169.459	      -1.973	      20.491	     -26.462	       7.884	      -3.915	    -165.719
	54.000000000	      -1.315	     169.244	      -2.068	      19.928	     -26.431	       8.240	      -3.837	    -166.049
	54.500000000	      -1.316	     168.872	      -2.157	      19.413	     -26.577	       7.942	      -3.796	    -166.221
	55.000000000	      -1.325	     168.514	      -2.249	      18.773	     -26.526	       8.727	      -3.743	    -166.405
	55.500000000	      -1.324	     168.294	      -2.337	      18.129	     -26.665	       8.370	      -3.704	    -166.743
	56.000000000	      -1.305	     167.941	      -2.426	      17.543	     -26.488	       7.490	      -3.657	    -167.118
	56.500000000	      -1.316	     167.736	      -2.539	      16.872	     -26.596	       8.006	      -3.606	    -167.654
	57.000000000	      -1.317	     167.696	      -2.640	      16.412	     -26.597	       7.209	      -3.629	    -167.969
	57.500000000	      -1.311	     167.450	      -2.748	      15.782	     -26.770	       6.582	      -3.581	    -168.148
	58.000000000	      -1.284	     167.253	      -2.824	      15.276	     -26.847	       8.100	      -3.548	    -168.455
	58.500000000	      -1.264	     167.150	      -2.909	      14.700	     -26.890	       8.853	      -3.498	    -168.705
	59.000000000	      -1.266	     166.799	      -2.982	      13.868	     -26.892	       8.532	      -3.462	    -168.884
	59.500000000	      -1.264	     166.592	      -3.081	      13.244	     -26.383	       8.677	      -3.419	    -169.170
	60.000000000	      -1.267	     166.452	      -3.182	      12.682	     -26.970	       8.612	      -3.425	    -169.487
	60.500000000	      -1.240	     166.245	      -3.287	      12.025	     -26.862	       8.899	      -3.421	    -169.554
	61.000000000	      -1.206	     165.960	      -3.401	      11.593	     -27.201	       7.976	      -3.374	    -169.736
	61.500000000	      -1.202	     165.734	      -3.497	      11.061	     -27.020	       8.480	      -3.331	    -170.026
	62.000000000	      -1.175	     165.449	      -3.548	      10.475	     -27.197	      10.117	      -3.326	    -170.349
	62.500000000	      -1.190	     165.117	      -3.647	       9.877	     -27.037	      11.860	      -3.304	    -170.159
	63.000000000	      -1.179	     164.678	      -3.721	       9.322	     -27.013	      10.286	      -3.267	    -170.223
	63.500000000	      -1.166	     164.668	      -3.808	       8.505	     -26.777	       9.721	      -3.200	    -170.633
	64.000000000	      -1.155	     164.669	      -3.884	       7.819	     -27.144	      10.793	      -3.138	    -170.550
	64.500000000	      -1.133	     164.404	      -3.975	       6.853	     -27.100	      10.819	      -3.108	    -170.221
	65.000000000	      -1.149	     164.131	      -4.083	       6.177	     -26.538	      10.225	      -3.055	    -170.721
	65.500000000	      -1.152	     163.645	      -4.212	       5.579	     -26.708	       9.672	      -3.022	    -171.316
	66.000000000	      -1.131	     163.285	      -4.296	       4.901	     -26.851	      10.025	      -2.987	    -171.790
	66.500000000	      -1.152	     163.195	      -4.436	       4.167	     -27.203	      10.387	      -2.946	    -171.510
	67.000000000	      -1.205	     162.857	      -4.546	       3.615	     -26.768	       7.880	      -2.951	    -171.815
	67.500000000	      -1.191	     162.146	      -4.658	       2.867	     -26.797	      10.676	      -2.936	    -172.245
	68.000000000	      -1.219	     162.015	      -4.757	       2.301	     -26.776	      10.099	      -2.958	    -172.455
	68.500000000	      -1.249	     161.819	      -4.856	       1.803	     -26.803	       9.894	      -2.927	    -172.503
	69.000000000	      -1.278	     161.615	      -4.992	       1.250	     -26.822	       9.295	      -2.857	    -172.744
	69.500000000	      -1.277	     161.428	      -5.108	       0.838	     -26.947	       9.416	      -2.838	    -172.885
	70.000000000	      -1.261	     161.258	      -5.205	       0.430	     -26.978	      10.135	      -2.805	    -172.916
	70.500000000	      -1.244	     161.092	      -5.296	       0.007	     -26.891	      10.430	      -2.776	    -173.077
	71.000000000	      -1.236	     160.901	      -5.391	      -0.353	     -26.885	      10.121	      -2.722	    -173.242
	71.500000000	      -1.189	     160.709	      -5.484	      -0.777	     -26.843	       9.765	      -2.665	    -173.462
	72.000000000	      -1.186	     160.508	      -5.593	      -1.365	     -26.830	       9.179	      -2.668	    -173.700
	72.500000000	      -1.212	     160.076	      -5.677	      -1.998	     -26.846	       8.571	      -2.646	    -173.926
	73.000000000	      -1.237	     159.871	      -5.770	      -2.540	     -26.957	       7.945	      -2.605	    -174.078
	73.500000000	      -1.256	     159.796	      -5.875	      -3.117	     -27.103	       8.123	      -2.532	    -174.341
	74.000000000	      -1.264	     159.548	      -5.970	      -3.629	     -27.128	       8.602	      -2.529	    -174.871
	74.500000000	      -1.288	     159.351	      -6.054	      -4.091	     -27.153	       8.662	      -2.539	    -175.064
	75.000000000	      -1.319	     159.280	      -6.161	      -4.678	     -27.198	       8.532	      -2.520	    -175.231
	75.500000000	      -1.339	     159.256	      -6.280	      -5.350	     -27.342	       8.485	      -2.512	    -175.354
	76.000000000	      -1.343	     159.368	      -6.409	      -5.903	     -27.636	       9.042	      -2.514	    -175.458
	76.500000000	      -1.336	     159.485	      -6.565	      -6.254	     -27.928	      11.591	      -2.522	    -175.408
	77.000000000	      -1.319	     159.403	      -6.704	      -6.391	     -27.830	      15.322	      -2.474	    -175.277
	77.500000000	      -1.263	     159.483	      -6.787	      -6.150	     -27.315	      18.230	      -2.400	    -175.302
	78.000000000	      -1.174	     159.295	      -6.817	      -6.109	     -26.727	      18.729	      -2.350	    -175.352
	78.500000000	      -1.106	     158.862	      -6.840	      -6.444	     -26.325	      17.585	      -2.297	    -175.679
	79.000000000	      -1.102	     158.327	      -6.887	      -6.978	     -26.027	      16.063	      -2.247	    -175.991
	79.500000000	      -1.097	     157.759	      -6.915	      -7.592	     -25.772	      14.284	      -2.191	    -176.209
