!File name = EG0520U_1010_6x60_2SDBCB2EV_1915934D06_RC4034_4Vd_45mA.s2p
!Base file name = EG0520U_1010_6x60_2SDBCB2EV_1915934D06_RC4034
!Date = 8/23/2019
!Time = 12:59 PM
!Test duration(min) = 0.15
!Test = S-Parameters
!MPTS version = 8.91.5
!State File = C:\Data\PNA\20190821205423\S-Parameters_2019-08-23.sta
!Cal File = 
!ComputerName = CMPE-LAB-6
!Comments = 
!Attenuation = 0
!Z0 = 50
!Input Power(dBm) = -13.00
!Device ID = EG0520U_1010_6x60_2SDBCB2EV
!Row = 40
!Column = 34
!Technology = QPHT09
!Lot/Wafer = 1915934D06
!Gate Size = 360
!Mask = EG0520
!Cal Standards = GaAs BCB
!Cal Kit = EG2306
!Job Number = 20190821205423
!Device Type = FET
!set_Vg(v) = -1.500
!set_Vd(v) = 4.000
!set_Vd(mA) = 45.000
!file_name = EG0520U_1010_6x60_2SDBCB2EV_1915934D06_RC4034_4Vd_45mA.s2p
!Vd(V) = 4.000
!Vd(mA) = 44.984
!Vg(V) = -0.507
!Vg(mA) = -0.004
# GHz   S   DB   R   50
!%	Freq(GHz)	     s11(dB)	    s11(deg)	     s21(dB)	    s21(deg)	     s12(dB)	    s12(deg)	     s22(dB)	    s22(deg)
	0.500000000	      -0.073	     -14.935	      22.226	     170.836	     -39.267	      80.778	      -8.511	     -14.879
	1.000000000	      -0.159	     -29.497	      21.775	     162.297	     -33.491	      73.279	      -8.574	     -28.327
	1.500000000	      -0.200	     -43.201	      21.402	     154.724	     -30.347	      65.927	      -8.572	     -41.284
	2.000000000	      -0.339	     -55.556	      21.135	     147.367	     -28.347	      59.139	      -8.627	     -53.895
	2.500000000	      -0.436	     -67.023	      20.673	     140.869	     -26.977	      53.317	      -8.776	     -64.131
	3.000000000	      -0.825	     -74.698	      19.978	     135.667	     -26.180	      48.920	      -9.181	     -68.261
	3.500000000	      -0.940	     -83.527	      19.406	     130.564	     -25.434	      44.502	      -9.278	     -76.078
	4.000000000	      -1.034	     -91.300	      18.834	     126.044	     -24.872	      40.582	      -9.359	     -82.956
	4.500000000	      -1.135	     -98.184	      18.265	     121.893	     -24.446	      37.122	      -9.427	     -89.225
	5.000000000	      -1.206	    -104.293	      17.702	     118.244	     -24.115	      34.107	      -9.491	     -94.526
	5.500000000	      -1.272	    -109.768	      17.164	     114.862	     -23.854	      31.435	      -9.553	     -99.223
	6.000000000	      -1.329	    -114.650	      16.632	     111.824	     -23.640	      29.030	      -9.574	    -103.290
	6.500000000	      -1.375	    -118.983	      16.124	     109.061	     -23.470	      26.908	      -9.590	    -106.899
	7.000000000	      -1.414	    -122.910	      15.635	     106.472	     -23.335	      24.988	      -9.594	    -110.105
	7.500000000	      -1.443	    -126.430	      15.159	     104.100	     -23.226	      23.246	      -9.589	    -112.885
	8.000000000	      -1.451	    -129.407	      14.725	     102.015	     -23.108	      21.832	      -9.602	    -114.757
	8.500000000	      -1.478	    -132.385	      14.286	      99.938	     -23.030	      20.328	      -9.593	    -117.036
	9.000000000	      -1.507	    -135.060	      13.858	      97.999	     -22.972	      18.943	      -9.572	    -119.047
	9.500000000	      -1.523	    -137.551	      13.458	      96.117	     -22.923	      17.621	      -9.540	    -120.845
	10.000000000	      -1.537	    -139.853	      13.068	      94.350	     -22.898	      16.385	      -9.511	    -122.566
	10.500000000	      -1.556	    -142.002	      12.693	      92.634	     -22.881	      15.336	      -9.483	    -124.059
	11.000000000	      -1.566	    -143.959	      12.332	      91.037	     -22.861	      14.361	      -9.445	    -125.355
	11.500000000	      -1.583	    -145.817	      11.979	      89.479	     -22.861	      13.425	      -9.402	    -126.593
	12.000000000	      -1.596	    -147.538	      11.642	      87.999	     -22.859	      12.578	      -9.346	    -127.731
	12.500000000	      -1.602	    -149.133	      11.314	      86.571	     -22.855	      11.746	      -9.294	    -128.797
	13.000000000	      -1.609	    -150.628	      10.998	      85.168	     -22.859	      10.996	      -9.239	    -129.777
	13.500000000	      -1.617	    -152.068	      10.691	      83.833	     -22.872	      10.168	      -9.175	    -130.601
	14.000000000	      -1.626	    -153.441	      10.392	      82.521	     -22.899	       9.560	      -9.115	    -131.385
	14.500000000	      -1.631	    -154.666	      10.102	      81.248	     -22.918	       8.942	      -9.058	    -132.197
	15.000000000	      -1.633	    -155.774	       9.820	      80.027	     -22.938	       8.389	      -9.001	    -132.919
	15.500000000	      -1.638	    -156.887	       9.546	      78.807	     -22.953	       7.870	      -8.937	    -133.526
	16.000000000	      -1.642	    -157.999	       9.279	      77.619	     -22.968	       7.287	      -8.863	    -134.121
	16.500000000	      -1.645	    -159.047	       9.019	      76.452	     -22.998	       6.736	      -8.792	    -134.680
	17.000000000	      -1.645	    -160.041	       8.767	      75.315	     -23.039	       6.231	      -8.729	    -135.185
	17.500000000	      -1.652	    -160.941	       8.517	      74.200	     -23.066	       5.834	      -8.657	    -135.781
	18.000000000	      -1.659	    -161.820	       8.278	      73.114	     -23.110	       5.269	      -8.586	    -136.342
	18.500000000	      -1.660	    -162.683	       8.042	      72.044	     -23.131	       4.854	      -8.505	    -136.784
	19.000000000	      -1.657	    -163.510	       7.811	      70.987	     -23.180	       4.375	      -8.430	    -137.224
	19.500000000	      -1.654	    -164.294	       7.588	      69.957	     -23.248	       4.047	      -8.364	    -137.659
	20.000000000	      -1.662	    -165.046	       7.368	      68.942	     -23.318	       3.867	      -8.305	    -138.049
	20.500000000	      -1.665	    -165.747	       7.157	      67.932	     -23.353	       3.770	      -8.225	    -138.390
	21.000000000	      -1.663	    -166.418	       6.949	      66.936	     -23.374	       3.565	      -8.140	    -138.775
	21.500000000	      -1.654	    -167.144	       6.743	      65.932	     -23.398	       3.292	      -8.057	    -139.115
	22.000000000	      -1.646	    -167.743	       6.543	      64.963	     -23.426	       2.905	      -7.975	    -139.466
	22.500000000	      -1.643	    -168.388	       6.341	      63.962	     -23.446	       2.446	      -7.904	    -139.877
	23.000000000	      -1.646	    -168.996	       6.143	      63.008	     -23.511	       2.064	      -7.828	    -140.330
	23.500000000	      -1.643	    -169.668	       5.949	      62.081	     -23.616	       1.672	      -7.760	    -140.832
	24.000000000	      -1.651	    -170.269	       5.759	      61.197	     -23.731	       1.748	      -7.702	    -141.089
	24.500000000	      -1.643	    -170.714	       5.582	      60.289	     -23.727	       2.002	      -7.625	    -141.228
	25.000000000	      -1.631	    -171.197	       5.403	      59.328	     -23.732	       1.789	      -7.534	    -141.465
	25.500000000	      -1.631	    -171.755	       5.222	      58.425	     -23.775	       1.395	      -7.455	    -141.830
	26.000000000	      -1.632	    -172.362	       5.043	      57.543	     -23.831	       1.172	      -7.362	    -142.271
	26.500000000	      -1.631	    -172.847	       4.869	      56.653	     -23.867	       1.013	      -7.276	    -142.639
	27.000000000	      -1.623	    -173.244	       4.699	      55.792	     -23.956	       0.641	      -7.207	    -142.961
	27.500000000	      -1.628	    -173.655	       4.531	      55.007	     -24.116	       0.651	      -7.155	    -143.105
	28.000000000	      -1.628	    -174.128	       4.375	      54.171	     -24.179	       1.177	      -7.084	    -143.460
	28.500000000	      -1.602	    -174.565	       4.230	      53.233	     -24.141	       1.432	      -6.975	    -143.779
	29.000000000	      -1.596	    -175.040	       4.062	      52.302	     -24.137	       1.183	      -6.899	    -144.177
	29.500000000	      -1.596	    -175.459	       3.899	      51.455	     -24.204	       0.855	      -6.827	    -144.516
	30.000000000	      -1.595	    -175.899	       3.740	      50.657	     -24.277	       0.579	      -6.760	    -144.807
	30.500000000	      -1.594	    -176.305	       3.586	      49.836	     -24.310	       0.490	      -6.692	    -145.136
	31.000000000	      -1.584	    -176.734	       3.437	      49.028	     -24.406	       0.572	      -6.626	    -145.468
	31.500000000	      -1.569	    -177.087	       3.302	      48.252	     -24.521	       1.043	      -6.558	    -145.729
	32.000000000	      -1.565	    -177.462	       3.157	      47.391	     -24.525	       1.291	      -6.478	    -145.994
	32.500000000	      -1.569	    -177.876	       3.010	      46.481	     -24.513	       1.092	      -6.390	    -146.275
	33.000000000	      -1.567	    -178.318	       2.864	      45.675	     -24.523	       0.967	      -6.323	    -146.645
	33.500000000	      -1.557	    -178.689	       2.714	      44.897	     -24.614	       0.756	      -6.257	    -147.005
	34.000000000	      -1.546	    -179.068	       2.569	      44.093	     -24.662	       0.549	      -6.184	    -147.396
	34.500000000	      -1.549	    -179.467	       2.415	      43.272	     -24.753	       0.452	      -6.099	    -147.696
	35.000000000	      -1.554	    -179.788	       2.273	      42.543	     -24.817	       0.616	      -6.040	    -148.114
	35.500000000	      -1.546	     179.876	       2.154	      41.754	     -24.921	       1.164	      -5.983	    -148.347
	36.000000000	      -1.539	     179.532	       2.022	      40.943	     -24.806	       1.303	      -5.903	    -148.594
	36.500000000	      -1.527	     179.262	       1.889	      40.134	     -24.884	       1.119	      -5.826	    -148.972
	37.000000000	      -1.525	     178.984	       1.751	      39.384	     -24.910	       0.603	      -5.762	    -149.325
	37.500000000	      -1.531	     178.648	       1.615	      38.622	     -25.028	       0.417	      -5.706	    -149.628
	38.000000000	      -1.521	     178.329	       1.483	      37.895	     -25.129	       0.927	      -5.635	    -149.955
	38.500000000	      -1.508	     177.975	       1.347	      37.163	     -25.186	       0.455	      -5.577	    -150.397
	39.000000000	      -1.502	     177.731	       1.224	      36.478	     -25.240	       1.609	      -5.508	    -150.732
	39.500000000	      -1.498	     177.560	       1.103	      35.784	     -25.277	       1.893	      -5.440	    -151.103
	40.000000000	      -1.483	     177.146	       0.996	      34.983	     -25.316	       1.794	      -5.366	    -151.437
	40.500000000	      -1.478	     176.704	       0.864	      34.197	     -25.334	       1.880	      -5.293	    -151.765
	41.000000000	      -1.463	     176.397	       0.737	      33.388	     -25.362	       1.791	      -5.250	    -152.266
	41.500000000	      -1.462	     176.165	       0.617	      32.704	     -25.418	       1.397	      -5.202	    -152.444
	42.000000000	      -1.460	     175.881	       0.494	      31.981	     -25.494	       1.678	      -5.132	    -152.659
	42.500000000	      -1.473	     175.507	       0.369	      31.292	     -25.665	       1.677	      -5.068	    -152.786
	43.000000000	      -1.466	     175.254	       0.267	      30.618	     -25.732	       2.430	      -4.992	    -153.119
	43.500000000	      -1.455	     175.043	       0.149	      29.799	     -25.648	       2.288	      -4.944	    -153.586
	44.000000000	      -1.458	     174.753	       0.025	      29.047	     -25.614	       2.395	      -4.874	    -153.967
	44.500000000	      -1.458	     174.338	      -0.104	      28.322	     -25.747	       3.118	      -4.807	    -154.313
	45.000000000	      -1.477	     174.051	      -0.225	      27.630	     -25.686	       2.512	      -4.739	    -154.723
	45.500000000	      -1.434	     173.691	      -0.506	      27.096	     -25.880	       2.338	      -4.609	    -155.813
	46.000000000	      -1.411	     173.482	      -0.625	      26.449	     -26.079	       2.426	      -4.566	    -156.186
	46.500000000	      -1.399	     173.137	      -0.732	      25.834	     -26.187	       3.205	      -4.481	    -156.258
	47.000000000	      -1.397	     172.819	      -0.841	      25.076	     -26.199	       3.522	      -4.422	    -156.644
	47.500000000	      -1.396	     172.523	      -0.959	      24.384	     -26.189	       4.179	      -4.380	    -156.863
	48.000000000	      -1.382	     172.245	      -1.064	      23.690	     -26.131	       4.865	      -4.323	    -157.168
	48.500000000	      -1.377	     171.910	      -1.184	      23.034	     -26.098	       4.238	      -4.259	    -157.494
	49.000000000	      -1.390	     171.714	      -1.308	      22.409	     -26.353	       3.856	      -4.197	    -157.810
	49.500000000	      -1.392	     171.486	      -1.410	      21.819	     -26.411	       3.670	      -4.128	    -158.240
	50.000000000	      -1.374	     171.249	      -1.527	      21.205	     -26.547	       6.095	      -4.095	    -158.580
	50.500000000	      -1.368	     170.978	      -1.632	      20.521	     -26.564	       5.492	      -4.075	    -159.005
	51.000000000	      -1.358	     170.683	      -1.750	      19.889	     -26.372	       6.280	      -4.045	    -159.404
	51.500000000	      -1.358	     170.482	      -1.844	      19.271	     -26.358	       6.382	      -3.991	    -159.757
	52.000000000	      -1.337	     170.304	      -1.961	      18.580	     -26.440	       5.845	      -3.959	    -160.063
	52.500000000	      -1.334	     169.909	      -2.069	      18.032	     -26.458	       6.192	      -3.906	    -160.181
	53.000000000	      -1.333	     169.622	      -2.181	      17.381	     -26.411	       6.076	      -3.870	    -160.339
	53.500000000	      -1.326	     169.425	      -2.279	      16.923	     -26.643	       5.841	      -3.824	    -160.705
	54.000000000	      -1.317	     169.168	      -2.373	      16.277	     -26.419	       7.029	      -3.749	    -160.990
	54.500000000	      -1.316	     168.780	      -2.466	      15.675	     -26.544	       5.976	      -3.703	    -161.226
	55.000000000	      -1.321	     168.413	      -2.555	      15.059	     -26.476	       6.674	      -3.654	    -161.453
	55.500000000	      -1.320	     168.165	      -2.648	      14.322	     -26.467	       7.346	      -3.620	    -161.831
	56.000000000	      -1.311	     167.840	      -2.737	      13.701	     -26.513	       6.296	      -3.571	    -162.352
	56.500000000	      -1.335	     167.649	      -2.858	      13.139	     -26.467	       7.459	      -3.539	    -162.802
	57.000000000	      -1.313	     167.488	      -2.937	      12.402	     -26.822	       5.580	      -3.515	    -162.930
	57.500000000	      -1.314	     167.258	      -3.058	      11.763	     -26.905	       6.459	      -3.458	    -163.219
	58.000000000	      -1.289	     167.119	      -3.156	      11.247	     -26.798	       5.325	      -3.427	    -163.567
	58.500000000	      -1.297	     166.841	      -3.239	      10.607	     -26.948	       8.078	      -3.379	    -163.893
	59.000000000	      -1.271	     166.658	      -3.321	       9.903	     -27.091	       7.056	      -3.324	    -164.152
	59.500000000	      -1.274	     166.364	      -3.428	       9.112	     -26.856	       7.997	      -3.304	    -164.471
	60.000000000	      -1.271	     166.235	      -3.516	       8.558	     -27.003	       7.142	      -3.292	    -164.798
	60.500000000	      -1.249	     165.919	      -3.613	       7.990	     -26.915	       8.945	      -3.279	    -164.943
	61.000000000	      -1.210	     165.702	      -3.728	       7.437	     -27.042	       7.298	      -3.233	    -165.257
	61.500000000	      -1.219	     165.452	      -3.817	       6.888	     -26.906	       8.936	      -3.218	    -165.399
	62.000000000	      -1.200	     165.145	      -3.898	       6.261	     -27.046	       8.286	      -3.189	    -165.529
	62.500000000	      -1.202	     164.800	      -3.992	       5.645	     -26.903	       9.573	      -3.152	    -165.640
	63.000000000	      -1.189	     164.399	      -4.061	       4.975	     -26.879	      10.246	      -3.097	    -165.830
	63.500000000	      -1.181	     164.155	      -4.128	       4.168	     -26.865	      11.206	      -3.045	    -166.163
	64.000000000	      -1.173	     164.190	      -4.211	       3.450	     -26.867	      11.176	      -2.984	    -166.179
	64.500000000	      -1.164	     164.039	      -4.312	       2.528	     -26.768	       9.905	      -2.913	    -166.137
	65.000000000	      -1.165	     163.651	      -4.433	       1.736	     -26.575	       9.849	      -2.876	    -166.567
	65.500000000	      -1.157	     163.133	      -4.542	       0.965	     -27.059	       8.875	      -2.841	    -167.328
	66.000000000	      -1.174	     162.857	      -4.667	      -0.034	     -26.759	       9.083	      -2.797	    -167.836
	66.500000000	      -1.180	     162.698	      -4.798	      -0.636	     -26.857	      11.072	      -2.786	    -167.744
	67.000000000	      -1.216	     162.387	      -4.920	      -1.148	     -26.558	       9.689	      -2.747	    -168.017
	67.500000000	      -1.222	     161.767	      -5.058	      -2.042	     -26.726	       9.357	      -2.763	    -168.348
	68.000000000	      -1.252	     161.541	      -5.144	      -2.623	     -26.711	       9.024	      -2.782	    -168.652
	68.500000000	      -1.279	     161.329	      -5.254	      -3.228	     -26.749	       8.568	      -2.740	    -168.796
	69.000000000	      -1.303	     161.117	      -5.380	      -3.772	     -26.709	       8.006	      -2.676	    -169.061
	69.500000000	      -1.301	     160.896	      -5.517	      -4.226	     -26.866	       8.000	      -2.657	    -169.261
	70.000000000	      -1.290	     160.698	      -5.610	      -4.658	     -26.842	       8.731	      -2.638	    -169.385
	70.500000000	      -1.279	     160.484	      -5.718	      -5.238	     -26.798	       8.649	      -2.596	    -169.527
	71.000000000	      -1.284	     160.239	      -5.824	      -5.658	     -26.766	       8.381	      -2.557	    -169.738
	71.500000000	      -1.267	     160.053	      -5.920	      -6.228	     -26.773	       7.921	      -2.488	    -169.937
	72.000000000	      -1.256	     159.785	      -6.039	      -6.721	     -26.778	       7.107	      -2.497	    -170.294
	72.500000000	      -1.277	     159.442	      -6.135	      -7.393	     -26.857	       6.324	      -2.472	    -170.534
	73.000000000	      -1.304	     159.268	      -6.257	      -7.970	     -27.041	       5.630	      -2.432	    -170.734
	73.500000000	      -1.324	     159.147	      -6.380	      -8.483	     -27.246	       6.007	      -2.360	    -171.064
	74.000000000	      -1.327	     158.905	      -6.485	      -8.917	     -27.313	       6.648	      -2.362	    -171.633
	74.500000000	      -1.355	     158.699	      -6.589	      -9.363	     -27.406	       7.358	      -2.373	    -171.859
	75.000000000	      -1.384	     158.584	      -6.703	      -9.914	     -27.474	       7.643	      -2.355	    -171.975
	75.500000000	      -1.419	     158.563	      -6.836	     -10.414	     -27.692	       8.497	      -2.357	    -172.161
	76.000000000	      -1.428	     158.644	      -6.956	     -10.775	     -27.928	      10.672	      -2.361	    -172.261
	76.500000000	      -1.426	     158.766	      -7.090	     -10.985	     -27.930	      14.824	      -2.351	    -172.187
	77.000000000	      -1.404	     158.880	      -7.181	     -11.022	     -27.447	      18.296	      -2.295	    -172.096
	77.500000000	      -1.329	     158.790	      -7.212	     -11.030	     -26.722	      19.223	      -2.209	    -172.216
	78.000000000	      -1.260	     158.568	      -7.240	     -11.306	     -26.173	      17.910	      -2.159	    -172.375
	78.500000000	      -1.202	     158.090	      -7.279	     -11.920	     -25.856	      15.915	      -2.114	    -172.700
	79.000000000	      -1.212	     157.435	      -7.336	     -12.548	     -25.667	      14.195	      -2.069	    -173.045
	79.500000000	      -1.232	     156.873	      -7.377	     -13.370	     -25.439	      12.168	      -2.029	    -173.311
