!File name = EG0520U_1010_6x60_2SDBCB2EV_1915934D06_RC2952_3Vd_54mA.s2p
!Base file name = EG0520U_1010_6x60_2SDBCB2EV_1915934D06_RC2952
!Date = 8/23/2019
!Time = 1:15 PM
!Test duration(min) = 0.15
!Test = S-Parameters
!MPTS version = 8.91.5
!State File = C:\Data\PNA\20190821205423\S-Parameters_2019-08-23.sta
!Cal File = 
!ComputerName = CMPE-LAB-6
!Comments = 
!Attenuation = 0
!Z0 = 50
!Input Power(dBm) = -13.00
!Device ID = EG0520U_1010_6x60_2SDBCB2EV
!Row = 29
!Column = 52
!Technology = QPHT09
!Lot/Wafer = 1915934D06
!Gate Size = 360
!Mask = EG0520
!Cal Standards = GaAs BCB
!Cal Kit = EG2306
!Job Number = 20190821205423
!Device Type = FET
!set_Vg(v) = -1.500
!set_Vd(v) = 3.000
!set_Vd(mA) = 54.000
!file_name = EG0520U_1010_6x60_2SDBCB2EV_1915934D06_RC2952_3Vd_54mA.s2p
!Vd(V) = 3.000
!Vd(mA) = 54.200
!Vg(V) = -0.419
!Vg(mA) = -0.001
# GHz   S   DB   R   50
!%	Freq(GHz)	     s11(dB)	    s11(deg)	     s21(dB)	    s21(deg)	     s12(dB)	    s12(deg)	     s22(dB)	    s22(deg)
	0.500000000	      -0.034	     -15.331	      22.661	     170.686	     -39.321	      81.219	      -9.758	     -17.404
	1.000000000	      -0.123	     -30.290	      22.181	     161.927	     -33.567	      73.143	      -9.713	     -33.134
	1.500000000	      -0.167	     -44.309	      21.796	     154.288	     -30.444	      65.539	      -9.530	     -47.896
	2.000000000	      -0.317	     -56.934	      21.518	     146.829	     -28.471	      58.619	      -9.379	     -61.991
	2.500000000	      -0.416	     -68.574	      21.050	     140.298	     -27.122	      52.723	      -9.359	     -73.125
	3.000000000	      -0.813	     -76.375	      20.344	     135.169	     -26.333	      48.377	      -9.721	     -77.825
	3.500000000	      -0.931	     -85.279	      19.755	     130.056	     -25.605	      43.962	      -9.666	     -86.066
	4.000000000	      -1.025	     -93.094	      19.166	     125.588	     -25.056	      40.079	      -9.608	     -93.193
	4.500000000	      -1.123	    -100.004	      18.588	     121.471	     -24.644	      36.621	      -9.551	     -99.584
	5.000000000	      -1.193	    -106.109	      18.016	     117.864	     -24.321	      33.612	      -9.518	    -104.921
	5.500000000	      -1.258	    -111.589	      17.467	     114.529	     -24.075	      31.010	      -9.492	    -109.589
	6.000000000	      -1.313	    -116.461	      16.927	     111.539	     -23.864	      28.646	      -9.441	    -113.579
	6.500000000	      -1.358	    -120.790	      16.411	     108.825	     -23.708	      26.536	      -9.398	    -117.108
	7.000000000	      -1.397	    -124.684	      15.917	     106.296	     -23.577	      24.660	      -9.354	    -120.189
	7.500000000	      -1.425	    -128.210	      15.437	     103.962	     -23.476	      22.976	      -9.310	    -122.909
	8.000000000	      -1.434	    -131.165	      14.997	     101.928	     -23.363	      21.592	      -9.308	    -124.664
	8.500000000	      -1.459	    -134.123	      14.555	      99.909	     -23.285	      20.135	      -9.269	    -126.855
	9.000000000	      -1.485	    -136.782	      14.125	      98.017	     -23.227	      18.785	      -9.225	    -128.776
	9.500000000	      -1.502	    -139.264	      13.721	      96.179	     -23.184	      17.502	      -9.177	    -130.540
	10.000000000	      -1.515	    -141.564	      13.329	      94.451	     -23.165	      16.268	      -9.140	    -132.174
	10.500000000	      -1.535	    -143.705	      12.950	      92.782	     -23.159	      15.316	      -9.108	    -133.581
	11.000000000	      -1.546	    -145.641	      12.585	      91.238	     -23.133	      14.381	      -9.063	    -134.814
	11.500000000	      -1.561	    -147.479	      12.232	      89.735	     -23.129	      13.470	      -9.018	    -135.945
	12.000000000	      -1.572	    -149.191	      11.893	      88.301	     -23.129	      12.672	      -8.965	    -136.940
	12.500000000	      -1.577	    -150.792	      11.565	      86.911	     -23.127	      11.847	      -8.906	    -137.998
	13.000000000	      -1.583	    -152.291	      11.247	      85.548	     -23.133	      11.130	      -8.851	    -138.930
	13.500000000	      -1.593	    -153.733	      10.937	      84.236	     -23.157	      10.345	      -8.798	    -139.748
	14.000000000	      -1.603	    -155.098	      10.637	      82.983	     -23.185	       9.792	      -8.742	    -140.408
	14.500000000	      -1.608	    -156.325	      10.345	      81.748	     -23.210	       9.229	      -8.692	    -141.184
	15.000000000	      -1.611	    -157.428	      10.061	      80.570	     -23.231	       8.793	      -8.645	    -141.857
	15.500000000	      -1.615	    -158.526	       9.787	      79.398	     -23.246	       8.401	      -8.589	    -142.387
	16.000000000	      -1.617	    -159.619	       9.520	      78.257	     -23.245	       7.828	      -8.521	    -142.904
	16.500000000	      -1.618	    -160.682	       9.260	      77.130	     -23.277	       7.252	      -8.460	    -143.416
	17.000000000	      -1.617	    -161.677	       9.009	      76.031	     -23.316	       6.791	      -8.406	    -143.876
	17.500000000	      -1.623	    -162.579	       8.759	      74.950	     -23.339	       6.377	      -8.339	    -144.425
	18.000000000	      -1.630	    -163.470	       8.519	      73.893	     -23.386	       5.906	      -8.276	    -144.950
	18.500000000	      -1.630	    -164.342	       8.284	      72.858	     -23.417	       5.470	      -8.207	    -145.347
	19.000000000	      -1.629	    -165.190	       8.052	      71.826	     -23.469	       5.094	      -8.146	    -145.734
	19.500000000	      -1.628	    -165.982	       7.827	      70.832	     -23.544	       4.829	      -8.094	    -146.125
	20.000000000	      -1.632	    -166.714	       7.608	      69.859	     -23.587	       4.801	      -8.041	    -146.469
	20.500000000	      -1.635	    -167.413	       7.398	      68.883	     -23.594	       4.790	      -7.968	    -146.767
	21.000000000	      -1.633	    -168.153	       7.187	      67.908	     -23.608	       4.316	      -7.894	    -147.151
	21.500000000	      -1.626	    -168.856	       6.981	      66.947	     -23.647	       3.978	      -7.826	    -147.451
	22.000000000	      -1.624	    -169.438	       6.778	      66.020	     -23.697	       3.574	      -7.760	    -147.768
	22.500000000	      -1.616	    -170.063	       6.580	      65.055	     -23.731	       3.267	      -7.701	    -148.130
	23.000000000	      -1.616	    -170.691	       6.381	      64.122	     -23.772	       2.947	      -7.632	    -148.560
	23.500000000	      -1.618	    -171.368	       6.186	      63.239	     -23.903	       2.679	      -7.569	    -149.000
	24.000000000	      -1.622	    -171.966	       5.999	      62.373	     -23.991	       2.809	      -7.516	    -149.244
	24.500000000	      -1.615	    -172.398	       5.820	      61.484	     -24.013	       2.981	      -7.457	    -149.380
	25.000000000	      -1.600	    -172.873	       5.641	      60.556	     -23.980	       2.831	      -7.390	    -149.554
	25.500000000	      -1.593	    -173.442	       5.461	      59.683	     -24.064	       2.740	      -7.317	    -149.848
	26.000000000	      -1.597	    -174.100	       5.278	      58.812	     -24.092	       2.542	      -7.227	    -150.228
	26.500000000	      -1.594	    -174.581	       5.104	      57.950	     -24.140	       2.250	      -7.153	    -150.532
	27.000000000	      -1.590	    -175.012	       4.933	      57.116	     -24.212	       1.808	      -7.094	    -150.816
	27.500000000	      -1.597	    -175.408	       4.762	      56.370	     -24.359	       1.884	      -7.061	    -150.921
	28.000000000	      -1.602	    -175.915	       4.604	      55.571	     -24.458	       2.433	      -6.993	    -151.266
	28.500000000	      -1.584	    -176.312	       4.454	      54.700	     -24.414	       2.882	      -6.900	    -151.503
	29.000000000	      -1.572	    -176.745	       4.290	      53.818	     -24.402	       2.661	      -6.836	    -151.829
	29.500000000	      -1.563	    -177.129	       4.130	      52.995	     -24.446	       2.191	      -6.765	    -152.063
	30.000000000	      -1.560	    -177.572	       3.974	      52.233	     -24.532	       2.220	      -6.710	    -152.282
	30.500000000	      -1.559	    -178.030	       3.822	      51.411	     -24.530	       2.145	      -6.643	    -152.583
	31.000000000	      -1.550	    -178.474	       3.668	      50.637	     -24.654	       1.747	      -6.597	    -152.860
	31.500000000	      -1.538	    -178.843	       3.529	      49.891	     -24.738	       2.474	      -6.536	    -153.146
	32.000000000	      -1.537	    -179.206	       3.383	      49.064	     -24.757	       2.822	      -6.466	    -153.327
	32.500000000	      -1.547	    -179.616	       3.237	      48.217	     -24.702	       2.942	      -6.384	    -153.503
	33.000000000	      -1.543	     179.974	       3.092	      47.451	     -24.698	       2.877	      -6.321	    -153.828
	33.500000000	      -1.534	     179.653	       2.944	      46.673	     -24.787	       2.341	      -6.261	    -154.202
	34.000000000	      -1.524	     179.319	       2.801	      45.961	     -24.843	       2.590	      -6.192	    -154.581
	34.500000000	      -1.522	     178.954	       2.651	      45.141	     -24.891	       2.250	      -6.116	    -154.795
	35.000000000	      -1.520	     178.598	       2.511	      44.426	     -24.965	       2.290	      -6.057	    -155.158
	35.500000000	      -1.513	     178.248	       2.392	      43.679	     -25.054	       3.025	      -6.012	    -155.338
	36.000000000	      -1.496	     177.911	       2.261	      42.911	     -25.015	       3.225	      -5.939	    -155.594
	36.500000000	      -1.483	     177.654	       2.122	      42.090	     -24.993	       2.875	      -5.866	    -155.900
	37.000000000	      -1.477	     177.359	       1.984	      41.339	     -25.072	       2.636	      -5.808	    -156.172
	37.500000000	      -1.483	     176.974	       1.845	      40.609	     -25.093	       2.660	      -5.763	    -156.435
	38.000000000	      -1.488	     176.598	       1.703	      39.938	     -25.210	       2.006	      -5.709	    -156.670
	38.500000000	      -1.484	     176.311	       1.568	      39.305	     -25.405	       2.329	      -5.647	    -157.065
	39.000000000	      -1.475	     176.154	       1.452	      38.660	     -25.395	       3.295	      -5.585	    -157.327
	39.500000000	      -1.469	     175.953	       1.336	      37.991	     -25.490	       3.206	      -5.525	    -157.623
	40.000000000	      -1.460	     175.529	       1.222	      37.223	     -25.401	       3.337	      -5.444	    -157.887
	40.500000000	      -1.455	     175.146	       1.098	      36.488	     -25.402	       4.037	      -5.377	    -158.217
	41.000000000	      -1.433	     174.862	       0.978	      35.721	     -25.535	       4.226	      -5.320	    -158.563
	41.500000000	      -1.420	     174.700	       0.858	      35.049	     -25.515	       3.804	      -5.284	    -158.744
	42.000000000	      -1.426	     174.395	       0.737	      34.313	     -25.610	       3.875	      -5.222	    -158.918
	42.500000000	      -1.436	     174.011	       0.612	      33.657	     -25.663	       3.516	      -5.157	    -159.012
	43.000000000	      -1.431	     173.782	       0.508	      33.085	     -25.881	       4.585	      -5.108	    -159.294
	43.500000000	      -1.416	     173.578	       0.390	      32.245	     -25.782	       5.013	      -5.047	    -159.678
	44.000000000	      -1.420	     173.227	       0.264	      31.552	     -25.667	       4.963	      -4.981	    -160.077
	44.500000000	      -1.435	     172.876	       0.134	      30.869	     -25.764	       5.232	      -4.919	    -160.376
	45.000000000	      -1.447	     172.604	       0.016	      30.189	     -25.800	       5.041	      -4.861	    -160.725
	45.500000000	      -1.399	     172.288	      -0.266	      29.724	     -25.982	       3.715	      -4.716	    -161.602
	46.000000000	      -1.383	     172.108	      -0.391	      29.176	     -26.167	       4.219	      -4.674	    -161.958
	46.500000000	      -1.370	     171.774	      -0.490	      28.584	     -26.262	       5.285	      -4.601	    -161.993
	47.000000000	      -1.371	     171.439	      -0.592	      27.903	     -26.252	       6.195	      -4.546	    -162.287
	47.500000000	      -1.363	     171.198	      -0.711	      27.211	     -26.188	       7.009	      -4.502	    -162.444
	48.000000000	      -1.346	     170.913	      -0.833	      26.623	     -26.201	       6.850	      -4.460	    -162.725
	48.500000000	      -1.340	     170.637	      -0.944	      26.053	     -26.256	       6.408	      -4.410	    -163.047
	49.000000000	      -1.354	     170.445	      -1.046	      25.458	     -26.250	       6.022	      -4.346	    -163.172
	49.500000000	      -1.362	     170.212	      -1.146	      24.919	     -26.394	       6.155	      -4.279	    -163.348
	50.000000000	      -1.352	     169.973	      -1.239	      24.432	     -26.513	       7.932	      -4.242	    -163.609
	50.500000000	      -1.324	     169.769	      -1.329	      23.732	     -26.405	       8.412	      -4.201	    -163.972
	51.000000000	      -1.323	     169.464	      -1.438	      23.055	     -26.435	       8.680	      -4.179	    -164.473
	51.500000000	      -1.321	     169.308	      -1.548	      22.381	     -26.297	       8.849	      -4.121	    -164.702
	52.000000000	      -1.301	     169.129	      -1.658	      21.579	     -26.355	       8.396	      -4.075	    -164.978
	52.500000000	      -1.304	     168.763	      -1.768	      21.072	     -26.270	       7.421	      -4.021	    -165.127
	53.000000000	      -1.298	     168.455	      -1.879	      20.346	     -26.350	       7.861	      -3.983	    -165.203
	53.500000000	      -1.295	     168.358	      -1.993	      19.847	     -26.443	       8.022	      -3.913	    -165.528
	54.000000000	      -1.292	     168.059	      -2.089	      19.303	     -26.305	       9.135	      -3.854	    -165.765
	54.500000000	      -1.283	     167.738	      -2.176	      18.769	     -26.469	       8.145	      -3.811	    -166.047
	55.000000000	      -1.288	     167.355	      -2.275	      18.116	     -26.428	       8.941	      -3.769	    -166.245
	55.500000000	      -1.289	     167.071	      -2.367	      17.544	     -26.351	       7.512	      -3.727	    -166.606
	56.000000000	      -1.270	     166.792	      -2.447	      16.906	     -26.249	       8.720	      -3.674	    -167.124
	56.500000000	      -1.283	     166.549	      -2.584	      16.231	     -26.491	       6.196	      -3.653	    -167.519
	57.000000000	      -1.292	     166.449	      -2.685	      15.780	     -26.695	       8.481	      -3.647	    -167.663
	57.500000000	      -1.285	     166.234	      -2.795	      15.217	     -26.675	       7.698	      -3.613	    -168.125
	58.000000000	      -1.265	     166.309	      -2.883	      14.655	     -26.712	       8.321	      -3.564	    -168.374
	58.500000000	      -1.238	     166.091	      -2.966	      14.030	     -26.999	       8.882	      -3.525	    -168.580
	59.000000000	      -1.238	     165.734	      -3.074	      13.348	     -26.821	      10.422	      -3.471	    -168.680
	59.500000000	      -1.247	     165.578	      -3.164	      12.663	     -26.736	      10.053	      -3.414	    -168.979
	60.000000000	      -1.251	     165.371	      -3.243	      12.204	     -26.753	      10.062	      -3.448	    -169.419
	60.500000000	      -1.212	     165.209	      -3.355	      11.749	     -26.995	      10.535	      -3.428	    -169.393
	61.000000000	      -1.170	     164.965	      -3.463	      11.311	     -27.026	      10.482	      -3.390	    -169.708
	61.500000000	      -1.167	     164.754	      -3.557	      10.765	     -26.985	       9.869	      -3.374	    -169.793
	62.000000000	      -1.151	     164.481	      -3.594	      10.224	     -26.980	       9.978	      -3.352	    -169.908
	62.500000000	      -1.160	     164.211	      -3.697	       9.530	     -26.823	      14.022	      -3.340	    -169.993
	63.000000000	      -1.146	     163.782	      -3.758	       9.023	     -26.820	      12.233	      -3.283	    -170.095
	63.500000000	      -1.128	     163.620	      -3.831	       8.386	     -26.633	      12.809	      -3.221	    -170.417
	64.000000000	      -1.131	     163.795	      -3.898	       7.608	     -26.445	      11.969	      -3.148	    -170.312
	64.500000000	      -1.119	     163.744	      -3.963	       6.975	     -26.826	      12.948	      -3.088	    -170.367
	65.000000000	      -1.117	     163.278	      -4.076	       5.948	     -26.616	      10.045	      -3.051	    -170.438
	65.500000000	      -1.120	     162.708	      -4.175	       5.309	     -26.675	      12.749	      -3.026	    -171.318
	66.000000000	      -1.107	     162.348	      -4.286	       4.533	     -26.605	      12.645	      -3.010	    -171.543
	66.500000000	      -1.125	     162.278	      -4.402	       3.781	     -26.311	      15.537	      -2.972	    -171.473
	67.000000000	      -1.184	     161.906	      -4.534	       3.139	     -26.611	      12.468	      -2.949	    -171.425
	67.500000000	      -1.167	     161.243	      -4.680	       2.257	     -26.585	      11.428	      -2.958	    -171.982
	68.000000000	      -1.219	     161.038	      -4.780	       1.645	     -26.588	      11.347	      -2.979	    -172.354
	68.500000000	      -1.261	     160.795	      -4.875	       1.085	     -26.593	      11.078	      -2.939	    -172.520
	69.000000000	      -1.295	     160.646	      -5.007	       0.638	     -26.558	      10.219	      -2.863	    -172.656
	69.500000000	      -1.292	     160.493	      -5.122	       0.179	     -26.690	      10.304	      -2.849	    -172.817
	70.000000000	      -1.270	     160.340	      -5.211	      -0.231	     -26.733	      11.045	      -2.820	    -172.860
	70.500000000	      -1.249	     160.209	      -5.305	      -0.660	     -26.663	      11.015	      -2.777	    -173.031
	71.000000000	      -1.234	     160.084	      -5.386	      -0.994	     -26.651	      10.689	      -2.732	    -173.143
	71.500000000	      -1.201	     160.053	      -5.497	      -1.552	     -26.626	      10.255	      -2.669	    -173.377
	72.000000000	      -1.182	     159.658	      -5.610	      -2.041	     -26.668	       9.745	      -2.671	    -173.677
	72.500000000	      -1.212	     159.219	      -5.712	      -2.761	     -26.686	       8.991	      -2.647	    -173.924
	73.000000000	      -1.244	     159.008	      -5.811	      -3.298	     -26.821	       8.541	      -2.602	    -174.100
	73.500000000	      -1.276	     158.969	      -5.928	      -3.857	     -27.012	       8.717	      -2.538	    -174.338
	74.000000000	      -1.286	     158.699	      -6.034	      -4.271	     -27.116	       9.252	      -2.529	    -174.913
	74.500000000	      -1.322	     158.450	      -6.122	      -4.648	     -27.189	       9.888	      -2.550	    -175.157
	75.000000000	      -1.365	     158.398	      -6.219	      -5.224	     -27.271	      10.090	      -2.542	    -175.260
	75.500000000	      -1.399	     158.452	      -6.344	      -5.746	     -27.443	      11.045	      -2.538	    -175.352
	76.000000000	      -1.418	     158.621	      -6.471	      -6.100	     -27.655	      13.331	      -2.539	    -175.399
	76.500000000	      -1.402	     158.890	      -6.593	      -6.211	     -27.631	      17.225	      -2.523	    -175.295
	77.000000000	      -1.375	     158.829	      -6.673	      -6.302	     -27.131	      20.588	      -2.459	    -175.197
	77.500000000	      -1.288	     158.864	      -6.702	      -6.266	     -26.418	      21.322	      -2.376	    -175.315
	78.000000000	      -1.198	     158.525	      -6.703	      -6.598	     -25.814	      20.107	      -2.332	    -175.444
	78.500000000	      -1.163	     158.042	      -6.736	      -7.373	     -25.452	      17.451	      -2.290	    -175.724
	79.000000000	      -1.193	     157.447	      -6.811	      -8.197	     -25.292	      14.812	      -2.232	    -176.006
	79.500000000	      -1.210	     156.989	      -6.879	      -9.000	     -25.163	      12.451	      -2.185	    -176.198
