!File name = EG0520U_1010_6x60_2SDBCB2EV_1915934D06_RC2943_4Vd_27mA.s2p
!Base file name = EG0520U_1010_6x60_2SDBCB2EV_1915934D06_RC2943
!Date = 8/23/2019
!Time = 1:05 PM
!Test duration(min) = 0.15
!Test = S-Parameters
!MPTS version = 8.91.5
!State File = C:\Data\PNA\20190821205423\S-Parameters_2019-08-23.sta
!Cal File = 
!ComputerName = CMPE-LAB-6
!Comments = 
!Attenuation = 0
!Z0 = 50
!Input Power(dBm) = -13.00
!Device ID = EG0520U_1010_6x60_2SDBCB2EV
!Row = 29
!Column = 43
!Technology = QPHT09
!Lot/Wafer = 1915934D06
!Gate Size = 360
!Mask = EG0520
!Cal Standards = GaAs BCB
!Cal Kit = EG2306
!Job Number = 20190821205423
!Device Type = FET
!set_Vg(v) = -1.500
!set_Vd(v) = 4.000
!set_Vd(mA) = 27.000
!file_name = EG0520U_1010_6x60_2SDBCB2EV_1915934D06_RC2943_4Vd_27mA.s2p
!Vd(V) = 4.000
!Vd(mA) = 27.157
!Vg(V) = -0.588
!Vg(mA) = -0.007
# GHz   S   DB   R   50
!%	Freq(GHz)	     s11(dB)	    s11(deg)	     s21(dB)	    s21(deg)	     s12(dB)	    s12(deg)	     s22(dB)	    s22(deg)
	0.500000000	      -0.090	     -13.771	      21.044	     171.440	     -38.528	      80.542	      -7.519	     -12.980
	1.000000000	      -0.175	     -27.246	      20.680	     163.249	     -32.728	      73.821	      -7.606	     -24.913
	1.500000000	      -0.214	     -40.059	      20.357	     156.187	     -29.537	      66.930	      -7.659	     -36.538
	2.000000000	      -0.352	     -51.756	      20.097	     148.944	     -27.486	      60.340	      -7.776	     -48.007
	2.500000000	      -0.449	     -62.784	      19.684	     142.613	     -26.068	      54.696	      -7.987	     -57.506
	3.000000000	      -0.832	     -70.211	      19.019	     137.356	     -25.239	      50.302	      -8.381	     -61.392
	3.500000000	      -0.950	     -78.930	      18.507	     132.281	     -24.444	      45.894	      -8.535	     -68.835
	4.000000000	      -1.053	     -86.651	      17.977	     127.729	     -23.839	      41.936	      -8.675	     -75.496
	4.500000000	      -1.168	     -93.516	      17.437	     123.477	     -23.380	      38.334	      -8.800	     -81.688
	5.000000000	      -1.246	     -99.709	      16.908	     119.755	     -23.014	      35.221	      -8.921	     -87.006
	5.500000000	      -1.321	    -105.274	      16.397	     116.279	     -22.733	      32.457	      -9.038	     -91.762
	6.000000000	      -1.389	    -110.305	      15.891	     113.115	     -22.497	      29.946	      -9.105	     -95.956
	6.500000000	      -1.441	    -114.771	      15.402	     110.258	     -22.314	      27.667	      -9.165	     -99.723
	7.000000000	      -1.490	    -118.823	      14.929	     107.557	     -22.159	      25.630	      -9.206	    -103.055
	7.500000000	      -1.525	    -122.501	      14.469	     105.076	     -22.041	      23.785	      -9.236	    -106.115
	8.000000000	      -1.542	    -125.593	      14.044	     102.897	     -21.913	      22.257	      -9.268	    -108.123
	8.500000000	      -1.575	    -128.702	      13.617	     100.722	     -21.827	      20.641	      -9.283	    -110.598
	9.000000000	      -1.608	    -131.490	      13.198	      98.679	     -21.757	      19.118	      -9.284	    -112.791
	9.500000000	      -1.631	    -134.100	      12.806	      96.698	     -21.694	      17.725	      -9.274	    -114.779
	10.000000000	      -1.648	    -136.515	      12.424	      94.843	     -21.658	      16.363	      -9.260	    -116.678
	10.500000000	      -1.671	    -138.778	      12.055	      93.034	     -21.633	      15.194	      -9.243	    -118.358
	11.000000000	      -1.685	    -140.849	      11.700	      91.349	     -21.611	      14.065	      -9.219	    -119.894
	11.500000000	      -1.706	    -142.799	      11.350	      89.708	     -21.596	      12.991	      -9.191	    -121.256
	12.000000000	      -1.721	    -144.618	      11.018	      88.148	     -21.595	      12.035	      -9.150	    -122.525
	12.500000000	      -1.730	    -146.300	      10.694	      86.642	     -21.589	      11.162	      -9.103	    -123.794
	13.000000000	      -1.742	    -147.882	      10.379	      85.162	     -21.595	      10.260	      -9.058	    -124.932
	13.500000000	      -1.751	    -149.379	      10.076	      83.761	     -21.598	       9.418	      -9.001	    -125.943
	14.000000000	      -1.760	    -150.821	       9.781	      82.382	     -21.616	       8.625	      -8.942	    -126.819
	14.500000000	      -1.764	    -152.142	       9.494	      81.036	     -21.630	       7.906	      -8.891	    -127.796
	15.000000000	      -1.769	    -153.318	       9.212	      79.749	     -21.654	       7.264	      -8.840	    -128.655
	15.500000000	      -1.777	    -154.491	       8.939	      78.469	     -21.681	       6.625	      -8.779	    -129.389
	16.000000000	      -1.782	    -155.643	       8.673	      77.219	     -21.688	       6.011	      -8.707	    -130.099
	16.500000000	      -1.786	    -156.758	       8.414	      75.988	     -21.714	       5.345	      -8.638	    -130.791
	17.000000000	      -1.787	    -157.802	       8.164	      74.797	     -21.750	       4.772	      -8.577	    -131.414
	17.500000000	      -1.795	    -158.739	       7.914	      73.626	     -21.774	       4.272	      -8.503	    -132.108
	18.000000000	      -1.805	    -159.662	       7.676	      72.487	     -21.817	       3.696	      -8.434	    -132.767
	18.500000000	      -1.804	    -160.576	       7.442	      71.360	     -21.824	       3.144	      -8.350	    -133.336
	19.000000000	      -1.804	    -161.454	       7.211	      70.239	     -21.879	       2.541	      -8.276	    -133.893
	19.500000000	      -1.803	    -162.270	       6.987	      69.166	     -21.947	       2.076	      -8.214	    -134.432
	20.000000000	      -1.810	    -163.035	       6.769	      68.112	     -22.007	       1.895	      -8.151	    -134.888
	20.500000000	      -1.810	    -163.778	       6.560	      67.050	     -22.031	       1.635	      -8.066	    -135.345
	21.000000000	      -1.810	    -164.524	       6.350	      65.998	     -22.035	       1.270	      -7.979	    -135.852
	21.500000000	      -1.803	    -165.258	       6.144	      64.953	     -22.085	       0.837	      -7.901	    -136.304
	22.000000000	      -1.800	    -165.864	       5.942	      63.945	     -22.113	       0.370	      -7.818	    -136.742
	22.500000000	      -1.800	    -166.510	       5.741	      62.916	     -22.152	      -0.130	      -7.746	    -137.233
	23.000000000	      -1.803	    -167.133	       5.542	      61.917	     -22.209	      -0.574	      -7.671	    -137.799
	23.500000000	      -1.802	    -167.774	       5.349	      60.980	     -22.322	      -0.964	      -7.601	    -138.323
	24.000000000	      -1.800	    -168.366	       5.167	      60.051	     -22.401	      -0.886	      -7.531	    -138.672
	24.500000000	      -1.787	    -168.838	       4.990	      59.081	     -22.413	      -0.861	      -7.451	    -138.945
	25.000000000	      -1.772	    -169.329	       4.812	      58.081	     -22.414	      -1.141	      -7.366	    -139.293
	25.500000000	      -1.764	    -169.946	       4.633	      57.131	     -22.456	      -1.582	      -7.281	    -139.726
	26.000000000	      -1.767	    -170.574	       4.452	      56.193	     -22.503	      -1.980	      -7.190	    -140.238
	26.500000000	      -1.765	    -171.072	       4.278	      55.269	     -22.548	      -2.390	      -7.107	    -140.668
	27.000000000	      -1.756	    -171.475	       4.109	      54.370	     -22.625	      -2.752	      -7.038	    -141.056
	27.500000000	      -1.750	    -171.823	       3.949	      53.544	     -22.734	      -2.637	      -6.967	    -141.324
	28.000000000	      -1.739	    -172.385	       3.795	      52.625	     -22.784	      -2.550	      -6.886	    -141.736
	28.500000000	      -1.729	    -172.928	       3.639	      51.630	     -22.788	      -2.590	      -6.796	    -142.162
	29.000000000	      -1.718	    -173.354	       3.474	      50.687	     -22.818	      -3.014	      -6.715	    -142.596
	29.500000000	      -1.710	    -173.793	       3.314	      49.807	     -22.883	      -3.386	      -6.641	    -143.029
	30.000000000	      -1.703	    -174.184	       3.158	      48.971	     -22.948	      -3.585	      -6.574	    -143.384
	30.500000000	      -1.699	    -174.670	       3.006	      48.061	     -22.991	      -4.047	      -6.507	    -143.766
	31.000000000	      -1.685	    -175.130	       2.853	      47.174	     -23.054	      -4.342	      -6.442	    -144.152
	31.500000000	      -1.672	    -175.552	       2.711	      46.397	     -23.155	      -3.897	      -6.375	    -144.528
	32.000000000	      -1.667	    -175.919	       2.564	      45.473	     -23.211	      -3.911	      -6.298	    -144.874
	32.500000000	      -1.676	    -176.344	       2.415	      44.565	     -23.202	      -4.076	      -6.213	    -145.149
	33.000000000	      -1.672	    -176.792	       2.269	      43.731	     -23.261	      -4.027	      -6.138	    -145.531
	33.500000000	      -1.658	    -177.186	       2.120	      42.914	     -23.357	      -4.332	      -6.074	    -145.965
	34.000000000	      -1.644	    -177.538	       1.978	      42.066	     -23.413	      -4.720	      -5.993	    -146.435
	34.500000000	      -1.640	    -177.970	       1.828	      41.124	     -23.474	      -4.764	      -5.909	    -146.813
	35.000000000	      -1.636	    -178.356	       1.680	      40.388	     -23.556	      -4.721	      -5.848	    -147.286
	35.500000000	      -1.633	    -178.749	       1.554	      39.580	     -23.587	      -4.438	      -5.786	    -147.541
	36.000000000	      -1.629	    -179.113	       1.419	      38.691	     -23.587	      -4.436	      -5.710	    -147.898
	36.500000000	      -1.616	    -179.393	       1.281	      37.850	     -23.629	      -4.613	      -5.632	    -148.327
	37.000000000	      -1.613	    -179.703	       1.140	      37.078	     -23.647	      -5.141	      -5.569	    -148.705
	37.500000000	      -1.616	     179.909	       1.001	      36.284	     -23.749	      -5.141	      -5.517	    -149.088
	38.000000000	      -1.613	     179.554	       0.865	      35.532	     -23.867	      -5.340	      -5.445	    -149.399
	38.500000000	      -1.592	     179.183	       0.725	      34.735	     -23.963	      -5.867	      -5.383	    -149.896
	39.000000000	      -1.593	     178.862	       0.593	      34.014	     -24.035	      -5.384	      -5.319	    -150.283
	39.500000000	      -1.603	     178.612	       0.459	      33.318	     -24.079	      -5.344	      -5.250	    -150.674
	40.000000000	      -1.610	     178.259	       0.342	      32.592	     -24.180	      -5.313	      -5.179	    -150.946
	40.500000000	      -1.604	     177.884	       0.216	      31.813	     -24.126	      -5.081	      -5.109	    -151.394
	41.000000000	      -1.587	     177.617	       0.100	      31.029	     -24.192	      -4.901	      -5.036	    -151.850
	41.500000000	      -1.580	     177.410	      -0.020	      30.306	     -24.271	      -4.904	      -4.987	    -152.203
	42.000000000	      -1.585	     177.172	      -0.145	      29.549	     -24.296	      -5.559	      -4.922	    -152.499
	42.500000000	      -1.596	     176.787	      -0.274	      28.863	     -24.423	      -5.146	      -4.863	    -152.690
	43.000000000	      -1.591	     176.581	      -0.382	      28.245	     -24.580	      -4.535	      -4.791	    -153.044
	43.500000000	      -1.580	     176.373	      -0.496	      27.373	     -24.576	      -4.672	      -4.741	    -153.504
	44.000000000	      -1.580	     176.110	      -0.614	      26.648	     -24.550	      -4.432	      -4.670	    -153.936
	44.500000000	      -1.585	     175.753	      -0.739	      25.868	     -24.605	      -4.724	      -4.610	    -154.305
	45.000000000	      -1.584	     175.442	      -0.863	      25.147	     -24.625	      -4.762	      -4.542	    -154.688
	45.500000000	      -1.540	     175.069	      -1.144	      24.519	     -24.847	      -5.212	      -4.418	    -155.782
	46.000000000	      -1.513	     174.767	      -1.272	      23.832	     -24.988	      -5.566	      -4.361	    -156.222
	46.500000000	      -1.509	     174.444	      -1.379	      23.216	     -25.107	      -4.785	      -4.287	    -156.425
	47.000000000	      -1.508	     174.147	      -1.485	      22.537	     -25.153	      -4.801	      -4.222	    -156.708
	47.500000000	      -1.505	     173.849	      -1.604	      21.825	     -25.274	      -3.644	      -4.180	    -156.999
	48.000000000	      -1.482	     173.576	      -1.726	      21.067	     -25.115	      -4.049	      -4.143	    -157.420
	48.500000000	      -1.483	     173.235	      -1.840	      20.457	     -25.141	      -4.135	      -4.063	    -157.717
	49.000000000	      -1.491	     173.081	      -1.958	      19.787	     -25.276	      -4.431	      -4.016	    -158.094
	49.500000000	      -1.502	     172.806	      -2.073	      19.093	     -25.323	      -6.057	      -3.934	    -158.490
	50.000000000	      -1.484	     172.627	      -2.194	      18.504	     -25.523	      -4.133	      -3.908	    -158.824
	50.500000000	      -1.463	     172.304	      -2.293	      17.872	     -25.525	      -3.016	      -3.872	    -159.427
	51.000000000	      -1.457	     172.030	      -2.407	      17.301	     -25.708	      -3.014	      -3.852	    -159.739
	51.500000000	      -1.453	     171.888	      -2.504	      16.676	     -25.509	      -2.642	      -3.812	    -160.109
	52.000000000	      -1.429	     171.624	      -2.621	      15.953	     -25.415	      -2.450	      -3.763	    -160.477
	52.500000000	      -1.428	     171.261	      -2.722	      15.309	     -25.511	      -3.136	      -3.719	    -160.541
	53.000000000	      -1.433	     170.952	      -2.823	      14.650	     -25.584	      -2.909	      -3.673	    -160.695
	53.500000000	      -1.418	     170.801	      -2.942	      14.092	     -25.690	      -2.994	      -3.606	    -161.016
	54.000000000	      -1.412	     170.633	      -3.027	      13.514	     -25.570	      -3.638	      -3.558	    -161.390
	54.500000000	      -1.410	     170.180	      -3.131	      12.937	     -25.831	      -2.557	      -3.499	    -161.704
	55.000000000	      -1.422	     169.782	      -3.227	      12.265	     -25.842	      -1.781	      -3.450	    -162.006
	55.500000000	      -1.419	     169.519	      -3.312	      11.638	     -25.657	      -1.669	      -3.410	    -162.415
	56.000000000	      -1.394	     169.194	      -3.395	      10.915	     -25.677	      -2.408	      -3.365	    -162.939
	56.500000000	      -1.418	     168.948	      -3.494	      10.238	     -25.997	      -1.885	      -3.338	    -163.556
	57.000000000	      -1.417	     168.873	      -3.619	       9.568	     -25.848	      -2.504	      -3.343	    -163.562
	57.500000000	      -1.401	     168.698	      -3.734	       9.127	     -25.837	      -3.898	      -3.277	    -163.987
	58.000000000	      -1.373	     168.612	      -3.814	       8.474	     -26.062	      -1.811	      -3.250	    -164.278
	58.500000000	      -1.349	     168.385	      -3.893	       7.857	     -26.175	      -1.843	      -3.210	    -164.559
	59.000000000	      -1.343	     167.910	      -3.989	       6.998	     -26.203	      -2.744	      -3.146	    -164.985
	59.500000000	      -1.342	     167.903	      -4.092	       6.338	     -26.104	      -1.604	      -3.123	    -165.187
	60.000000000	      -1.356	     167.665	      -4.154	       5.840	     -25.956	      -1.674	      -3.134	    -165.499
	60.500000000	      -1.313	     167.508	      -4.293	       5.138	     -26.311	      -2.172	      -3.110	    -165.711
	61.000000000	      -1.287	     167.205	      -4.399	       4.617	     -26.353	      -2.796	      -3.058	    -165.948
	61.500000000	      -1.283	     166.882	      -4.499	       4.102	     -26.551	      -1.516	      -3.027	    -166.147
	62.000000000	      -1.268	     166.568	      -4.544	       3.360	     -26.368	      -2.187	      -3.001	    -166.311
	62.500000000	      -1.282	     166.236	      -4.639	       2.755	     -26.203	      -0.899	      -3.000	    -166.409
	63.000000000	      -1.263	     165.857	      -4.739	       2.127	     -26.402	       0.457	      -2.921	    -166.577
	63.500000000	      -1.260	     165.653	      -4.806	       1.317	     -26.415	      -1.054	      -2.887	    -166.987
	64.000000000	      -1.255	     165.760	      -4.883	       0.626	     -26.105	      -0.202	      -2.828	    -166.988
	64.500000000	      -1.221	     165.578	      -4.975	      -0.213	     -26.338	      -0.266	      -2.783	    -167.021
	65.000000000	      -1.243	     165.280	      -5.107	      -1.110	     -26.068	      -0.281	      -2.710	    -167.352
	65.500000000	      -1.228	     164.756	      -5.222	      -1.720	     -26.518	      -1.200	      -2.708	    -168.078
	66.000000000	      -1.233	     164.474	      -5.355	      -2.591	     -26.366	       0.090	      -2.655	    -168.490
	66.500000000	      -1.244	     164.314	      -5.436	      -3.374	     -26.386	      -1.341	      -2.632	    -168.551
	67.000000000	      -1.297	     164.048	      -5.592	      -4.251	     -26.315	      -1.576	      -2.616	    -168.694
	67.500000000	      -1.287	     163.302	      -5.719	      -4.795	     -26.384	      -0.367	      -2.605	    -169.180
	68.000000000	      -1.317	     163.158	      -5.832	      -5.389	     -26.358	      -0.439	      -2.633	    -169.530
	68.500000000	      -1.345	     162.955	      -5.927	      -5.927	     -26.374	      -0.494	      -2.599	    -169.637
	69.000000000	      -1.373	     162.774	      -6.062	      -6.553	     -26.423	      -1.430	      -2.542	    -169.890
	69.500000000	      -1.367	     162.568	      -6.195	      -6.892	     -26.545	      -1.546	      -2.518	    -170.103
	70.000000000	      -1.350	     162.420	      -6.294	      -7.381	     -26.591	      -0.611	      -2.490	    -170.242
	70.500000000	      -1.331	     162.242	      -6.402	      -7.785	     -26.523	      -0.346	      -2.457	    -170.435
	71.000000000	      -1.327	     162.046	      -6.482	      -8.179	     -26.521	      -0.433	      -2.433	    -170.561
	71.500000000	      -1.291	     161.832	      -6.577	      -8.723	     -26.481	      -0.674	      -2.357	    -170.876
	72.000000000	      -1.286	     161.605	      -6.703	      -9.243	     -26.487	      -1.281	      -2.360	    -171.149
	72.500000000	      -1.298	     161.217	      -6.800	      -9.903	     -26.488	      -2.054	      -2.339	    -171.428
	73.000000000	      -1.313	     160.961	      -6.897	     -10.432	     -26.611	      -2.395	      -2.298	    -171.619
	73.500000000	      -1.333	     160.910	      -7.016	     -10.999	     -26.779	      -2.373	      -2.225	    -171.931
	74.000000000	      -1.335	     160.681	      -7.123	     -11.423	     -26.829	      -1.830	      -2.225	    -172.473
	74.500000000	      -1.363	     160.438	      -7.208	     -11.924	     -26.844	      -1.653	      -2.235	    -172.739
	75.000000000	      -1.389	     160.354	      -7.315	     -12.504	     -26.915	      -1.701	      -2.211	    -172.844
	75.500000000	      -1.413	     160.344	      -7.432	     -13.087	     -27.051	      -2.086	      -2.212	    -173.062
	76.000000000	      -1.418	     160.384	      -7.561	     -13.647	     -27.349	      -1.702	      -2.222	    -173.243
	76.500000000	      -1.409	     160.493	      -7.715	     -13.983	     -27.675	       0.611	      -2.208	    -173.251
	77.000000000	      -1.384	     160.436	      -7.848	     -14.080	     -27.706	       4.739	      -2.173	    -173.193
	77.500000000	      -1.320	     160.423	      -7.925	     -13.816	     -27.265	       8.450	      -2.100	    -173.228
	78.000000000	      -1.248	     160.212	      -7.949	     -13.821	     -26.675	       9.441	      -2.049	    -173.315
	78.500000000	      -1.179	     159.788	      -7.966	     -14.192	     -26.207	       8.743	      -2.006	    -173.630
	79.000000000	      -1.180	     159.207	      -8.005	     -14.758	     -25.904	       7.395	      -1.959	    -174.014
	79.500000000	      -1.185	     158.699	      -8.033	     -15.442	     -25.596	       5.866	      -1.921	    -174.313
