!File name = EG0520U_1010_6x60_2SDBCB2EV_1915934D06_RC4034_4Vd_36mA.s2p
!Base file name = EG0520U_1010_6x60_2SDBCB2EV_1915934D06_RC4034
!Date = 8/23/2019
!Time = 12:59 PM
!Test duration(min) = 0.15
!Test = S-Parameters
!MPTS version = 8.91.5
!State File = C:\Data\PNA\20190821205423\S-Parameters_2019-08-23.sta
!Cal File = 
!ComputerName = CMPE-LAB-6
!Comments = 
!Attenuation = 0
!Z0 = 50
!Input Power(dBm) = -13.00
!Device ID = EG0520U_1010_6x60_2SDBCB2EV
!Row = 40
!Column = 34
!Technology = QPHT09
!Lot/Wafer = 1915934D06
!Gate Size = 360
!Mask = EG0520
!Cal Standards = GaAs BCB
!Cal Kit = EG2306
!Job Number = 20190821205423
!Device Type = FET
!set_Vg(v) = -1.500
!set_Vd(v) = 4.000
!set_Vd(mA) = 36.000
!file_name = EG0520U_1010_6x60_2SDBCB2EV_1915934D06_RC4034_4Vd_36mA.s2p
!Vd(V) = 4.000
!Vd(mA) = 36.144
!Vg(V) = -0.551
!Vg(mA) = -0.005
# GHz   S   DB   R   50
!%	Freq(GHz)	     s11(dB)	    s11(deg)	     s21(dB)	    s21(deg)	     s12(dB)	    s12(deg)	     s22(dB)	    s22(deg)
	0.500000000	      -0.085	     -14.458	      21.738	     171.101	     -38.968	      80.683	      -8.176	     -14.140
	1.000000000	      -0.171	     -28.569	      21.327	     162.717	     -33.185	      73.476	      -8.248	     -27.024
	1.500000000	      -0.210	     -41.913	      20.975	     155.351	     -30.019	      66.362	      -8.265	     -39.483
	2.000000000	      -0.346	     -54.006	      20.710	     148.048	     -27.996	      59.649	      -8.341	     -51.663
	2.500000000	      -0.443	     -65.292	      20.266	     141.624	     -26.605	      53.894	      -8.510	     -61.645
	3.000000000	      -0.828	     -72.879	      19.584	     136.401	     -25.793	      49.538	      -8.908	     -65.691
	3.500000000	      -0.944	     -81.662	      19.036	     131.313	     -25.025	      45.110	      -9.022	     -73.389
	4.000000000	      -1.042	     -89.419	      18.480	     126.780	     -24.444	      41.184	      -9.123	     -80.213
	4.500000000	      -1.147	     -96.300	      17.924	     122.598	     -24.007	      37.663	      -9.211	     -86.463
	5.000000000	      -1.221	    -102.440	      17.375	     118.924	     -23.659	      34.618	      -9.292	     -91.782
	5.500000000	      -1.290	    -107.956	      16.847	     115.508	     -23.393	      31.918	      -9.372	     -96.505
	6.000000000	      -1.351	    -112.896	      16.325	     112.426	     -23.169	      29.468	      -9.407	    -100.631
	6.500000000	      -1.399	    -117.286	      15.825	     109.630	     -22.992	      27.298	      -9.437	    -104.302
	7.000000000	      -1.442	    -121.261	      15.343	     107.001	     -22.851	      25.299	      -9.453	    -107.569
	7.500000000	      -1.473	    -124.846	      14.874	     104.589	     -22.735	      23.542	      -9.458	    -110.476
	8.000000000	      -1.484	    -127.865	      14.443	     102.473	     -22.615	      22.065	      -9.476	    -112.374
	8.500000000	      -1.514	    -130.899	      14.008	     100.364	     -22.537	      20.518	      -9.475	    -114.726
	9.000000000	      -1.543	    -133.618	      13.585	      98.385	     -22.470	      19.057	      -9.461	    -116.796
	9.500000000	      -1.562	    -136.155	      13.188	      96.468	     -22.419	      17.744	      -9.437	    -118.659
	10.000000000	      -1.577	    -138.497	      12.801	      94.674	     -22.385	      16.479	      -9.415	    -120.406
	10.500000000	      -1.597	    -140.690	      12.429	      92.929	     -22.364	      15.374	      -9.389	    -121.999
	11.000000000	      -1.609	    -142.691	      12.070	      91.301	     -22.345	      14.332	      -9.352	    -123.387
	11.500000000	      -1.627	    -144.579	      11.719	      89.717	     -22.340	      13.358	      -9.317	    -124.634
	12.000000000	      -1.640	    -146.338	      11.385	      88.212	     -22.333	      12.483	      -9.268	    -125.777
	12.500000000	      -1.647	    -147.970	      11.059	      86.754	     -22.323	      11.641	      -9.213	    -126.966
	13.000000000	      -1.655	    -149.493	      10.744	      85.329	     -22.325	      10.829	      -9.162	    -127.987
	13.500000000	      -1.661	    -150.968	      10.439	      83.964	     -22.336	       9.990	      -9.103	    -128.911
	14.000000000	      -1.673	    -152.368	      10.141	      82.633	     -22.361	       9.308	      -9.041	    -129.682
	14.500000000	      -1.677	    -153.622	       9.853	      81.341	     -22.380	       8.639	      -8.987	    -130.547
	15.000000000	      -1.681	    -154.761	       9.571	      80.092	     -22.397	       8.042	      -8.931	    -131.311
	15.500000000	      -1.685	    -155.894	       9.298	      78.856	     -22.410	       7.523	      -8.867	    -131.968
	16.000000000	      -1.690	    -157.024	       9.032	      77.647	     -22.430	       6.869	      -8.794	    -132.594
	16.500000000	      -1.693	    -158.098	       8.772	      76.459	     -22.457	       6.303	      -8.725	    -133.193
	17.000000000	      -1.692	    -159.115	       8.522	      75.305	     -22.495	       5.751	      -8.664	    -133.738
	17.500000000	      -1.700	    -160.033	       8.272	      74.169	     -22.521	       5.300	      -8.591	    -134.363
	18.000000000	      -1.708	    -160.932	       8.033	      73.066	     -22.558	       4.754	      -8.521	    -134.955
	18.500000000	      -1.708	    -161.810	       7.799	      71.981	     -22.584	       4.293	      -8.441	    -135.435
	19.000000000	      -1.706	    -162.656	       7.569	      70.903	     -22.630	       3.788	      -8.366	    -135.910
	19.500000000	      -1.703	    -163.456	       7.346	      69.857	     -22.691	       3.383	      -8.301	    -136.374
	20.000000000	      -1.710	    -164.221	       7.127	      68.830	     -22.766	       3.140	      -8.243	    -136.792
	20.500000000	      -1.713	    -164.937	       6.917	      67.808	     -22.796	       3.025	      -8.162	    -137.150
	21.000000000	      -1.712	    -165.628	       6.708	      66.791	     -22.817	       2.773	      -8.078	    -137.580
	21.500000000	      -1.702	    -166.368	       6.504	      65.770	     -22.841	       2.467	      -7.993	    -137.945
	22.000000000	      -1.694	    -166.974	       6.304	      64.785	     -22.866	       2.020	      -7.912	    -138.329
	22.500000000	      -1.691	    -167.635	       6.103	      63.774	     -22.892	       1.633	      -7.843	    -138.755
	23.000000000	      -1.692	    -168.286	       5.904	      62.804	     -22.951	       1.135	      -7.767	    -139.237
	23.500000000	      -1.693	    -168.936	       5.710	      61.868	     -23.049	       0.659	      -7.698	    -139.750
	24.000000000	      -1.700	    -169.548	       5.522	      60.967	     -23.154	       0.726	      -7.641	    -140.035
	24.500000000	      -1.691	    -170.026	       5.345	      60.043	     -23.172	       0.748	      -7.562	    -140.194
	25.000000000	      -1.678	    -170.501	       5.166	      59.072	     -23.162	       0.640	      -7.474	    -140.477
	25.500000000	      -1.677	    -171.075	       4.986	      58.154	     -23.223	       0.328	      -7.391	    -140.842
	26.000000000	      -1.681	    -171.683	       4.805	      57.257	     -23.259	      -0.188	      -7.303	    -141.303
	26.500000000	      -1.676	    -172.170	       4.633	      56.357	     -23.296	      -0.339	      -7.216	    -141.697
	27.000000000	      -1.670	    -172.585	       4.463	      55.475	     -23.380	      -0.670	      -7.147	    -142.049
	27.500000000	      -1.673	    -172.986	       4.296	      54.683	     -23.530	      -0.592	      -7.093	    -142.201
	28.000000000	      -1.672	    -173.484	       4.139	      53.834	     -23.614	      -0.385	      -7.022	    -142.574
	28.500000000	      -1.651	    -173.939	       3.995	      52.881	     -23.550	       0.010	      -6.919	    -142.935
	29.000000000	      -1.642	    -174.429	       3.826	      51.939	     -23.573	      -0.350	      -6.837	    -143.344
	29.500000000	      -1.640	    -174.826	       3.664	      51.089	     -23.648	      -0.667	      -6.761	    -143.693
	30.000000000	      -1.640	    -175.265	       3.505	      50.285	     -23.727	      -0.947	      -6.699	    -143.996
	30.500000000	      -1.639	    -175.694	       3.353	      49.440	     -23.731	      -1.127	      -6.633	    -144.366
	31.000000000	      -1.631	    -176.138	       3.202	      48.639	     -23.849	      -1.182	      -6.567	    -144.669
	31.500000000	      -1.614	    -176.511	       3.065	      47.844	     -23.906	      -0.621	      -6.498	    -144.998
	32.000000000	      -1.608	    -176.882	       2.923	      46.969	     -23.955	      -0.409	      -6.419	    -145.258
	32.500000000	      -1.615	    -177.274	       2.776	      46.042	     -23.911	      -0.798	      -6.331	    -145.558
	33.000000000	      -1.613	    -177.736	       2.629	      45.251	     -23.942	      -0.970	      -6.267	    -145.920
	33.500000000	      -1.600	    -178.132	       2.481	      44.457	     -24.030	      -1.144	      -6.198	    -146.315
	34.000000000	      -1.593	    -178.497	       2.334	      43.629	     -24.102	      -1.318	      -6.127	    -146.733
	34.500000000	      -1.596	    -178.888	       2.183	      42.807	     -24.171	      -1.702	      -6.039	    -147.011
	35.000000000	      -1.597	    -179.232	       2.041	      42.032	     -24.269	      -1.706	      -5.979	    -147.464
	35.500000000	      -1.589	    -179.566	       1.922	      41.270	     -24.308	      -0.898	      -5.925	    -147.700
	36.000000000	      -1.585	    -179.913	       1.790	      40.449	     -24.287	      -0.787	      -5.845	    -147.981
	36.500000000	      -1.571	     179.814	       1.653	      39.693	     -24.314	      -1.235	      -5.768	    -148.377
	37.000000000	      -1.571	     179.544	       1.519	      38.873	     -24.375	      -1.502	      -5.700	    -148.731
	37.500000000	      -1.570	     179.186	       1.383	      38.120	     -24.488	      -1.756	      -5.651	    -149.076
	38.000000000	      -1.566	     178.865	       1.250	      37.375	     -24.521	      -1.858	      -5.585	    -149.349
	38.500000000	      -1.554	     178.498	       1.115	      36.638	     -24.584	      -1.731	      -5.513	    -149.844
	39.000000000	      -1.549	     178.256	       0.992	      35.940	     -24.644	      -1.272	      -5.451	    -150.211
	39.500000000	      -1.542	     178.091	       0.874	      35.254	     -24.774	      -0.931	      -5.383	    -150.541
	40.000000000	      -1.526	     177.662	       0.762	      34.418	     -24.769	      -0.905	      -5.310	    -150.895
	40.500000000	      -1.520	     177.226	       0.632	      33.630	     -24.797	      -0.970	      -5.240	    -151.263
	41.000000000	      -1.507	     176.899	       0.505	      32.830	     -24.857	      -0.831	      -5.191	    -151.753
	41.500000000	      -1.500	     176.670	       0.384	      32.141	     -24.954	      -1.498	      -5.154	    -151.930
	42.000000000	      -1.503	     176.373	       0.266	      31.413	     -24.960	      -1.230	      -5.071	    -152.166
	42.500000000	      -1.515	     176.011	       0.141	      30.682	     -25.011	      -1.085	      -5.007	    -152.286
	43.000000000	      -1.509	     175.773	       0.035	      30.070	     -25.196	      -0.142	      -4.940	    -152.655
	43.500000000	      -1.494	     175.525	      -0.083	      29.232	     -25.128	      -0.514	      -4.887	    -153.130
	44.000000000	      -1.493	     175.262	      -0.204	      28.457	     -25.200	      -0.371	      -4.806	    -153.529
	44.500000000	      -1.506	     174.833	      -0.335	      27.755	     -25.216	      -0.188	      -4.745	    -153.885
	45.000000000	      -1.523	     174.542	      -0.451	      27.035	     -25.128	      -0.480	      -4.689	    -154.294
	45.500000000	      -1.474	     174.176	      -0.735	      26.428	     -25.372	      -0.606	      -4.563	    -155.350
	46.000000000	      -1.451	     173.968	      -0.859	      25.780	     -25.527	      -0.775	      -4.511	    -155.699
	46.500000000	      -1.443	     173.629	      -0.960	      25.171	     -25.581	      -0.056	      -4.435	    -155.924
	47.000000000	      -1.439	     173.254	      -1.063	      24.450	     -25.748	       0.035	      -4.368	    -156.196
	47.500000000	      -1.436	     172.958	      -1.185	      23.779	     -25.766	       1.328	      -4.314	    -156.492
	48.000000000	      -1.416	     172.715	      -1.296	      23.027	     -25.621	       0.573	      -4.269	    -156.769
	48.500000000	      -1.415	     172.366	      -1.416	      22.338	     -25.692	       1.313	      -4.224	    -157.097
	49.000000000	      -1.428	     172.166	      -1.530	      21.703	     -25.785	      -0.011	      -4.149	    -157.396
	49.500000000	      -1.431	     171.917	      -1.643	      21.128	     -25.848	       0.300	      -4.086	    -157.976
	50.000000000	      -1.416	     171.672	      -1.763	      20.510	     -26.019	       0.049	      -4.047	    -158.140
	50.500000000	      -1.406	     171.371	      -1.855	      19.876	     -26.124	       1.325	      -4.026	    -158.664
	51.000000000	      -1.402	     171.100	      -1.984	      19.250	     -26.125	       2.415	      -4.019	    -159.020
	51.500000000	      -1.399	     170.937	      -2.087	      18.533	     -25.952	       2.528	      -3.948	    -159.480
	52.000000000	      -1.374	     170.740	      -2.191	      17.914	     -26.001	       2.614	      -3.919	    -159.795
	52.500000000	      -1.378	     170.368	      -2.299	      17.351	     -26.019	       2.468	      -3.878	    -159.840
	53.000000000	      -1.367	     170.043	      -2.405	      16.680	     -26.092	       2.772	      -3.833	    -160.055
	53.500000000	      -1.367	     169.895	      -2.508	      16.138	     -26.102	       1.524	      -3.764	    -160.341
	54.000000000	      -1.353	     169.627	      -2.601	      15.541	     -26.162	       3.049	      -3.698	    -160.707
	54.500000000	      -1.350	     169.232	      -2.683	      14.946	     -26.122	       2.648	      -3.658	    -160.948
	55.000000000	      -1.365	     168.858	      -2.786	      14.279	     -26.057	       2.938	      -3.616	    -161.161
	55.500000000	      -1.354	     168.585	      -2.886	      13.653	     -26.141	       2.271	      -3.562	    -161.528
	56.000000000	      -1.338	     168.287	      -2.954	      12.964	     -26.227	       2.153	      -3.537	    -162.056
	56.500000000	      -1.360	     168.150	      -3.083	      12.151	     -26.014	       0.837	      -3.502	    -162.575
	57.000000000	      -1.338	     167.845	      -3.183	      11.712	     -26.246	       2.919	      -3.469	    -162.576
	57.500000000	      -1.336	     167.689	      -3.299	      11.018	     -26.378	       2.875	      -3.409	    -163.020
	58.000000000	      -1.326	     167.564	      -3.374	      10.473	     -26.628	       2.954	      -3.390	    -163.360
	58.500000000	      -1.317	     167.273	      -3.473	       9.862	     -26.354	       3.349	      -3.340	    -163.620
	59.000000000	      -1.308	     166.965	      -3.552	       9.087	     -26.439	       3.751	      -3.282	    -163.841
	59.500000000	      -1.329	     166.795	      -3.643	       8.427	     -26.575	       3.580	      -3.225	    -164.341
	60.000000000	      -1.310	     166.579	      -3.750	       7.844	     -26.634	       4.007	      -3.255	    -164.590
	60.500000000	      -1.281	     166.385	      -3.852	       7.138	     -26.635	       2.625	      -3.245	    -164.706
	61.000000000	      -1.257	     166.075	      -3.939	       6.684	     -26.926	       4.222	      -3.199	    -164.938
	61.500000000	      -1.248	     165.829	      -4.050	       6.154	     -26.648	       3.897	      -3.174	    -165.170
	62.000000000	      -1.225	     165.496	      -4.117	       5.485	     -26.569	       6.120	      -3.136	    -165.360
	62.500000000	      -1.253	     165.201	      -4.185	       4.783	     -26.589	       5.350	      -3.112	    -165.451
	63.000000000	      -1.220	     164.744	      -4.280	       4.324	     -26.775	       6.528	      -3.072	    -165.470
	63.500000000	      -1.222	     164.587	      -4.365	       3.401	     -26.664	       5.978	      -3.007	    -165.998
	64.000000000	      -1.215	     164.639	      -4.421	       2.628	     -26.735	       6.280	      -2.925	    -166.048
	64.500000000	      -1.187	     164.401	      -4.524	       1.741	     -26.373	       6.065	      -2.885	    -166.003
	65.000000000	      -1.214	     163.999	      -4.643	       0.939	     -26.433	       7.039	      -2.829	    -166.347
	65.500000000	      -1.210	     163.649	      -4.754	       0.060	     -26.448	       5.081	      -2.818	    -167.113
	66.000000000	      -1.199	     163.381	      -4.871	      -0.720	     -27.073	       6.183	      -2.778	    -167.734
	66.500000000	      -1.212	     163.131	      -4.994	      -1.465	     -26.464	       6.226	      -2.720	    -167.576
	67.000000000	      -1.264	     162.812	      -5.118	      -1.928	     -26.632	       4.923	      -2.754	    -167.585
	67.500000000	      -1.257	     162.146	      -5.272	      -2.888	     -26.489	       5.143	      -2.732	    -168.150
	68.000000000	      -1.288	     161.944	      -5.381	      -3.485	     -26.460	       4.635	      -2.747	    -168.541
	68.500000000	      -1.314	     161.733	      -5.478	      -4.048	     -26.447	       4.392	      -2.706	    -168.647
	69.000000000	      -1.338	     161.521	      -5.613	      -4.583	     -26.522	       4.288	      -2.640	    -168.974
	69.500000000	      -1.336	     161.296	      -5.735	      -5.027	     -26.576	       3.775	      -2.625	    -169.158
	70.000000000	      -1.325	     161.095	      -5.835	      -5.520	     -26.643	       4.500	      -2.595	    -169.291
	70.500000000	      -1.314	     160.892	      -5.941	      -6.019	     -26.591	       4.598	      -2.562	    -169.474
	71.000000000	      -1.314	     160.670	      -6.035	      -6.319	     -26.578	       4.073	      -2.531	    -169.621
	71.500000000	      -1.284	     160.448	      -6.162	      -6.975	     -26.564	       3.816	      -2.450	    -169.910
	72.000000000	      -1.286	     160.205	      -6.260	      -7.516	     -26.568	       3.040	      -2.458	    -170.140
	72.500000000	      -1.310	     159.826	      -6.359	      -8.218	     -26.648	       2.085	      -2.440	    -170.428
	73.000000000	      -1.330	     159.611	      -6.475	      -8.807	     -26.811	       1.509	      -2.398	    -170.632
	73.500000000	      -1.352	     159.536	      -6.598	      -9.313	     -27.007	       1.944	      -2.339	    -170.974
	74.000000000	      -1.360	     159.286	      -6.705	      -9.796	     -27.076	       2.546	      -2.331	    -171.534
	74.500000000	      -1.385	     159.089	      -6.809	     -10.222	     -27.175	       2.838	      -2.349	    -171.784
	75.000000000	      -1.415	     158.994	      -6.913	     -10.716	     -27.260	       3.195	      -2.341	    -171.921
	75.500000000	      -1.444	     158.966	      -7.047	     -11.235	     -27.500	       3.906	      -2.328	    -172.078
	76.000000000	      -1.457	     159.023	      -7.173	     -11.613	     -27.748	       5.940	      -2.333	    -172.194
	76.500000000	      -1.455	     159.183	      -7.306	     -11.783	     -27.818	      10.060	      -2.320	    -172.101
	77.000000000	      -1.430	     159.269	      -7.399	     -11.801	     -27.397	      13.913	      -2.262	    -172.039
	77.500000000	      -1.360	     159.142	      -7.428	     -11.819	     -26.676	      15.032	      -2.178	    -172.168
	78.000000000	      -1.276	     158.924	      -7.448	     -12.073	     -26.133	      14.201	      -2.143	    -172.350
	78.500000000	      -1.227	     158.430	      -7.490	     -12.707	     -25.802	      12.305	      -2.096	    -172.659
	79.000000000	      -1.223	     157.808	      -7.543	     -13.297	     -25.589	      10.505	      -2.042	    -173.002
	79.500000000	      -1.254	     157.225	      -7.579	     -14.133	     -25.311	       8.727	      -2.005	    -173.267
