!File name = EG0520U_1010_6x60_2SDBCB2EV_1915934D06_RC2952_2.5Vd_54mA.s2p
!Base file name = EG0520U_1010_6x60_2SDBCB2EV_1915934D06_RC2952
!Date = 8/23/2019
!Time = 1:14 PM
!Test duration(min) = 0.15
!Test = S-Parameters
!MPTS version = 8.91.5
!State File = C:\Data\PNA\20190821205423\S-Parameters_2019-08-23.sta
!Cal File = 
!ComputerName = CMPE-LAB-6
!Comments = 
!Attenuation = 0
!Z0 = 50
!Input Power(dBm) = -13.00
!Device ID = EG0520U_1010_6x60_2SDBCB2EV
!Row = 29
!Column = 52
!Technology = QPHT09
!Lot/Wafer = 1915934D06
!Gate Size = 360
!Mask = EG0520
!Cal Standards = GaAs BCB
!Cal Kit = EG2306
!Job Number = 20190821205423
!Device Type = FET
!set_Vg(v) = -1.500
!set_Vd(v) = 2.500
!set_Vd(mA) = 54.000
!file_name = EG0520U_1010_6x60_2SDBCB2EV_1915934D06_RC2952_2.5Vd_54mA.s2p
!Vd(V) = 2.500
!Vd(mA) = 54.172
!Vg(V) = -0.407
!Vg(mA) = -0.000
# GHz   S   DB   R   50
!%	Freq(GHz)	     s11(dB)	    s11(deg)	     s21(dB)	    s21(deg)	     s12(dB)	    s12(deg)	     s22(dB)	    s22(deg)
	0.500000000	      -0.029	     -15.264	      22.611	     170.786	     -39.196	      81.301	     -10.823	     -19.669
	1.000000000	      -0.116	     -30.159	      22.139	     162.027	     -33.445	      73.292	     -10.627	     -37.222
	1.500000000	      -0.161	     -44.134	      21.758	     154.480	     -30.323	      65.663	     -10.232	     -53.245
	2.000000000	      -0.310	     -56.746	      21.471	     147.009	     -28.347	      58.729	      -9.853	     -68.136
	2.500000000	      -0.410	     -68.377	      21.011	     140.510	     -27.001	      52.858	      -9.647	     -79.692
	3.000000000	      -0.809	     -76.167	      20.305	     135.457	     -26.196	      48.536	      -9.932	     -84.736
	3.500000000	      -0.927	     -85.072	      19.720	     130.357	     -25.469	      44.109	      -9.733	     -93.057
	4.000000000	      -1.021	     -92.886	      19.134	     125.930	     -24.921	      40.244	      -9.555	    -100.128
	4.500000000	      -1.120	     -99.805	      18.555	     121.822	     -24.504	      36.800	      -9.397	    -106.413
	5.000000000	      -1.192	    -105.917	      17.985	     118.246	     -24.185	      33.793	      -9.282	    -111.630
	5.500000000	      -1.258	    -111.410	      17.436	     114.937	     -23.929	      31.217	      -9.190	    -116.190
	6.000000000	      -1.313	    -116.281	      16.897	     111.967	     -23.719	      28.847	      -9.088	    -120.006
	6.500000000	      -1.359	    -120.617	      16.383	     109.284	     -23.559	      26.735	      -9.004	    -123.400
	7.000000000	      -1.397	    -124.519	      15.889	     106.778	     -23.426	      24.867	      -8.927	    -126.315
	7.500000000	      -1.425	    -128.055	      15.410	     104.470	     -23.324	      23.178	      -8.856	    -128.962
	8.000000000	      -1.435	    -131.019	      14.972	     102.459	     -23.208	      21.812	      -8.839	    -130.672
	8.500000000	      -1.461	    -133.989	      14.529	     100.461	     -23.134	      20.354	      -8.783	    -132.769
	9.000000000	      -1.489	    -136.650	      14.100	      98.599	     -23.075	      18.980	      -8.725	    -134.604
	9.500000000	      -1.504	    -139.137	      13.696	      96.791	     -23.029	      17.674	      -8.670	    -136.254
	10.000000000	      -1.518	    -141.444	      13.305	      95.088	     -23.010	      16.476	      -8.623	    -137.857
	10.500000000	      -1.540	    -143.593	      12.926	      93.448	     -23.001	      15.547	      -8.584	    -139.214
	11.000000000	      -1.551	    -145.533	      12.564	      91.929	     -22.974	      14.621	      -8.537	    -140.396
	11.500000000	      -1.566	    -147.381	      12.211	      90.451	     -22.970	      13.723	      -8.493	    -141.482
	12.000000000	      -1.577	    -149.095	      11.873	      89.047	     -22.968	      12.941	      -8.440	    -142.428
	12.500000000	      -1.581	    -150.707	      11.545	      87.678	     -22.969	      12.126	      -8.382	    -143.436
	13.000000000	      -1.589	    -152.209	      11.228	      86.344	     -22.966	      11.403	      -8.331	    -144.332
	13.500000000	      -1.599	    -153.652	      10.919	      85.071	     -22.987	      10.660	      -8.279	    -145.070
	14.000000000	      -1.610	    -155.020	      10.619	      83.839	     -23.016	      10.060	      -8.230	    -145.744
	14.500000000	      -1.614	    -156.253	      10.328	      82.628	     -23.039	       9.541	      -8.185	    -146.495
	15.000000000	      -1.617	    -157.356	      10.045	      81.475	     -23.058	       9.115	      -8.145	    -147.153
	15.500000000	      -1.622	    -158.458	       9.772	      80.333	     -23.064	       8.682	      -8.095	    -147.665
	16.000000000	      -1.624	    -159.559	       9.506	      79.215	     -23.065	       8.122	      -8.036	    -148.159
	16.500000000	      -1.625	    -160.628	       9.247	      78.118	     -23.091	       7.557	      -7.985	    -148.612
	17.000000000	      -1.624	    -161.624	       8.996	      77.045	     -23.131	       7.085	      -7.936	    -149.105
	17.500000000	      -1.631	    -162.532	       8.747	      75.988	     -23.152	       6.703	      -7.879	    -149.624
	18.000000000	      -1.638	    -163.425	       8.507	      74.958	     -23.200	       6.221	      -7.824	    -150.120
	18.500000000	      -1.638	    -164.296	       8.273	      73.949	     -23.218	       5.817	      -7.764	    -150.495
	19.000000000	      -1.637	    -165.151	       8.041	      72.947	     -23.272	       5.390	      -7.714	    -150.870
	19.500000000	      -1.636	    -165.949	       7.817	      71.977	     -23.343	       5.200	      -7.671	    -151.249
	20.000000000	      -1.641	    -166.681	       7.600	      71.032	     -23.381	       5.136	      -7.626	    -151.579
	20.500000000	      -1.644	    -167.391	       7.390	      70.080	     -23.385	       5.067	      -7.563	    -151.855
	21.000000000	      -1.645	    -168.100	       7.180	      69.140	     -23.400	       4.671	      -7.501	    -152.226
	21.500000000	      -1.635	    -168.835	       6.974	      68.208	     -23.438	       4.324	      -7.443	    -152.493
	22.000000000	      -1.633	    -169.420	       6.773	      67.308	     -23.485	       3.930	      -7.388	    -152.799
	22.500000000	      -1.626	    -170.045	       6.575	      66.372	     -23.506	       3.617	      -7.336	    -153.128
	23.000000000	      -1.626	    -170.671	       6.378	      65.464	     -23.557	       3.310	      -7.275	    -153.536
	23.500000000	      -1.629	    -171.351	       6.184	      64.608	     -23.673	       3.032	      -7.223	    -153.947
	24.000000000	      -1.633	    -171.957	       5.998	      63.761	     -23.761	       3.237	      -7.182	    -154.183
	24.500000000	      -1.625	    -172.401	       5.821	      62.886	     -23.760	       3.294	      -7.133	    -154.300
	25.000000000	      -1.609	    -172.862	       5.644	      61.999	     -23.779	       3.223	      -7.080	    -154.469
	25.500000000	      -1.604	    -173.425	       5.463	      61.146	     -23.812	       2.927	      -7.015	    -154.725
	26.000000000	      -1.608	    -174.099	       5.284	      60.307	     -23.846	       2.787	      -6.936	    -155.037
	26.500000000	      -1.606	    -174.603	       5.109	      59.467	     -23.880	       2.469	      -6.872	    -155.302
	27.000000000	      -1.601	    -175.001	       4.938	      58.667	     -23.956	       2.149	      -6.824	    -155.536
	27.500000000	      -1.609	    -175.417	       4.769	      57.934	     -24.095	       2.386	      -6.791	    -155.760
	28.000000000	      -1.614	    -175.903	       4.612	      57.173	     -24.169	       2.606	      -6.736	    -155.999
	28.500000000	      -1.599	    -176.312	       4.464	      56.314	     -24.123	       2.999	      -6.657	    -156.197
	29.000000000	      -1.584	    -176.751	       4.301	      55.468	     -24.127	       2.932	      -6.604	    -156.458
	29.500000000	      -1.577	    -177.140	       4.145	      54.670	     -24.150	       2.688	      -6.541	    -156.697
	30.000000000	      -1.573	    -177.575	       3.989	      53.938	     -24.220	       2.413	      -6.491	    -156.898
	30.500000000	      -1.573	    -178.036	       3.839	      53.136	     -24.259	       2.475	      -6.436	    -157.143
	31.000000000	      -1.566	    -178.479	       3.685	      52.396	     -24.333	       2.239	      -6.387	    -157.413
	31.500000000	      -1.552	    -178.858	       3.549	      51.667	     -24.436	       2.736	      -6.338	    -157.685
	32.000000000	      -1.553	    -179.205	       3.404	      50.872	     -24.441	       3.137	      -6.283	    -157.818
	32.500000000	      -1.563	    -179.568	       3.259	      50.045	     -24.402	       3.180	      -6.209	    -157.951
	33.000000000	      -1.561	     179.972	       3.113	      49.305	     -24.432	       3.005	      -6.156	    -158.246
	33.500000000	      -1.548	     179.610	       2.967	      48.592	     -24.482	       2.821	      -6.102	    -158.561
	34.000000000	      -1.541	     179.305	       2.824	      47.858	     -24.491	       2.783	      -6.040	    -158.903
	34.500000000	      -1.537	     178.958	       2.678	      47.066	     -24.569	       2.067	      -5.969	    -159.083
	35.000000000	      -1.536	     178.597	       2.539	      46.382	     -24.671	       2.401	      -5.916	    -159.452
	35.500000000	      -1.529	     178.254	       2.421	      45.653	     -24.696	       3.053	      -5.884	    -159.585
	36.000000000	      -1.514	     177.931	       2.293	      44.877	     -24.643	       3.002	      -5.814	    -159.774
	36.500000000	      -1.501	     177.654	       2.154	      44.106	     -24.677	       2.669	      -5.752	    -160.067
	37.000000000	      -1.498	     177.366	       2.019	      43.374	     -24.718	       2.363	      -5.701	    -160.305
	37.500000000	      -1.503	     176.964	       1.883	      42.677	     -24.788	       2.558	      -5.664	    -160.560
	38.000000000	      -1.510	     176.599	       1.742	      42.032	     -24.897	       1.761	      -5.615	    -160.780
	38.500000000	      -1.503	     176.321	       1.607	      41.442	     -25.026	       2.277	      -5.552	    -161.082
	39.000000000	      -1.490	     176.151	       1.496	      40.815	     -25.061	       2.762	      -5.494	    -161.327
	39.500000000	      -1.492	     175.939	       1.378	      40.168	     -25.048	       3.172	      -5.435	    -161.586
	40.000000000	      -1.478	     175.527	       1.268	      39.407	     -25.061	       3.678	      -5.368	    -161.810
	40.500000000	      -1.478	     175.142	       1.143	      38.715	     -25.142	       3.913	      -5.307	    -162.067
	41.000000000	      -1.452	     174.889	       1.023	      37.991	     -25.088	       3.707	      -5.266	    -162.491
	41.500000000	      -1.444	     174.713	       0.909	      37.310	     -25.150	       3.436	      -5.232	    -162.571
	42.000000000	      -1.443	     174.422	       0.792	      36.605	     -25.187	       3.059	      -5.173	    -162.717
	42.500000000	      -1.458	     174.009	       0.665	      35.981	     -25.279	       2.929	      -5.123	    -162.765
	43.000000000	      -1.460	     173.796	       0.563	      35.415	     -25.388	       3.715	      -5.069	    -162.991
	43.500000000	      -1.436	     173.593	       0.445	      34.599	     -25.357	       4.349	      -5.017	    -163.380
	44.000000000	      -1.456	     173.314	       0.325	      33.890	     -25.306	       4.991	      -4.953	    -163.656
	44.500000000	      -1.456	     172.896	       0.196	      33.249	     -25.382	       4.531	      -4.892	    -164.000
	45.000000000	      -1.466	     172.643	       0.076	      32.627	     -25.411	       4.284	      -4.836	    -164.272
	45.500000000	      -1.419	     172.294	      -0.200	      32.181	     -25.619	       3.978	      -4.695	    -165.018
	46.000000000	      -1.400	     172.126	      -0.323	      31.633	     -25.791	       4.115	      -4.657	    -165.373
	46.500000000	      -1.387	     171.812	      -0.421	      31.075	     -25.898	       4.688	      -4.597	    -165.450
	47.000000000	      -1.390	     171.448	      -0.522	      30.454	     -25.790	       5.730	      -4.533	    -165.631
	47.500000000	      -1.379	     171.173	      -0.638	      29.780	     -25.820	       5.907	      -4.504	    -165.931
	48.000000000	      -1.365	     170.947	      -0.753	      29.203	     -25.880	       6.051	      -4.449	    -165.971
	48.500000000	      -1.362	     170.678	      -0.868	      28.663	     -25.767	       5.663	      -4.409	    -166.224
	49.000000000	      -1.377	     170.467	      -0.960	      28.134	     -25.809	       5.790	      -4.360	    -166.358
	49.500000000	      -1.386	     170.212	      -1.063	      27.617	     -25.858	       6.178	      -4.314	    -166.614
	50.000000000	      -1.366	     169.952	      -1.154	      27.037	     -26.233	       5.804	      -4.278	    -166.735
	50.500000000	      -1.359	     169.775	      -1.247	      26.368	     -26.125	       6.688	      -4.242	    -167.301
	51.000000000	      -1.347	     169.519	      -1.352	      25.770	     -25.984	       7.486	      -4.209	    -167.476
	51.500000000	      -1.354	     169.353	      -1.450	      25.044	     -25.811	       8.090	      -4.151	    -167.794
	52.000000000	      -1.325	     169.160	      -1.562	      24.380	     -25.915	       6.986	      -4.096	    -168.020
	52.500000000	      -1.320	     168.772	      -1.672	      23.808	     -25.959	       7.520	      -4.057	    -168.103
	53.000000000	      -1.319	     168.470	      -1.782	      23.204	     -25.957	       6.403	      -4.022	    -168.198
	53.500000000	      -1.316	     168.343	      -1.883	      22.692	     -26.015	       7.280	      -3.965	    -168.552
	54.000000000	      -1.306	     168.129	      -1.980	      22.169	     -26.064	       7.404	      -3.897	    -168.724
	54.500000000	      -1.306	     167.718	      -2.071	      21.612	     -26.002	       7.056	      -3.858	    -169.005
	55.000000000	      -1.313	     167.354	      -2.162	      21.011	     -26.099	       7.607	      -3.819	    -169.087
	55.500000000	      -1.310	     167.098	      -2.253	      20.432	     -26.023	       7.423	      -3.783	    -169.478
	56.000000000	      -1.301	     166.876	      -2.342	      19.851	     -25.885	       6.523	      -3.747	    -170.092
	56.500000000	      -1.303	     166.609	      -2.458	      19.101	     -26.050	       6.019	      -3.711	    -170.586
	57.000000000	      -1.308	     166.497	      -2.584	      18.595	     -26.128	       6.600	      -3.705	    -170.537
	57.500000000	      -1.317	     166.357	      -2.671	      18.218	     -26.216	       5.898	      -3.670	    -170.755
	58.000000000	      -1.286	     166.421	      -2.762	      17.625	     -26.496	       7.270	      -3.625	    -170.938
	58.500000000	      -1.266	     166.090	      -2.839	      17.130	     -26.314	       7.385	      -3.589	    -171.260
	59.000000000	      -1.260	     165.716	      -2.924	      16.481	     -26.315	       7.289	      -3.554	    -171.315
	59.500000000	      -1.268	     165.694	      -3.006	      15.680	     -26.217	       7.712	      -3.509	    -171.593
	60.000000000	      -1.279	     165.490	      -3.098	      15.251	     -26.188	       6.835	      -3.508	    -171.961
	60.500000000	      -1.232	     165.378	      -3.212	      14.811	     -26.303	       8.312	      -3.522	    -172.076
	61.000000000	      -1.209	     165.064	      -3.303	      14.283	     -26.348	       7.541	      -3.469	    -172.181
	61.500000000	      -1.199	     164.837	      -3.399	      13.911	     -26.545	       8.162	      -3.452	    -172.536
	62.000000000	      -1.167	     164.527	      -3.446	      13.335	     -26.663	       8.698	      -3.428	    -172.637
	62.500000000	      -1.193	     164.230	      -3.530	      12.756	     -26.588	      10.316	      -3.411	    -172.477
	63.000000000	      -1.156	     163.876	      -3.619	      12.213	     -26.464	      10.480	      -3.374	    -172.484
	63.500000000	      -1.159	     163.674	      -3.678	      11.493	     -26.553	       9.949	      -3.300	    -172.807
	64.000000000	      -1.146	     163.814	      -3.743	      10.878	     -26.464	      11.407	      -3.257	    -172.780
	64.500000000	      -1.143	     163.724	      -3.834	      10.128	     -26.170	       9.246	      -3.247	    -172.669
	65.000000000	      -1.156	     163.327	      -3.933	       9.220	     -26.340	       7.918	      -3.148	    -172.832
	65.500000000	      -1.141	     162.766	      -4.040	       8.616	     -26.467	       8.922	      -3.139	    -173.595
	66.000000000	      -1.147	     162.549	      -4.152	       7.898	     -26.223	      10.267	      -3.108	    -173.914
	66.500000000	      -1.153	     162.348	      -4.222	       7.188	     -26.462	      10.096	      -3.085	    -173.665
	67.000000000	      -1.206	     162.086	      -4.369	       6.564	     -26.171	       9.190	      -3.068	    -173.678
	67.500000000	      -1.194	     161.356	      -4.513	       5.736	     -26.259	       9.158	      -3.075	    -174.169
	68.000000000	      -1.240	     161.147	      -4.606	       5.142	     -26.285	       8.703	      -3.093	    -174.426
	68.500000000	      -1.284	     160.897	      -4.696	       4.598	     -26.296	       8.388	      -3.043	    -174.513
	69.000000000	      -1.314	     160.726	      -4.816	       4.117	     -26.312	       8.152	      -2.991	    -174.683
	69.500000000	      -1.311	     160.598	      -4.929	       3.745	     -26.412	       7.969	      -2.964	    -174.852
	70.000000000	      -1.289	     160.437	      -5.018	       3.294	     -26.449	       8.324	      -2.932	    -174.822
	70.500000000	      -1.270	     160.300	      -5.100	       2.950	     -26.378	       8.468	      -2.894	    -174.975
	71.000000000	      -1.257	     160.142	      -5.171	       2.496	     -26.326	       8.125	      -2.858	    -175.098
	71.500000000	      -1.215	     159.975	      -5.273	       2.152	     -26.352	       8.026	      -2.776	    -175.430
	72.000000000	      -1.206	     159.799	      -5.390	       1.499	     -26.371	       7.341	      -2.791	    -175.604
	72.500000000	      -1.241	     159.324	      -5.487	       0.860	     -26.388	       6.630	      -2.769	    -175.829
	73.000000000	      -1.274	     159.181	      -5.585	       0.322	     -26.495	       5.907	      -2.730	    -175.955
	73.500000000	      -1.300	     159.072	      -5.688	      -0.217	     -26.670	       5.994	      -2.659	    -176.181
	74.000000000	      -1.307	     158.824	      -5.787	      -0.654	     -26.770	       6.485	      -2.656	    -176.700
	74.500000000	      -1.345	     158.562	      -5.866	      -1.062	     -26.839	       7.181	      -2.677	    -176.928
	75.000000000	      -1.387	     158.528	      -5.961	      -1.624	     -26.914	       7.398	      -2.662	    -176.968
	75.500000000	      -1.424	     158.568	      -6.086	      -2.185	     -27.121	       7.889	      -2.664	    -177.072
	76.000000000	      -1.435	     158.735	      -6.210	      -2.579	     -27.344	       9.930	      -2.667	    -177.105
	76.500000000	      -1.419	     158.912	      -6.333	      -2.710	     -27.361	      13.775	      -2.653	    -176.934
	77.000000000	      -1.399	     158.982	      -6.415	      -2.781	     -26.904	      17.095	      -2.593	    -176.807
	77.500000000	      -1.304	     158.886	      -6.444	      -2.813	     -26.231	      17.946	      -2.513	    -176.880
	78.000000000	      -1.240	     158.641	      -6.457	      -3.178	     -25.641	      17.004	      -2.474	    -176.905
	78.500000000	      -1.182	     158.172	      -6.492	      -3.852	     -25.298	      14.557	      -2.434	    -177.215
	79.000000000	      -1.215	     157.556	      -6.570	      -4.667	     -25.133	      12.034	      -2.369	    -177.395
	79.500000000	      -1.231	     157.135	      -6.639	      -5.386	     -25.010	       9.770	      -2.326	    -177.718
