!File name = EG0520U_1010_6x60_2SDBCB2EV_1915934D06_RC2952_2.5Vd_36mA.s2p
!Base file name = EG0520U_1010_6x60_2SDBCB2EV_1915934D06_RC2952
!Date = 8/23/2019
!Time = 1:13 PM
!Test duration(min) = 0.15
!Test = S-Parameters
!MPTS version = 8.91.5
!State File = C:\Data\PNA\20190821205423\S-Parameters_2019-08-23.sta
!Cal File = 
!ComputerName = CMPE-LAB-6
!Comments = 
!Attenuation = 0
!Z0 = 50
!Input Power(dBm) = -13.00
!Device ID = EG0520U_1010_6x60_2SDBCB2EV
!Row = 29
!Column = 52
!Technology = QPHT09
!Lot/Wafer = 1915934D06
!Gate Size = 360
!Mask = EG0520
!Cal Standards = GaAs BCB
!Cal Kit = EG2306
!Job Number = 20190821205423
!Device Type = FET
!set_Vg(v) = -1.500
!set_Vd(v) = 2.500
!set_Vd(mA) = 36.000
!file_name = EG0520U_1010_6x60_2SDBCB2EV_1915934D06_RC2952_2.5Vd_36mA.s2p
!Vd(V) = 2.500
!Vd(mA) = 35.823
!Vg(V) = -0.493
!Vg(mA) = -0.001
# GHz   S   DB   R   50
!%	Freq(GHz)	     s11(dB)	    s11(deg)	     s21(dB)	    s21(deg)	     s12(dB)	    s12(deg)	     s22(dB)	    s22(deg)
	0.500000000	      -0.034	     -14.526	      21.698	     171.233	     -38.492	      81.386	     -10.346	     -18.494
	1.000000000	      -0.121	     -28.740	      21.302	     162.598	     -32.714	      73.710	     -10.181	     -35.216
	1.500000000	      -0.164	     -42.156	      20.959	     155.464	     -29.555	      66.318	      -9.833	     -50.682
	2.000000000	      -0.316	     -54.417	      20.677	     147.954	     -27.551	      59.448	      -9.499	     -65.258
	2.500000000	      -0.415	     -65.773	      20.251	     141.578	     -26.177	      53.669	      -9.340	     -76.687
	3.000000000	      -0.816	     -73.471	      19.562	     136.495	     -25.357	      49.354	      -9.622	     -81.705
	3.500000000	      -0.937	     -82.331	      19.018	     131.394	     -24.599	      44.921	      -9.442	     -90.041
	4.000000000	      -1.038	     -90.132	      18.456	     126.983	     -24.023	      40.998	      -9.280	     -97.192
	4.500000000	      -1.150	     -97.059	      17.892	     122.796	     -23.591	      37.448	      -9.132	    -103.613
	5.000000000	      -1.224	    -103.213	      17.344	     119.218	     -23.251	      34.393	      -9.029	    -108.978
	5.500000000	      -1.299	    -108.791	      16.809	     115.848	     -22.988	      31.720	      -8.951	    -113.684
	6.000000000	      -1.360	    -113.756	      16.290	     112.816	     -22.766	      29.306	      -8.855	    -117.649
	6.500000000	      -1.410	    -118.178	      15.785	     110.097	     -22.593	      27.124	      -8.776	    -121.178
	7.000000000	      -1.456	    -122.167	      15.301	     107.526	     -22.451	      25.163	      -8.702	    -124.227
	7.500000000	      -1.488	    -125.787	      14.830	     105.170	     -22.342	      23.390	      -8.635	    -126.968
	8.000000000	      -1.502	    -128.833	      14.399	     103.114	     -22.223	      21.970	      -8.619	    -128.840
	8.500000000	      -1.533	    -131.873	      13.963	     101.073	     -22.138	      20.452	      -8.565	    -131.013
	9.000000000	      -1.563	    -134.597	      13.538	      99.168	     -22.073	      19.013	      -8.513	    -132.977
	9.500000000	      -1.583	    -137.163	      13.141	      97.310	     -22.023	      17.666	      -8.462	    -134.725
	10.000000000	      -1.599	    -139.534	      12.753	      95.569	     -21.998	      16.405	      -8.416	    -136.406
	10.500000000	      -1.624	    -141.742	      12.377	      93.895	     -21.981	      15.390	      -8.383	    -137.808
	11.000000000	      -1.636	    -143.739	      12.019	      92.343	     -21.952	      14.389	      -8.335	    -139.114
	11.500000000	      -1.653	    -145.638	      11.669	      90.831	     -21.942	      13.420	      -8.291	    -140.266
	12.000000000	      -1.666	    -147.401	      11.333	      89.394	     -21.936	      12.581	      -8.243	    -141.287
	12.500000000	      -1.671	    -149.069	      11.009	      87.998	     -21.928	      11.720	      -8.187	    -142.326
	13.000000000	      -1.680	    -150.619	      10.694	      86.637	     -21.927	      10.890	      -8.138	    -143.334
	13.500000000	      -1.690	    -152.101	      10.388	      85.338	     -21.943	      10.101	      -8.089	    -144.127
	14.000000000	      -1.701	    -153.515	      10.091	      84.078	     -21.961	       9.463	      -8.040	    -144.866
	14.500000000	      -1.705	    -154.787	       9.802	      82.846	     -21.982	       8.828	      -7.995	    -145.634
	15.000000000	      -1.710	    -155.934	       9.521	      81.664	     -21.998	       8.327	      -7.958	    -146.377
	15.500000000	      -1.714	    -157.068	       9.249	      80.500	     -21.999	       7.838	      -7.912	    -146.942
	16.000000000	      -1.717	    -158.196	       8.985	      79.359	     -22.001	       7.220	      -7.856	    -147.482
	16.500000000	      -1.720	    -159.301	       8.727	      78.236	     -22.026	       6.598	      -7.805	    -147.983
	17.000000000	      -1.719	    -160.324	       8.478	      77.144	     -22.062	       6.059	      -7.756	    -148.553
	17.500000000	      -1.725	    -161.261	       8.230	      76.066	     -22.074	       5.599	      -7.703	    -149.072
	18.000000000	      -1.733	    -162.181	       7.992	      75.012	     -22.119	       5.088	      -7.650	    -149.602
	18.500000000	      -1.734	    -163.078	       7.758	      73.985	     -22.141	       4.581	      -7.593	    -150.011
	19.000000000	      -1.732	    -163.953	       7.528	      72.962	     -22.187	       4.146	      -7.544	    -150.377
	19.500000000	      -1.732	    -164.775	       7.305	      71.980	     -22.252	       3.817	      -7.501	    -150.837
	20.000000000	      -1.737	    -165.529	       7.089	      71.014	     -22.288	       3.689	      -7.457	    -151.207
	20.500000000	      -1.740	    -166.260	       6.880	      70.047	     -22.291	       3.516	      -7.399	    -151.517
	21.000000000	      -1.738	    -167.014	       6.672	      69.086	     -22.305	       3.079	      -7.338	    -151.907
	21.500000000	      -1.732	    -167.743	       6.467	      68.140	     -22.334	       2.663	      -7.281	    -152.225
	22.000000000	      -1.729	    -168.343	       6.267	      67.223	     -22.387	       2.221	      -7.229	    -152.560
	22.500000000	      -1.723	    -168.984	       6.069	      66.272	     -22.409	       1.849	      -7.179	    -152.918
	23.000000000	      -1.723	    -169.632	       5.873	      65.347	     -22.454	       1.438	      -7.121	    -153.335
	23.500000000	      -1.725	    -170.324	       5.680	      64.470	     -22.564	       1.128	      -7.069	    -153.772
	24.000000000	      -1.729	    -170.946	       5.495	      63.611	     -22.644	       1.175	      -7.028	    -154.038
	24.500000000	      -1.720	    -171.407	       5.320	      62.730	     -22.649	       1.264	      -6.982	    -154.182
	25.000000000	      -1.706	    -171.881	       5.142	      61.827	     -22.646	       0.961	      -6.931	    -154.391
	25.500000000	      -1.699	    -172.508	       4.963	      60.952	     -22.682	       0.801	      -6.870	    -154.660
	26.000000000	      -1.703	    -173.143	       4.784	      60.095	     -22.723	       0.401	      -6.794	    -154.996
	26.500000000	      -1.702	    -173.667	       4.609	      59.250	     -22.764	       0.082	      -6.732	    -155.274
	27.000000000	      -1.696	    -174.073	       4.440	      58.429	     -22.826	      -0.358	      -6.685	    -155.587
	27.500000000	      -1.704	    -174.495	       4.271	      57.691	     -22.954	      -0.282	      -6.656	    -155.697
	28.000000000	      -1.708	    -174.986	       4.115	      56.924	     -23.025	      -0.060	      -6.600	    -156.012
	28.500000000	      -1.693	    -175.417	       3.968	      56.051	     -23.022	       0.213	      -6.526	    -156.225
	29.000000000	      -1.681	    -175.850	       3.805	      55.194	     -22.999	       0.045	      -6.472	    -156.535
	29.500000000	      -1.673	    -176.257	       3.651	      54.379	     -23.029	      -0.427	      -6.410	    -156.774
	30.000000000	      -1.668	    -176.694	       3.496	      53.634	     -23.104	      -0.617	      -6.364	    -156.988
	30.500000000	      -1.670	    -177.172	       3.344	      52.823	     -23.124	      -0.816	      -6.313	    -157.264
	31.000000000	      -1.660	    -177.619	       3.194	      52.082	     -23.182	      -0.799	      -6.264	    -157.560
	31.500000000	      -1.647	    -178.017	       3.059	      51.300	     -23.301	      -0.544	      -6.219	    -157.774
	32.000000000	      -1.646	    -178.385	       2.912	      50.526	     -23.321	      -0.374	      -6.165	    -157.952
	32.500000000	      -1.656	    -178.794	       2.767	      49.685	     -23.287	      -0.369	      -6.094	    -158.126
	33.000000000	      -1.655	    -179.208	       2.622	      48.944	     -23.280	      -0.743	      -6.038	    -158.418
	33.500000000	      -1.643	    -179.570	       2.478	      48.213	     -23.354	      -0.985	      -5.989	    -158.735
	34.000000000	      -1.633	    -179.868	       2.336	      47.486	     -23.424	      -1.141	      -5.929	    -159.076
	34.500000000	      -1.629	     179.758	       2.191	      46.639	     -23.462	      -1.679	      -5.863	    -159.233
	35.000000000	      -1.631	     179.397	       2.051	      45.987	     -23.560	      -1.551	      -5.811	    -159.627
	35.500000000	      -1.622	     179.051	       1.933	      45.278	     -23.607	      -0.980	      -5.774	    -159.798
	36.000000000	      -1.606	     178.711	       1.808	      44.450	     -23.588	      -0.842	      -5.709	    -160.024
	36.500000000	      -1.594	     178.416	       1.672	      43.679	     -23.587	      -1.428	      -5.649	    -160.288
	37.000000000	      -1.591	     178.113	       1.536	      42.957	     -23.631	      -1.569	      -5.602	    -160.545
	37.500000000	      -1.592	     177.707	       1.399	      42.247	     -23.698	      -2.149	      -5.564	    -160.782
	38.000000000	      -1.599	     177.351	       1.259	      41.588	     -23.763	      -1.957	      -5.511	    -161.047
	38.500000000	      -1.593	     177.053	       1.125	      40.968	     -23.903	      -2.156	      -5.458	    -161.341
	39.000000000	      -1.585	     176.899	       1.012	      40.341	     -23.954	      -1.538	      -5.400	    -161.552
	39.500000000	      -1.578	     176.693	       0.899	      39.692	     -23.962	      -1.152	      -5.338	    -161.873
	40.000000000	      -1.566	     176.267	       0.788	      38.942	     -23.959	      -1.306	      -5.274	    -162.079
	40.500000000	      -1.563	     175.898	       0.663	      38.247	     -24.004	      -1.612	      -5.217	    -162.300
	41.000000000	      -1.543	     175.618	       0.549	      37.481	     -24.086	      -1.183	      -5.168	    -162.695
	41.500000000	      -1.534	     175.416	       0.433	      36.835	     -24.069	      -1.971	      -5.142	    -162.882
	42.000000000	      -1.534	     175.133	       0.315	      36.107	     -24.124	      -1.890	      -5.086	    -163.005
	42.500000000	      -1.547	     174.765	       0.193	      35.466	     -24.234	      -1.777	      -5.041	    -163.074
	43.000000000	      -1.543	     174.521	       0.086	      34.873	     -24.327	      -1.532	      -4.982	    -163.329
	43.500000000	      -1.528	     174.307	      -0.023	      34.094	     -24.253	      -0.856	      -4.933	    -163.645
	44.000000000	      -1.538	     174.031	      -0.149	      33.373	     -24.271	      -0.918	      -4.867	    -164.044
	44.500000000	      -1.548	     173.606	      -0.280	      32.711	     -24.255	      -1.265	      -4.810	    -164.287
	45.000000000	      -1.555	     173.322	      -0.393	      32.095	     -24.382	      -1.363	      -4.767	    -164.592
	45.500000000	      -1.506	     173.014	      -0.672	      31.649	     -24.582	      -2.172	      -4.623	    -165.360
	46.000000000	      -1.484	     172.823	      -0.796	      31.134	     -24.644	      -2.031	      -4.578	    -165.667
	46.500000000	      -1.469	     172.456	      -0.890	      30.543	     -24.810	      -1.049	      -4.528	    -165.714
	47.000000000	      -1.470	     172.180	      -0.986	      29.860	     -24.756	      -0.578	      -4.463	    -165.970
	47.500000000	      -1.471	     171.875	      -1.097	      29.214	     -24.888	       0.223	      -4.432	    -166.047
	48.000000000	      -1.451	     171.599	      -1.219	      28.643	     -24.731	      -0.335	      -4.388	    -166.339
	48.500000000	      -1.440	     171.308	      -1.327	      28.091	     -24.772	      -0.412	      -4.353	    -166.482
	49.000000000	      -1.454	     171.186	      -1.430	      27.560	     -24.891	      -0.504	      -4.297	    -166.753
	49.500000000	      -1.468	     170.925	      -1.525	      27.016	     -25.056	      -0.251	      -4.241	    -166.841
	50.000000000	      -1.455	     170.655	      -1.614	      26.463	     -24.975	       0.600	      -4.211	    -167.082
	50.500000000	      -1.442	     170.467	      -1.704	      25.706	     -25.149	       0.505	      -4.161	    -167.493
	51.000000000	      -1.428	     170.171	      -1.819	      25.163	     -25.125	       0.155	      -4.136	    -167.921
	51.500000000	      -1.430	     170.037	      -1.906	      24.522	     -25.063	       0.585	      -4.090	    -168.145
	52.000000000	      -1.407	     169.821	      -2.022	      23.834	     -25.026	       0.536	      -4.041	    -168.293
	52.500000000	      -1.402	     169.450	      -2.128	      23.216	     -25.102	       0.146	      -3.997	    -168.491
	53.000000000	      -1.402	     169.138	      -2.236	      22.591	     -24.981	       0.089	      -3.962	    -168.552
	53.500000000	      -1.399	     168.963	      -2.341	      22.054	     -25.155	      -0.031	      -3.896	    -168.859
	54.000000000	      -1.390	     168.751	      -2.443	      21.588	     -25.085	      -0.147	      -3.843	    -169.104
	54.500000000	      -1.390	     168.396	      -2.524	      20.996	     -25.290	       0.512	      -3.805	    -169.346
	55.000000000	      -1.396	     168.013	      -2.622	      20.400	     -25.224	       0.043	      -3.761	    -169.564
	55.500000000	      -1.391	     167.697	      -2.707	      19.817	     -25.169	      -0.932	      -3.725	    -169.803
	56.000000000	      -1.378	     167.431	      -2.794	      19.165	     -25.116	       0.292	      -3.698	    -170.325
	56.500000000	      -1.378	     167.331	      -2.916	      18.579	     -25.288	      -1.016	      -3.645	    -170.871
	57.000000000	      -1.396	     167.082	      -3.008	      18.101	     -25.205	      -1.728	      -3.638	    -170.834
	57.500000000	      -1.386	     167.004	      -3.120	      17.548	     -25.296	      -1.026	      -3.613	    -171.153
	58.000000000	      -1.379	     166.810	      -3.192	      16.886	     -25.719	      -1.172	      -3.587	    -171.351
	58.500000000	      -1.339	     166.709	      -3.290	      16.446	     -25.427	      -0.161	      -3.559	    -171.580
	59.000000000	      -1.342	     166.343	      -3.376	      15.690	     -25.268	      -0.758	      -3.487	    -171.786
	59.500000000	      -1.356	     166.258	      -3.472	      15.211	     -25.546	       0.044	      -3.456	    -172.021
	60.000000000	      -1.349	     166.181	      -3.560	      14.602	     -25.550	      -0.816	      -3.467	    -172.277
	60.500000000	      -1.319	     165.891	      -3.651	      14.142	     -25.460	       0.874	      -3.465	    -172.431
	61.000000000	      -1.276	     165.655	      -3.756	      13.658	     -25.575	      -0.074	      -3.429	    -172.618
	61.500000000	      -1.271	     165.418	      -3.842	      13.231	     -25.862	       0.604	      -3.378	    -172.856
	62.000000000	      -1.257	     165.195	      -3.923	      12.732	     -25.870	       1.211	      -3.375	    -172.825
	62.500000000	      -1.273	     164.924	      -3.981	      11.933	     -25.774	      -0.125	      -3.388	    -172.838
	63.000000000	      -1.242	     164.490	      -4.047	      11.523	     -25.909	       1.233	      -3.344	    -172.913
	63.500000000	      -1.230	     164.276	      -4.134	      10.792	     -25.916	       2.207	      -3.275	    -173.252
	64.000000000	      -1.220	     164.426	      -4.199	      10.247	     -25.777	       1.359	      -3.222	    -173.092
	64.500000000	      -1.196	     164.392	      -4.258	       9.459	     -25.653	       3.495	      -3.192	    -172.928
	65.000000000	      -1.218	     163.881	      -4.340	       8.638	     -25.470	       2.478	      -3.147	    -173.267
	65.500000000	      -1.208	     163.414	      -4.479	       7.871	     -25.552	       2.617	      -3.086	    -173.993
	66.000000000	      -1.216	     163.126	      -4.579	       7.154	     -25.794	       1.758	      -3.094	    -174.317
	66.500000000	      -1.234	     162.977	      -4.680	       6.504	     -25.741	      -0.535	      -3.032	    -174.084
	67.000000000	      -1.283	     162.569	      -4.803	       5.895	     -25.891	       1.186	      -3.025	    -173.991
	67.500000000	      -1.270	     161.973	      -4.944	       5.030	     -25.677	       0.769	      -3.041	    -174.603
	68.000000000	      -1.316	     161.776	      -5.040	       4.388	     -25.672	       0.793	      -3.058	    -174.864
	68.500000000	      -1.359	     161.571	      -5.129	       3.947	     -25.673	       0.339	      -3.029	    -174.916
	69.000000000	      -1.391	     161.385	      -5.248	       3.446	     -25.725	      -0.099	      -2.956	    -175.047
	69.500000000	      -1.385	     161.241	      -5.366	       3.072	     -25.821	      -0.289	      -2.935	    -175.179
	70.000000000	      -1.361	     161.092	      -5.449	       2.658	     -25.863	       0.149	      -2.905	    -175.222
	70.500000000	      -1.343	     160.953	      -5.534	       2.262	     -25.801	       0.375	      -2.869	    -175.358
	71.000000000	      -1.332	     160.813	      -5.615	       1.937	     -25.838	       0.040	      -2.822	    -175.546
	71.500000000	      -1.277	     160.702	      -5.731	       1.382	     -25.800	      -0.270	      -2.753	    -175.666
	72.000000000	      -1.282	     160.428	      -5.815	       0.892	     -25.799	      -0.802	      -2.764	    -175.939
	72.500000000	      -1.304	     159.966	      -5.907	       0.197	     -25.813	      -1.508	      -2.749	    -176.175
	73.000000000	      -1.345	     159.803	      -6.010	      -0.340	     -25.930	      -2.127	      -2.708	    -176.335
	73.500000000	      -1.365	     159.729	      -6.106	      -0.866	     -26.081	      -2.073	      -2.646	    -176.571
	74.000000000	      -1.374	     159.479	      -6.207	      -1.295	     -26.224	      -1.820	      -2.640	    -177.061
	74.500000000	      -1.409	     159.221	      -6.285	      -1.726	     -26.292	      -1.521	      -2.656	    -177.262
	75.000000000	      -1.451	     159.170	      -6.382	      -2.294	     -26.357	      -1.463	      -2.648	    -177.343
	75.500000000	      -1.481	     159.214	      -6.502	      -2.885	     -26.584	      -1.016	      -2.645	    -177.425
	76.000000000	      -1.498	     159.406	      -6.622	      -3.252	     -26.853	       0.633	      -2.653	    -177.453
	76.500000000	      -1.489	     159.570	      -6.752	      -3.392	     -26.970	       4.192	      -2.643	    -177.273
	77.000000000	      -1.454	     159.577	      -6.829	      -3.462	     -26.624	       8.009	      -2.580	    -177.165
	77.500000000	      -1.358	     159.539	      -6.857	      -3.426	     -26.025	       9.618	      -2.506	    -177.241
	78.000000000	      -1.294	     159.229	      -6.864	      -3.779	     -25.423	       8.867	      -2.453	    -177.334
	78.500000000	      -1.247	     158.740	      -6.895	      -4.510	     -25.037	       7.150	      -2.415	    -177.554
	79.000000000	      -1.280	     158.173	      -6.973	      -5.304	     -24.856	       4.640	      -2.354	    -177.813
	79.500000000	      -1.294	     157.729	      -7.037	      -6.040	     -24.717	       2.787	      -2.318	    -177.968
