!File name = EG0520U_1010_6x60_2SDBCB2EV_1915934D06_RC2943_3.5Vd_18mA.s2p
!Base file name = EG0520U_1010_6x60_2SDBCB2EV_1915934D06_RC2943
!Date = 8/23/2019
!Time = 1:04 PM
!Test duration(min) = 0.15
!Test = S-Parameters
!MPTS version = 8.91.5
!State File = C:\Data\PNA\20190821205423\S-Parameters_2019-08-23.sta
!Cal File = 
!ComputerName = CMPE-LAB-6
!Comments = 
!Attenuation = 0
!Z0 = 50
!Input Power(dBm) = -13.00
!Device ID = EG0520U_1010_6x60_2SDBCB2EV
!Row = 29
!Column = 43
!Technology = QPHT09
!Lot/Wafer = 1915934D06
!Gate Size = 360
!Mask = EG0520
!Cal Standards = GaAs BCB
!Cal Kit = EG2306
!Job Number = 20190821205423
!Device Type = FET
!set_Vg(v) = -1.500
!set_Vd(v) = 3.500
!set_Vd(mA) = 18.000
!file_name = EG0520U_1010_6x60_2SDBCB2EV_1915934D06_RC2943_3.5Vd_18mA.s2p
!Vd(V) = 3.500
!Vd(mA) = 17.987
!Vg(V) = -0.630
!Vg(mA) = -0.006
# GHz   S   DB   R   50
!%	Freq(GHz)	     s11(dB)	    s11(deg)	     s21(dB)	    s21(deg)	     s12(dB)	    s12(deg)	     s22(dB)	    s22(deg)
	0.500000000	      -0.070	     -12.566	      19.835	     172.050	     -37.686	      81.233	      -6.915	     -11.907
	1.000000000	      -0.151	     -24.901	      19.533	     164.192	     -31.858	      74.858	      -6.986	     -23.033
	1.500000000	      -0.187	     -36.718	      19.257	     157.759	     -28.621	      68.253	      -7.029	     -33.937
	2.000000000	      -0.330	     -47.735	      19.028	     150.626	     -26.518	      61.855	      -7.130	     -44.836
	2.500000000	      -0.424	     -58.150	      18.659	     144.581	     -25.057	      56.374	      -7.345	     -53.965
	3.000000000	      -0.808	     -65.329	      18.040	     139.303	     -24.186	      51.994	      -7.708	     -57.814
	3.500000000	      -0.927	     -73.830	      17.590	     134.333	     -23.341	      47.597	      -7.858	     -65.062
	4.000000000	      -1.042	     -81.421	      17.107	     129.810	     -22.693	      43.633	      -7.996	     -71.630
	4.500000000	      -1.177	     -88.224	      16.601	     125.463	     -22.194	      39.932	      -8.124	     -77.838
	5.000000000	      -1.262	     -94.421	      16.110	     121.749	     -21.802	      36.711	      -8.251	     -83.199
	5.500000000	      -1.353	    -100.070	      15.629	     118.195	     -21.493	      33.877	      -8.388	     -88.050
	6.000000000	      -1.433	    -105.221	      15.156	     114.939	     -21.231	      31.254	      -8.468	     -92.342
	6.500000000	      -1.495	    -109.799	      14.691	     112.022	     -21.020	      28.855	      -8.539	     -96.228
	7.000000000	      -1.557	    -113.989	      14.239	     109.224	     -20.849	      26.695	      -8.593	     -99.747
	7.500000000	      -1.602	    -117.789	      13.796	     106.664	     -20.710	      24.692	      -8.636	    -102.937
	8.000000000	      -1.628	    -121.017	      13.387	     104.403	     -20.578	      23.075	      -8.679	    -105.140
	8.500000000	      -1.670	    -124.262	      12.975	     102.150	     -20.480	      21.339	      -8.710	    -107.769
	9.000000000	      -1.711	    -127.152	      12.565	     100.038	     -20.394	      19.734	      -8.723	    -110.102
	9.500000000	      -1.741	    -129.906	      12.186	      97.966	     -20.323	      18.220	      -8.727	    -112.229
	10.000000000	      -1.764	    -132.433	      11.811	      96.049	     -20.273	      16.769	      -8.726	    -114.217
	10.500000000	      -1.792	    -134.812	      11.452	      94.165	     -20.236	      15.457	      -8.719	    -116.086
	11.000000000	      -1.811	    -136.985	      11.104	      92.428	     -20.206	      14.264	      -8.707	    -117.734
	11.500000000	      -1.836	    -139.039	      10.761	      90.715	     -20.186	      13.093	      -8.690	    -119.252
	12.000000000	      -1.855	    -140.955	      10.436	      89.101	     -20.173	      12.036	      -8.661	    -120.651
	12.500000000	      -1.866	    -142.742	      10.120	      87.560	     -20.158	      11.036	      -8.625	    -122.046
	13.000000000	      -1.882	    -144.413	       9.809	      86.012	     -20.161	      10.063	      -8.591	    -123.253
	13.500000000	      -1.893	    -145.994	       9.511	      84.565	     -20.156	       9.114	      -8.543	    -124.372
	14.000000000	      -1.904	    -147.524	       9.221	      83.137	     -20.163	       8.251	      -8.498	    -125.419
	14.500000000	      -1.909	    -148.920	       8.940	      81.751	     -20.176	       7.401	      -8.454	    -126.490
	15.000000000	      -1.916	    -150.177	       8.661	      80.416	     -20.190	       6.614	      -8.411	    -127.445
	15.500000000	      -1.926	    -151.418	       8.391	      79.093	     -20.205	       5.942	      -8.361	    -128.270
	16.000000000	      -1.932	    -152.636	       8.129	      77.803	     -20.212	       5.203	      -8.297	    -129.078
	16.500000000	      -1.939	    -153.807	       7.871	      76.533	     -20.234	       4.449	      -8.239	    -129.851
	17.000000000	      -1.941	    -154.915	       7.625	      75.306	     -20.267	       3.792	      -8.186	    -130.552
	17.500000000	      -1.949	    -155.904	       7.377	      74.097	     -20.283	       3.196	      -8.120	    -131.324
	18.000000000	      -1.960	    -156.880	       7.143	      72.918	     -20.318	       2.513	      -8.059	    -132.052
	18.500000000	      -1.961	    -157.843	       6.912	      71.767	     -20.328	       1.852	      -7.986	    -132.687
	19.000000000	      -1.961	    -158.764	       6.682	      70.604	     -20.372	       1.182	      -7.919	    -133.317
	19.500000000	      -1.959	    -159.627	       6.461	      69.494	     -20.429	       0.614	      -7.863	    -133.909
	20.000000000	      -1.967	    -160.435	       6.245	      68.416	     -20.485	       0.303	      -7.806	    -134.434
	20.500000000	      -1.966	    -161.221	       6.040	      67.322	     -20.510	      -0.045	      -7.731	    -134.947
	21.000000000	      -1.968	    -161.986	       5.831	      66.235	     -20.520	      -0.525	      -7.652	    -135.513
	21.500000000	      -1.960	    -162.788	       5.627	      65.161	     -20.555	      -1.082	      -7.580	    -136.015
	22.000000000	      -1.958	    -163.434	       5.426	      64.122	     -20.586	      -1.586	      -7.504	    -136.516
	22.500000000	      -1.956	    -164.109	       5.227	      63.068	     -20.617	      -2.157	      -7.444	    -136.998
	23.000000000	      -1.960	    -164.761	       5.030	      62.045	     -20.671	      -2.726	      -7.371	    -137.651
	23.500000000	      -1.959	    -165.426	       4.839	      61.086	     -20.765	      -3.154	      -7.308	    -138.201
	24.000000000	      -1.957	    -166.060	       4.659	      60.134	     -20.836	      -3.237	      -7.243	    -138.603
	24.500000000	      -1.944	    -166.602	       4.482	      59.149	     -20.858	      -3.439	      -7.171	    -138.928
	25.000000000	      -1.927	    -167.089	       4.306	      58.116	     -20.847	      -3.871	      -7.096	    -139.306
	25.500000000	      -1.919	    -167.736	       4.129	      57.147	     -20.896	      -4.254	      -7.014	    -139.780
	26.000000000	      -1.922	    -168.364	       3.951	      56.193	     -20.927	      -4.920	      -6.933	    -140.298
	26.500000000	      -1.920	    -168.904	       3.778	      55.244	     -20.990	      -5.261	      -6.854	    -140.751
	27.000000000	      -1.911	    -169.302	       3.609	      54.334	     -21.054	      -5.728	      -6.786	    -141.119
	27.500000000	      -1.905	    -169.713	       3.450	      53.464	     -21.134	      -5.847	      -6.727	    -141.421
	28.000000000	      -1.891	    -170.284	       3.299	      52.537	     -21.199	      -5.905	      -6.649	    -141.920
	28.500000000	      -1.879	    -170.831	       3.143	      51.534	     -21.185	      -6.012	      -6.561	    -142.348
	29.000000000	      -1.871	    -171.292	       2.980	      50.570	     -21.223	      -6.517	      -6.488	    -142.842
	29.500000000	      -1.864	    -171.698	       2.821	      49.668	     -21.298	      -6.867	      -6.417	    -143.262
	30.000000000	      -1.855	    -172.171	       2.666	      48.805	     -21.344	      -7.288	      -6.356	    -143.637
	30.500000000	      -1.847	    -172.648	       2.516	      47.888	     -21.388	      -7.577	      -6.289	    -144.091
	31.000000000	      -1.834	    -173.137	       2.362	      47.012	     -21.458	      -8.008	      -6.233	    -144.505
	31.500000000	      -1.815	    -173.589	       2.225	      46.185	     -21.565	      -8.059	      -6.171	    -144.872
	32.000000000	      -1.816	    -173.938	       2.077	      45.248	     -21.598	      -8.053	      -6.099	    -145.223
	32.500000000	      -1.823	    -174.394	       1.929	      44.330	     -21.626	      -8.357	      -6.017	    -145.498
	33.000000000	      -1.822	    -174.863	       1.786	      43.494	     -21.669	      -8.536	      -5.946	    -145.926
	33.500000000	      -1.802	    -175.273	       1.637	      42.659	     -21.748	      -8.894	      -5.886	    -146.366
	34.000000000	      -1.787	    -175.642	       1.499	      41.753	     -21.794	      -9.145	      -5.811	    -146.874
	34.500000000	      -1.782	    -176.065	       1.347	      40.895	     -21.874	      -9.511	      -5.730	    -147.219
	35.000000000	      -1.780	    -176.482	       1.206	      40.063	     -21.927	      -9.850	      -5.672	    -147.686
	35.500000000	      -1.775	    -176.888	       1.077	      39.276	     -22.011	      -9.572	      -5.617	    -147.987
	36.000000000	      -1.768	    -177.272	       0.946	      38.377	     -22.011	      -9.788	      -5.544	    -148.373
	36.500000000	      -1.755	    -177.578	       0.809	      37.533	     -22.018	     -10.044	      -5.469	    -148.818
	37.000000000	      -1.752	    -177.867	       0.669	      36.730	     -22.072	     -10.308	      -5.412	    -149.186
	37.500000000	      -1.754	    -178.266	       0.534	      35.918	     -22.169	     -10.848	      -5.356	    -149.577
	38.000000000	      -1.745	    -178.648	       0.396	      35.158	     -22.192	     -11.107	      -5.301	    -149.901
	38.500000000	      -1.736	    -179.013	       0.258	      34.347	     -22.318	     -11.371	      -5.236	    -150.369
	39.000000000	      -1.732	    -179.384	       0.128	      33.617	     -22.360	     -11.364	      -5.171	    -150.761
	39.500000000	      -1.738	    -179.647	      -0.004	      32.902	     -22.511	     -11.707	      -5.106	    -151.187
	40.000000000	      -1.743	     179.976	      -0.122	      32.180	     -22.542	     -10.995	      -5.036	    -151.498
	40.500000000	      -1.740	     179.639	      -0.246	      31.411	     -22.577	     -11.183	      -4.961	    -151.903
	41.000000000	      -1.721	     179.359	      -0.362	      30.599	     -22.682	     -11.291	      -4.905	    -152.365
	41.500000000	      -1.712	     179.186	      -0.485	      29.842	     -22.728	     -11.262	      -4.867	    -152.699
	42.000000000	      -1.713	     178.876	      -0.609	      29.095	     -22.735	     -12.002	      -4.795	    -152.988
	42.500000000	      -1.723	     178.476	      -0.732	      28.372	     -22.847	     -11.859	      -4.738	    -153.227
	43.000000000	      -1.726	     178.281	      -0.839	      27.761	     -22.942	     -11.952	      -4.671	    -153.599
	43.500000000	      -1.708	     178.073	      -0.953	      26.955	     -22.985	     -11.816	      -4.619	    -154.060
	44.000000000	      -1.703	     177.795	      -1.069	      26.162	     -23.072	     -11.580	      -4.554	    -154.510
	44.500000000	      -1.711	     177.359	      -1.193	      25.424	     -23.028	     -11.888	      -4.490	    -154.894
	45.000000000	      -1.717	     177.100	      -1.309	      24.674	     -23.114	     -12.516	      -4.436	    -155.275
	45.500000000	      -1.663	     176.655	      -1.590	      24.033	     -23.271	     -12.572	      -4.314	    -156.326
	46.000000000	      -1.644	     176.396	      -1.717	      23.333	     -23.363	     -12.608	      -4.256	    -156.718
	46.500000000	      -1.629	     176.073	      -1.827	      22.708	     -23.575	     -13.373	      -4.194	    -156.972
	47.000000000	      -1.630	     175.708	      -1.931	      21.987	     -23.525	     -12.243	      -4.118	    -157.289
	47.500000000	      -1.621	     175.449	      -2.047	      21.260	     -23.757	     -11.606	      -4.081	    -157.507
	48.000000000	      -1.606	     175.147	      -2.158	      20.528	     -23.679	     -11.849	      -4.036	    -157.943
	48.500000000	      -1.603	     174.850	      -2.270	      19.852	     -23.624	     -12.363	      -3.972	    -158.247
	49.000000000	      -1.614	     174.669	      -2.395	      19.169	     -23.701	     -13.312	      -3.913	    -158.625
	49.500000000	      -1.619	     174.434	      -2.511	      18.490	     -23.696	     -13.713	      -3.866	    -159.043
	50.000000000	      -1.595	     174.200	      -2.630	      17.980	     -23.985	     -13.168	      -3.825	    -159.337
	50.500000000	      -1.591	     173.898	      -2.719	      17.394	     -24.073	     -12.170	      -3.818	    -159.890
	51.000000000	      -1.575	     173.618	      -2.826	      16.696	     -24.037	     -12.524	      -3.789	    -160.186
	51.500000000	      -1.579	     173.445	      -2.945	      16.081	     -24.098	     -11.705	      -3.733	    -160.567
	52.000000000	      -1.551	     173.188	      -3.031	      15.389	     -24.006	     -12.350	      -3.692	    -160.891
	52.500000000	      -1.539	     172.829	      -3.152	      14.690	     -24.058	     -12.046	      -3.645	    -161.157
	53.000000000	      -1.542	     172.447	      -3.257	      14.072	     -24.102	     -12.660	      -3.604	    -161.323
	53.500000000	      -1.535	     172.324	      -3.348	      13.528	     -24.200	     -12.141	      -3.550	    -161.708
	54.000000000	      -1.525	     172.056	      -3.459	      12.914	     -24.208	     -12.043	      -3.483	    -161.955
	54.500000000	      -1.525	     171.695	      -3.549	      12.318	     -24.300	     -12.586	      -3.436	    -162.261
	55.000000000	      -1.525	     171.342	      -3.634	      11.642	     -24.321	     -11.901	      -3.380	    -162.467
	55.500000000	      -1.523	     171.005	      -3.724	      11.060	     -24.403	     -12.495	      -3.346	    -162.885
	56.000000000	      -1.526	     170.727	      -3.804	      10.304	     -24.261	     -13.994	      -3.298	    -163.419
	56.500000000	      -1.512	     170.579	      -3.914	       9.661	     -24.167	     -13.310	      -3.272	    -164.033
	57.000000000	      -1.506	     170.379	      -4.022	       9.065	     -24.495	     -14.033	      -3.256	    -164.077
	57.500000000	      -1.510	     170.197	      -4.119	       8.616	     -24.569	     -13.242	      -3.214	    -164.549
	58.000000000	      -1.486	     170.011	      -4.220	       7.885	     -24.712	     -13.265	      -3.181	    -164.777
	58.500000000	      -1.456	     169.957	      -4.303	       7.159	     -24.736	     -14.851	      -3.157	    -165.139
	59.000000000	      -1.459	     169.541	      -4.380	       6.453	     -24.858	     -14.171	      -3.084	    -165.440
	59.500000000	      -1.452	     169.403	      -4.486	       5.839	     -24.806	     -14.290	      -3.062	    -165.758
	60.000000000	      -1.447	     169.143	      -4.580	       5.204	     -24.859	     -13.584	      -3.079	    -166.044
	60.500000000	      -1.419	     168.901	      -4.694	       4.570	     -24.987	     -13.373	      -3.058	    -166.275
	61.000000000	      -1.386	     168.635	      -4.785	       4.008	     -24.994	     -13.269	      -3.023	    -166.535
	61.500000000	      -1.392	     168.304	      -4.889	       3.520	     -24.985	     -13.716	      -3.000	    -166.798
	62.000000000	      -1.368	     168.057	      -4.960	       2.822	     -25.217	     -13.410	      -2.938	    -167.001
	62.500000000	      -1.379	     167.627	      -5.041	       2.101	     -25.269	     -12.528	      -2.936	    -166.985
	63.000000000	      -1.362	     167.342	      -5.133	       1.349	     -25.286	     -12.459	      -2.895	    -167.141
	63.500000000	      -1.357	     167.096	      -5.191	       0.721	     -24.980	     -12.149	      -2.844	    -167.672
	64.000000000	      -1.345	     167.243	      -5.302	      -0.046	     -25.246	     -11.969	      -2.775	    -167.663
	64.500000000	      -1.322	     167.078	      -5.391	      -0.743	     -25.173	     -11.095	      -2.756	    -167.514
	65.000000000	      -1.344	     166.691	      -5.489	      -1.854	     -25.184	     -14.785	      -2.671	    -167.887
	65.500000000	      -1.323	     166.225	      -5.615	      -2.467	     -25.428	     -13.454	      -2.664	    -168.651
	66.000000000	      -1.329	     165.918	      -5.742	      -3.258	     -25.294	     -12.502	      -2.644	    -169.288
	66.500000000	      -1.352	     165.825	      -5.815	      -3.724	     -25.089	     -12.920	      -2.598	    -169.245
	67.000000000	      -1.392	     165.438	      -5.944	      -4.697	     -25.296	     -14.361	      -2.591	    -169.206
	67.500000000	      -1.375	     164.739	      -6.099	      -5.408	     -25.389	     -12.697	      -2.576	    -169.761
	68.000000000	      -1.406	     164.645	      -6.212	      -5.986	     -25.384	     -12.808	      -2.606	    -170.019
	68.500000000	      -1.435	     164.447	      -6.304	      -6.558	     -25.435	     -13.245	      -2.582	    -170.149
	69.000000000	      -1.460	     164.234	      -6.447	      -7.102	     -25.446	     -13.363	      -2.511	    -170.412
	69.500000000	      -1.454	     164.043	      -6.577	      -7.488	     -25.580	     -13.623	      -2.492	    -170.605
	70.000000000	      -1.435	     163.878	      -6.674	      -7.958	     -25.635	     -13.106	      -2.468	    -170.755
	70.500000000	      -1.417	     163.703	      -6.783	      -8.419	     -25.643	     -12.680	      -2.432	    -170.916
	71.000000000	      -1.400	     163.497	      -6.853	      -8.902	     -25.663	     -12.942	      -2.404	    -171.099
	71.500000000	      -1.374	     163.287	      -6.948	      -9.247	     -25.616	     -13.077	      -2.352	    -171.301
	72.000000000	      -1.347	     163.033	      -7.069	      -9.783	     -25.617	     -13.605	      -2.340	    -171.594
	72.500000000	      -1.369	     162.640	      -7.163	     -10.415	     -25.636	     -14.194	      -2.316	    -171.883
	73.000000000	      -1.391	     162.455	      -7.262	     -11.039	     -25.748	     -14.690	      -2.277	    -172.098
	73.500000000	      -1.405	     162.337	      -7.369	     -11.571	     -25.892	     -14.858	      -2.212	    -172.420
	74.000000000	      -1.410	     162.099	      -7.475	     -12.060	     -25.961	     -14.597	      -2.203	    -172.952
	74.500000000	      -1.434	     161.859	      -7.560	     -12.517	     -25.994	     -14.376	      -2.223	    -173.180
	75.000000000	      -1.457	     161.790	      -7.653	     -13.112	     -26.061	     -14.663	      -2.208	    -173.376
	75.500000000	      -1.476	     161.725	      -7.771	     -13.721	     -26.199	     -15.064	      -2.196	    -173.540
	76.000000000	      -1.476	     161.772	      -7.897	     -14.296	     -26.485	     -15.121	      -2.200	    -173.690
	76.500000000	      -1.463	     161.821	      -8.051	     -14.620	     -26.878	     -13.602	      -2.200	    -173.728
	77.000000000	      -1.448	     161.745	      -8.185	     -14.717	     -27.060	      -9.970	      -2.159	    -173.642
	77.500000000	      -1.401	     161.732	      -8.264	     -14.473	     -26.794	      -5.879	      -2.088	    -173.685
	78.000000000	      -1.303	     161.490	      -8.278	     -14.396	     -26.279	      -4.008	      -2.037	    -173.756
	78.500000000	      -1.260	     161.123	      -8.296	     -14.786	     -25.848	      -3.882	      -2.001	    -174.120
	79.000000000	      -1.266	     160.531	      -8.333	     -15.375	     -25.503	      -4.823	      -1.956	    -174.477
	79.500000000	      -1.252	     160.014	      -8.351	     -15.993	     -25.210	      -5.795	      -1.914	    -174.736
