!File name = EG0520U_1010_6x60_2SDBCB2EV_1915934D06_RC4034_2.5Vd_27mA.s2p
!Base file name = EG0520U_1010_6x60_2SDBCB2EV_1915934D06_RC4034
!Date = 8/23/2019
!Time = 12:56 PM
!Test duration(min) = 0.15
!Test = S-Parameters
!MPTS version = 8.91.5
!State File = C:\Data\PNA\20190821205423\S-Parameters_2019-08-23.sta
!Cal File = 
!ComputerName = CMPE-LAB-6
!Comments = 
!Attenuation = 0
!Z0 = 50
!Input Power(dBm) = -13.00
!Device ID = EG0520U_1010_6x60_2SDBCB2EV
!Row = 40
!Column = 34
!Technology = QPHT09
!Lot/Wafer = 1915934D06
!Gate Size = 360
!Mask = EG0520
!Cal Standards = GaAs BCB
!Cal Kit = EG2306
!Job Number = 20190821205423
!Device Type = FET
!set_Vg(v) = -1.500
!set_Vd(v) = 2.500
!set_Vd(mA) = 27.000
!file_name = EG0520U_1010_6x60_2SDBCB2EV_1915934D06_RC4034_2.5Vd_27mA.s2p
!Vd(V) = 2.500
!Vd(mA) = 26.982
!Vg(V) = -0.559
!Vg(mA) = -0.002
# GHz   S   DB   R   50
!%	Freq(GHz)	     s11(dB)	    s11(deg)	     s21(dB)	    s21(deg)	     s12(dB)	    s12(deg)	     s22(dB)	    s22(deg)
	0.500000000	      -0.040	     -13.642	      20.846	     171.710	     -37.965	      81.589	     -10.050	     -17.590
	1.000000000	      -0.123	     -27.023	      20.514	     163.329	     -32.163	      74.402	      -9.891	     -33.589
	1.500000000	      -0.164	     -39.733	      20.209	     156.656	     -28.968	      67.258	      -9.562	     -48.523
	2.000000000	      -0.315	     -51.517	      19.939	     149.217	     -26.924	      60.517	      -9.237	     -62.744
	2.500000000	      -0.410	     -62.476	      19.553	     143.028	     -25.516	      54.864	      -9.087	     -74.025
	3.000000000	      -0.809	     -69.998	      18.888	     137.955	     -24.663	      50.597	      -9.343	     -78.986
	3.500000000	      -0.932	     -78.712	      18.390	     132.908	     -23.873	      46.156	      -9.163	     -87.298
	4.000000000	      -1.041	     -86.437	      17.859	     128.534	     -23.264	      42.225	      -8.998	     -94.452
	4.500000000	      -1.165	     -93.333	      17.315	     124.286	     -22.809	      38.608	      -8.847	    -100.951
	5.000000000	      -1.243	     -99.485	      16.795	     120.729	     -22.445	      35.517	      -8.738	    -106.401
	5.500000000	      -1.326	    -105.120	      16.278	     117.321	     -22.162	      32.791	      -8.661	    -111.204
	6.000000000	      -1.397	    -110.147	      15.781	     114.233	     -21.925	      30.294	      -8.563	    -115.274
	6.500000000	      -1.451	    -114.633	      15.292	     111.494	     -21.735	      28.045	      -8.482	    -118.879
	7.000000000	      -1.505	    -118.712	      14.820	     108.865	     -21.583	      26.006	      -8.409	    -122.035
	7.500000000	      -1.541	    -122.373	      14.362	     106.489	     -21.458	      24.180	      -8.338	    -124.902
	8.000000000	      -1.560	    -125.491	      13.941	     104.388	     -21.331	      22.664	      -8.314	    -126.826
	8.500000000	      -1.595	    -128.606	      13.515	     102.312	     -21.243	      21.082	      -8.262	    -129.097
	9.000000000	      -1.630	    -131.385	      13.096	     100.379	     -21.168	      19.600	      -8.211	    -131.133
	9.500000000	      -1.655	    -134.014	      12.705	      98.479	     -21.107	      18.198	      -8.161	    -132.925
	10.000000000	      -1.674	    -136.426	      12.325	      96.730	     -21.067	      16.902	      -8.113	    -134.633
	10.500000000	      -1.698	    -138.684	      11.957	      95.019	     -21.036	      15.770	      -8.071	    -136.143
	11.000000000	      -1.712	    -140.744	      11.605	      93.442	     -21.012	      14.730	      -8.028	    -137.471
	11.500000000	      -1.733	    -142.702	      11.258	      91.894	     -20.993	      13.681	      -7.986	    -138.715
	12.000000000	      -1.748	    -144.513	      10.929	      90.432	     -20.980	      12.749	      -7.939	    -139.810
	12.500000000	      -1.758	    -146.202	      10.607	      89.033	     -20.970	      11.845	      -7.890	    -140.922
	13.000000000	      -1.768	    -147.791	      10.296	      87.650	     -20.966	      10.996	      -7.844	    -141.905
	13.500000000	      -1.776	    -149.308	       9.997	      86.340	     -20.963	      10.158	      -7.795	    -142.743
	14.000000000	      -1.789	    -150.762	       9.703	      85.058	     -20.980	       9.435	      -7.747	    -143.544
	14.500000000	      -1.794	    -152.070	       9.419	      83.814	     -20.987	       8.733	      -7.703	    -144.327
	15.000000000	      -1.800	    -153.240	       9.141	      82.626	     -20.993	       8.105	      -7.666	    -145.106
	15.500000000	      -1.805	    -154.419	       8.871	      81.438	     -21.003	       7.500	      -7.621	    -145.732
	16.000000000	      -1.812	    -155.587	       8.608	      80.279	     -21.012	       6.832	      -7.570	    -146.331
	16.500000000	      -1.816	    -156.694	       8.353	      79.147	     -21.031	       6.211	      -7.523	    -146.893
	17.000000000	      -1.818	    -157.736	       8.106	      78.044	     -21.059	       5.590	      -7.481	    -147.423
	17.500000000	      -1.826	    -158.685	       7.859	      76.960	     -21.078	       5.122	      -7.433	    -147.992
	18.000000000	      -1.834	    -159.614	       7.624	      75.907	     -21.107	       4.533	      -7.384	    -148.539
	18.500000000	      -1.835	    -160.518	       7.393	      74.876	     -21.124	       3.983	      -7.330	    -148.960
	19.000000000	      -1.836	    -161.384	       7.166	      73.853	     -21.154	       3.481	      -7.282	    -149.401
	19.500000000	      -1.832	    -162.211	       6.947	      72.862	     -21.206	       2.983	      -7.239	    -149.845
	20.000000000	      -1.839	    -163.007	       6.732	      71.891	     -21.264	       2.710	      -7.203	    -150.230
	20.500000000	      -1.843	    -163.750	       6.525	      70.926	     -21.287	       2.506	      -7.152	    -150.553
	21.000000000	      -1.841	    -164.483	       6.321	      69.966	     -21.303	       2.178	      -7.097	    -150.939
	21.500000000	      -1.835	    -165.222	       6.118	      69.001	     -21.321	       1.777	      -7.043	    -151.255
	22.000000000	      -1.828	    -165.854	       5.922	      68.075	     -21.338	       1.314	      -6.988	    -151.542
	22.500000000	      -1.825	    -166.535	       5.725	      67.117	     -21.357	       0.839	      -6.941	    -151.955
	23.000000000	      -1.827	    -167.198	       5.531	      66.206	     -21.402	       0.432	      -6.891	    -152.366
	23.500000000	      -1.827	    -167.860	       5.340	      65.322	     -21.483	      -0.062	      -6.847	    -152.814
	24.000000000	      -1.834	    -168.487	       5.157	      64.474	     -21.566	      -0.134	      -6.817	    -153.077
	24.500000000	      -1.827	    -168.954	       4.984	      63.607	     -21.576	      -0.108	      -6.768	    -153.188
	25.000000000	      -1.817	    -169.480	       4.807	      62.695	     -21.581	      -0.352	      -6.710	    -153.388
	25.500000000	      -1.814	    -170.112	       4.629	      61.832	     -21.621	      -0.734	      -6.656	    -153.704
	26.000000000	      -1.819	    -170.680	       4.455	      60.984	     -21.640	      -1.156	      -6.588	    -154.049
	26.500000000	      -1.815	    -171.181	       4.286	      60.141	     -21.682	      -1.374	      -6.533	    -154.328
	27.000000000	      -1.811	    -171.620	       4.121	      59.323	     -21.739	      -1.907	      -6.486	    -154.665
	27.500000000	      -1.814	    -172.037	       3.959	      58.578	     -21.856	      -1.961	      -6.461	    -154.776
	28.000000000	      -1.815	    -172.528	       3.805	      57.792	     -21.913	      -1.792	      -6.414	    -155.062
	28.500000000	      -1.792	    -172.989	       3.663	      56.891	     -21.847	      -1.708	      -6.335	    -155.266
	29.000000000	      -1.784	    -173.486	       3.501	      56.000	     -21.874	      -2.116	      -6.277	    -155.611
	29.500000000	      -1.783	    -173.916	       3.342	      55.200	     -21.943	      -2.578	      -6.229	    -155.909
	30.000000000	      -1.783	    -174.372	       3.186	      54.468	     -21.991	      -2.976	      -6.185	    -156.129
	30.500000000	      -1.781	    -174.787	       3.039	      53.685	     -22.033	      -3.141	      -6.137	    -156.385
	31.000000000	      -1.776	    -175.208	       2.893	      52.943	     -22.102	      -3.284	      -6.091	    -156.603
	31.500000000	      -1.762	    -175.609	       2.764	      52.152	     -22.166	      -3.105	      -6.049	    -156.870
	32.000000000	      -1.756	    -175.952	       2.623	      51.360	     -22.196	      -3.045	      -5.993	    -157.060
	32.500000000	      -1.760	    -176.383	       2.480	      50.511	     -22.155	      -3.261	      -5.928	    -157.280
	33.000000000	      -1.755	    -176.851	       2.337	      49.754	     -22.179	      -3.665	      -5.880	    -157.535
	33.500000000	      -1.746	    -177.225	       2.194	      49.016	     -22.251	      -3.773	      -5.835	    -157.834
	34.000000000	      -1.737	    -177.622	       2.054	      48.259	     -22.268	      -4.117	      -5.776	    -158.127
	34.500000000	      -1.741	    -178.034	       1.908	      47.508	     -22.334	      -4.488	      -5.715	    -158.354
	35.000000000	      -1.744	    -178.366	       1.770	      46.814	     -22.428	      -4.476	      -5.668	    -158.694
	35.500000000	      -1.734	    -178.688	       1.655	      46.099	     -22.471	      -4.234	      -5.633	    -158.829
	36.000000000	      -1.732	    -179.050	       1.527	      45.299	     -22.481	      -4.113	      -5.572	    -159.038
	36.500000000	      -1.721	    -179.358	       1.398	      44.551	     -22.474	      -4.645	      -5.516	    -159.275
	37.000000000	      -1.714	    -179.642	       1.266	      43.834	     -22.513	      -4.928	      -5.466	    -159.563
	37.500000000	      -1.719	    -179.981	       1.135	      43.126	     -22.630	      -5.307	      -5.434	    -159.846
	38.000000000	      -1.709	     179.683	       1.009	      42.434	     -22.643	      -5.389	      -5.380	    -160.023
	38.500000000	      -1.700	     179.340	       0.879	      41.747	     -22.734	      -5.546	      -5.329	    -160.419
	39.000000000	      -1.699	     179.069	       0.760	      41.099	     -22.816	      -5.360	      -5.276	    -160.692
	39.500000000	      -1.691	     178.906	       0.650	      40.472	     -22.800	      -5.152	      -5.230	    -160.936
	40.000000000	      -1.671	     178.539	       0.546	      39.698	     -22.853	      -5.220	      -5.167	    -161.176
	40.500000000	      -1.669	     178.092	       0.418	      38.950	     -22.866	      -5.446	      -5.117	    -161.411
	41.000000000	      -1.659	     177.749	       0.299	      38.208	     -22.906	      -5.665	      -5.078	    -161.759
	41.500000000	      -1.652	     177.507	       0.181	      37.558	     -22.976	      -5.908	      -5.044	    -161.942
	42.000000000	      -1.649	     177.241	       0.064	      36.899	     -23.018	      -6.155	      -4.991	    -162.108
	42.500000000	      -1.657	     176.865	      -0.055	      36.257	     -23.097	      -6.179	      -4.939	    -162.164
	43.000000000	      -1.656	     176.612	      -0.150	      35.636	     -23.189	      -5.840	      -4.883	    -162.485
	43.500000000	      -1.638	     176.328	      -0.261	      34.839	     -23.132	      -5.385	      -4.842	    -162.768
	44.000000000	      -1.650	     176.084	      -0.379	      34.151	     -23.185	      -5.847	      -4.795	    -163.119
	44.500000000	      -1.653	     175.690	      -0.499	      33.467	     -23.242	      -6.196	      -4.729	    -163.294
	45.000000000	      -1.660	     175.401	      -0.617	      32.839	     -23.259	      -6.240	      -4.670	    -163.604
	45.500000000	      -1.615	     175.004	      -0.888	      32.358	     -23.495	      -6.610	      -4.545	    -164.376
	46.000000000	      -1.599	     174.768	      -1.004	      31.745	     -23.599	      -7.157	      -4.506	    -164.660
	46.500000000	      -1.588	     174.446	      -1.102	      31.156	     -23.678	      -6.482	      -4.446	    -164.751
	47.000000000	      -1.582	     174.095	      -1.204	      30.520	     -23.700	      -6.456	      -4.381	    -164.974
	47.500000000	      -1.579	     173.809	      -1.310	      29.899	     -23.694	      -6.099	      -4.364	    -165.240
	48.000000000	      -1.561	     173.544	      -1.419	      29.172	     -23.665	      -6.009	      -4.322	    -165.401
	48.500000000	      -1.561	     173.206	      -1.526	      28.556	     -23.675	      -6.667	      -4.262	    -165.610
	49.000000000	      -1.565	     172.951	      -1.639	      27.966	     -23.808	      -6.529	      -4.229	    -165.833
	49.500000000	      -1.572	     172.779	      -1.740	      27.398	     -23.794	      -6.881	      -4.157	    -166.127
	50.000000000	      -1.559	     172.444	      -1.854	      26.856	     -23.877	      -7.210	      -4.133	    -166.519
	50.500000000	      -1.550	     172.263	      -1.937	      26.225	     -24.030	      -6.570	      -4.094	    -166.796
	51.000000000	      -1.539	     171.939	      -2.047	      25.652	     -24.145	      -6.249	      -4.094	    -167.140
	51.500000000	      -1.540	     171.744	      -2.146	      25.020	     -23.946	      -5.915	      -4.051	    -167.469
	52.000000000	      -1.522	     171.552	      -2.255	      24.485	     -23.996	      -6.220	      -4.015	    -167.707
	52.500000000	      -1.526	     171.232	      -2.359	      23.895	     -24.042	      -6.253	      -3.984	    -167.841
	53.000000000	      -1.516	     170.937	      -2.460	      23.305	     -24.091	      -6.360	      -3.939	    -167.896
	53.500000000	      -1.504	     170.745	      -2.539	      22.836	     -24.120	      -6.714	      -3.903	    -168.197
	54.000000000	      -1.498	     170.459	      -2.638	      22.296	     -24.137	      -6.209	      -3.844	    -168.350
	54.500000000	      -1.491	     170.081	      -2.716	      21.738	     -24.249	      -6.236	      -3.802	    -168.572
	55.000000000	      -1.501	     169.758	      -2.804	      21.091	     -24.234	      -6.311	      -3.755	    -168.698
	55.500000000	      -1.508	     169.478	      -2.880	      20.488	     -24.069	      -7.269	      -3.730	    -168.950
	56.000000000	      -1.496	     169.205	      -2.973	      19.866	     -24.378	      -6.838	      -3.691	    -169.376
	56.500000000	      -1.506	     168.983	      -3.060	      19.151	     -24.306	      -6.014	      -3.661	    -169.719
	57.000000000	      -1.486	     168.831	      -3.171	      18.695	     -24.204	      -7.832	      -3.650	    -169.914
	57.500000000	      -1.495	     168.533	      -3.280	      18.080	     -24.484	      -8.514	      -3.594	    -170.248
	58.000000000	      -1.481	     168.411	      -3.356	      17.500	     -24.597	      -6.990	      -3.563	    -170.516
	58.500000000	      -1.452	     168.240	      -3.438	      16.858	     -24.432	      -5.944	      -3.553	    -170.620
	59.000000000	      -1.442	     167.914	      -3.515	      16.237	     -24.366	      -8.471	      -3.489	    -170.884
	59.500000000	      -1.459	     167.647	      -3.604	      15.686	     -24.623	      -8.581	      -3.472	    -171.067
	60.000000000	      -1.448	     167.530	      -3.700	      15.015	     -24.483	      -7.476	      -3.470	    -171.411
	60.500000000	      -1.424	     167.314	      -3.792	      14.398	     -24.516	      -8.275	      -3.459	    -171.450
	61.000000000	      -1.405	     166.980	      -3.895	      13.959	     -24.717	      -7.829	      -3.432	    -171.638
	61.500000000	      -1.397	     166.737	      -3.963	      13.466	     -24.891	      -7.632	      -3.395	    -171.844
	62.000000000	      -1.370	     166.399	      -4.036	      13.034	     -24.714	      -7.478	      -3.373	    -171.981
	62.500000000	      -1.379	     166.138	      -4.148	      12.434	     -24.786	      -7.658	      -3.373	    -172.103
	63.000000000	      -1.372	     165.660	      -4.216	      11.729	     -24.891	      -6.620	      -3.301	    -172.067
	63.500000000	      -1.366	     165.542	      -4.280	      10.904	     -24.810	      -7.906	      -3.279	    -172.367
	64.000000000	      -1.355	     165.472	      -4.362	      10.262	     -24.913	      -7.853	      -3.230	    -172.381
	64.500000000	      -1.333	     165.223	      -4.433	       9.395	     -24.941	      -7.461	      -3.215	    -172.452
	65.000000000	      -1.353	     164.794	      -4.520	       8.711	     -24.960	     -10.028	      -3.148	    -172.481
	65.500000000	      -1.353	     164.528	      -4.640	       7.926	     -24.909	      -9.080	      -3.126	    -173.011
	66.000000000	      -1.351	     164.187	      -4.760	       7.260	     -25.105	      -8.097	      -3.107	    -173.330
	66.500000000	      -1.355	     164.104	      -4.862	       6.747	     -24.913	      -8.248	      -3.053	    -173.317
	67.000000000	      -1.399	     163.704	      -4.978	       5.987	     -25.103	      -7.083	      -3.066	    -173.434
	67.500000000	      -1.384	     163.161	      -5.107	       5.255	     -24.938	      -8.369	      -3.038	    -173.770
	68.000000000	      -1.412	     163.008	      -5.212	       4.711	     -24.929	      -8.409	      -3.055	    -174.112
	68.500000000	      -1.430	     162.821	      -5.309	       4.202	     -24.983	      -8.919	      -3.030	    -174.085
	69.000000000	      -1.451	     162.596	      -5.422	       3.700	     -25.012	      -9.479	      -2.974	    -174.273
	69.500000000	      -1.452	     162.337	      -5.532	       3.289	     -25.108	      -9.426	      -2.938	    -174.391
	70.000000000	      -1.443	     162.150	      -5.614	       2.852	     -25.147	      -9.077	      -2.916	    -174.452
	70.500000000	      -1.431	     161.956	      -5.708	       2.373	     -25.140	      -8.979	      -2.885	    -174.582
	71.000000000	      -1.433	     161.703	      -5.791	       1.996	     -25.118	      -9.172	      -2.843	    -174.662
	71.500000000	      -1.425	     161.390	      -5.892	       1.468	     -25.112	      -9.321	      -2.778	    -174.984
	72.000000000	      -1.413	     161.180	      -5.980	       0.937	     -25.083	      -9.935	      -2.783	    -175.132
	72.500000000	      -1.428	     160.875	      -6.057	       0.315	     -25.144	     -10.870	      -2.759	    -175.373
	73.000000000	      -1.447	     160.676	      -6.161	      -0.271	     -25.245	     -11.532	      -2.719	    -175.495
	73.500000000	      -1.468	     160.611	      -6.269	      -0.754	     -25.424	     -11.710	      -2.653	    -175.741
	74.000000000	      -1.472	     160.403	      -6.359	      -1.243	     -25.514	     -11.520	      -2.653	    -176.272
	74.500000000	      -1.492	     160.217	      -6.448	      -1.767	     -25.607	     -11.351	      -2.674	    -176.492
	75.000000000	      -1.518	     160.098	      -6.541	      -2.346	     -25.684	     -11.391	      -2.670	    -176.582
	75.500000000	      -1.544	     160.032	      -6.666	      -2.923	     -25.914	     -11.445	      -2.666	    -176.672
	76.000000000	      -1.554	     160.125	      -6.784	      -3.343	     -26.232	     -10.404	      -2.681	    -176.641
	76.500000000	      -1.546	     160.261	      -6.919	      -3.550	     -26.445	      -7.321	      -2.666	    -176.522
	77.000000000	      -1.527	     160.276	      -7.013	      -3.646	     -26.260	      -3.615	      -2.602	    -176.335
	77.500000000	      -1.478	     160.146	      -7.052	      -3.691	     -25.751	      -1.553	      -2.518	    -176.341
	78.000000000	      -1.386	     159.886	      -7.080	      -3.913	     -25.285	      -1.435	      -2.474	    -176.446
	78.500000000	      -1.337	     159.462	      -7.138	      -4.472	     -24.956	      -2.643	      -2.417	    -176.702
	79.000000000	      -1.331	     158.827	      -7.193	      -4.949	     -24.767	      -3.840	      -2.360	    -176.977
	79.500000000	      -1.363	     158.366	      -7.229	      -5.614	     -24.514	      -5.067	      -2.319	    -177.150
