!File name = EG0520U_1010_6x60_2SDBCB2EV_1915934D06_RC2952_3.5Vd_18mA.s2p
!Base file name = EG0520U_1010_6x60_2SDBCB2EV_1915934D06_RC2952
!Date = 8/23/2019
!Time = 1:15 PM
!Test duration(min) = 0.15
!Test = S-Parameters
!MPTS version = 8.91.5
!State File = C:\Data\PNA\20190821205423\S-Parameters_2019-08-23.sta
!Cal File = 
!ComputerName = CMPE-LAB-6
!Comments = 
!Attenuation = 0
!Z0 = 50
!Input Power(dBm) = -13.00
!Device ID = EG0520U_1010_6x60_2SDBCB2EV
!Row = 29
!Column = 52
!Technology = QPHT09
!Lot/Wafer = 1915934D06
!Gate Size = 360
!Mask = EG0520
!Cal Standards = GaAs BCB
!Cal Kit = EG2306
!Job Number = 20190821205423
!Device Type = FET
!set_Vg(v) = -1.500
!set_Vd(v) = 3.500
!set_Vd(mA) = 18.000
!file_name = EG0520U_1010_6x60_2SDBCB2EV_1915934D06_RC2952_3.5Vd_18mA.s2p
!Vd(V) = 3.500
!Vd(mA) = 17.919
!Vg(V) = -0.621
!Vg(mA) = -0.006
# GHz   S   DB   R   50
!%	Freq(GHz)	     s11(dB)	    s11(deg)	     s21(dB)	    s21(deg)	     s12(dB)	    s12(deg)	     s22(dB)	    s22(deg)
	0.500000000	      -0.065	     -12.697	      19.905	     172.004	     -37.620	      81.247	      -6.831	     -11.900
	1.000000000	      -0.148	     -25.167	      19.601	     164.071	     -31.793	      74.732	      -6.908	     -23.034
	1.500000000	      -0.182	     -37.102	      19.320	     157.597	     -28.564	      68.075	      -6.957	     -33.949
	2.000000000	      -0.330	     -48.221	      19.089	     150.407	     -26.467	      61.628	      -7.070	     -44.870
	2.500000000	      -0.424	     -58.731	      18.717	     144.332	     -25.016	      56.126	      -7.300	     -53.985
	3.000000000	      -0.809	     -65.967	      18.092	     139.036	     -24.146	      51.755	      -7.674	     -57.814
	3.500000000	      -0.930	     -74.530	      17.638	     134.045	     -23.309	      47.343	      -7.834	     -65.060
	4.000000000	      -1.043	     -82.166	      17.150	     129.513	     -22.667	      43.362	      -7.983	     -71.617
	4.500000000	      -1.180	     -89.001	      16.639	     125.154	     -22.172	      39.637	      -8.122	     -77.823
	5.000000000	      -1.263	     -95.220	      16.145	     121.442	     -21.784	      36.439	      -8.261	     -83.184
	5.500000000	      -1.354	    -100.897	      15.660	     117.878	     -21.481	      33.607	      -8.408	     -88.011
	6.000000000	      -1.432	    -106.069	      15.184	     114.623	     -21.219	      30.981	      -8.492	     -92.306
	6.500000000	      -1.493	    -110.665	      14.716	     111.704	     -21.014	      28.592	      -8.572	     -96.195
	7.000000000	      -1.554	    -114.865	      14.262	     108.911	     -20.842	      26.445	      -8.631	     -99.672
	7.500000000	      -1.599	    -118.681	      13.818	     106.348	     -20.710	      24.446	      -8.679	    -102.865
	8.000000000	      -1.625	    -121.918	      13.406	     104.082	     -20.579	      22.833	      -8.729	    -105.115
	8.500000000	      -1.665	    -125.176	      12.992	     101.831	     -20.481	      21.128	      -8.766	    -107.729
	9.000000000	      -1.706	    -128.077	      12.581	      99.717	     -20.392	      19.507	      -8.782	    -110.076
	9.500000000	      -1.736	    -130.841	      12.199	      97.643	     -20.327	      17.977	      -8.791	    -112.212
	10.000000000	      -1.760	    -133.383	      11.823	      95.723	     -20.284	      16.535	      -8.799	    -114.236
	10.500000000	      -1.791	    -135.761	      11.460	      93.841	     -20.256	      15.288	      -8.806	    -116.029
	11.000000000	      -1.809	    -137.928	      11.111	      92.114	     -20.221	      14.107	      -8.793	    -117.657
	11.500000000	      -1.832	    -139.973	      10.768	      90.415	     -20.194	      12.950	      -8.774	    -119.186
	12.000000000	      -1.848	    -141.898	      10.443	      88.802	     -20.183	      11.907	      -8.745	    -120.557
	12.500000000	      -1.856	    -143.702	      10.127	      87.268	     -20.168	      10.877	      -8.707	    -121.977
	13.000000000	      -1.869	    -145.389	       9.817	      85.705	     -20.165	       9.908	      -8.672	    -123.266
	13.500000000	      -1.882	    -147.008	       9.517	      84.246	     -20.174	       8.928	      -8.631	    -124.352
	14.000000000	      -1.895	    -148.537	       9.225	      82.826	     -20.186	       8.080	      -8.586	    -125.376
	14.500000000	      -1.901	    -149.930	       8.942	      81.444	     -20.200	       7.292	      -8.546	    -126.443
	15.000000000	      -1.906	    -151.188	       8.663	      80.113	     -20.213	       6.591	      -8.505	    -127.384
	15.500000000	      -1.914	    -152.429	       8.394	      78.791	     -20.220	       5.891	      -8.452	    -128.202
	16.000000000	      -1.918	    -153.659	       8.132	      77.500	     -20.221	       5.138	      -8.388	    -128.992
	16.500000000	      -1.921	    -154.851	       7.876	      76.226	     -20.239	       4.373	      -8.330	    -129.724
	17.000000000	      -1.921	    -155.962	       7.631	      74.999	     -20.269	       3.687	      -8.274	    -130.467
	17.500000000	      -1.928	    -156.977	       7.383	      73.778	     -20.291	       3.056	      -8.209	    -131.257
	18.000000000	      -1.937	    -157.977	       7.150	      72.589	     -20.326	       2.364	      -8.148	    -131.997
	18.500000000	      -1.937	    -158.949	       6.918	      71.434	     -20.345	       1.724	      -8.075	    -132.633
	19.000000000	      -1.937	    -159.893	       6.688	      70.265	     -20.388	       1.111	      -8.012	    -133.241
	19.500000000	      -1.936	    -160.781	       6.466	      69.149	     -20.445	       0.594	      -7.953	    -133.828
	20.000000000	      -1.940	    -161.604	       6.251	      68.053	     -20.492	       0.255	      -7.895	    -134.375
	20.500000000	      -1.942	    -162.405	       6.045	      66.954	     -20.504	      -0.082	      -7.816	    -134.894
	21.000000000	      -1.940	    -163.221	       5.836	      65.858	     -20.523	      -0.652	      -7.739	    -135.479
	21.500000000	      -1.934	    -164.008	       5.631	      64.775	     -20.555	      -1.205	      -7.665	    -135.977
	22.000000000	      -1.929	    -164.663	       5.430	      63.734	     -20.597	      -1.754	      -7.596	    -136.473
	22.500000000	      -1.922	    -165.353	       5.233	      62.658	     -20.621	      -2.263	      -7.530	    -137.015
	23.000000000	      -1.923	    -166.052	       5.036	      61.616	     -20.672	      -2.832	      -7.457	    -137.624
	23.500000000	      -1.923	    -166.786	       4.842	      60.625	     -20.766	      -3.352	      -7.389	    -138.215
	24.000000000	      -1.926	    -167.448	       4.657	      59.666	     -20.844	      -3.561	      -7.329	    -138.633
	24.500000000	      -1.916	    -167.961	       4.479	      58.675	     -20.876	      -3.746	      -7.260	    -138.938
	25.000000000	      -1.899	    -168.484	       4.301	      57.646	     -20.884	      -4.128	      -7.189	    -139.306
	25.500000000	      -1.892	    -169.108	       4.124	      56.673	     -20.933	      -4.453	      -7.105	    -139.786
	26.000000000	      -1.895	    -169.819	       3.942	      55.695	     -20.975	      -4.931	      -7.012	    -140.311
	26.500000000	      -1.892	    -170.379	       3.767	      54.730	     -21.023	      -5.336	      -6.938	    -140.771
	27.000000000	      -1.885	    -170.820	       3.596	      53.795	     -21.059	      -5.789	      -6.870	    -141.200
	27.500000000	      -1.890	    -171.266	       3.424	      52.947	     -21.202	      -6.193	      -6.822	    -141.443
	28.000000000	      -1.895	    -171.824	       3.268	      52.065	     -21.288	      -6.155	      -6.747	    -141.925
	28.500000000	      -1.874	    -172.273	       3.120	      51.098	     -21.295	      -6.088	      -6.657	    -142.355
	29.000000000	      -1.861	    -172.756	       2.956	      50.135	     -21.311	      -6.451	      -6.586	    -142.826
	29.500000000	      -1.850	    -173.211	       2.797	      49.206	     -21.352	      -6.765	      -6.509	    -143.211
	30.000000000	      -1.849	    -173.654	       2.640	      48.358	     -21.415	      -7.192	      -6.449	    -143.554
	30.500000000	      -1.846	    -174.139	       2.489	      47.457	     -21.449	      -7.525	      -6.383	    -143.981
	31.000000000	      -1.834	    -174.629	       2.336	      46.565	     -21.510	      -7.964	      -6.319	    -144.400
	31.500000000	      -1.819	    -175.053	       2.196	      45.726	     -21.630	      -7.918	      -6.258	    -144.796
	32.000000000	      -1.815	    -175.452	       2.047	      44.854	     -21.658	      -7.722	      -6.182	    -145.111
	32.500000000	      -1.827	    -175.841	       1.904	      43.922	     -21.658	      -7.938	      -6.097	    -145.407
	33.000000000	      -1.824	    -176.326	       1.757	      43.082	     -21.677	      -8.012	      -6.028	    -145.863
	33.500000000	      -1.812	    -176.732	       1.609	      42.250	     -21.744	      -8.466	      -5.963	    -146.325
	34.000000000	      -1.797	    -177.071	       1.465	      41.422	     -21.811	      -8.697	      -5.893	    -146.845
	34.500000000	      -1.796	    -177.400	       1.318	      40.494	     -21.882	      -9.369	      -5.814	    -147.173
	35.000000000	      -1.790	    -177.833	       1.175	      39.713	     -21.965	      -9.540	      -5.752	    -147.727
	35.500000000	      -1.781	    -178.201	       1.057	      38.931	     -22.043	      -9.271	      -5.700	    -147.974
	36.000000000	      -1.764	    -178.574	       0.926	      38.034	     -22.012	      -9.222	      -5.620	    -148.395
	36.500000000	      -1.748	    -178.874	       0.789	      37.176	     -22.078	      -9.912	      -5.550	    -148.782
	37.000000000	      -1.745	    -179.173	       0.650	      36.368	     -22.071	     -10.087	      -5.488	    -149.181
	37.500000000	      -1.747	    -179.622	       0.509	      35.546	     -22.183	     -10.385	      -5.444	    -149.551
	38.000000000	      -1.752	     179.996	       0.368	      34.796	     -22.245	     -10.739	      -5.380	    -149.865
	38.500000000	      -1.746	     179.711	       0.230	      34.091	     -22.399	     -11.092	      -5.320	    -150.328
	39.000000000	      -1.732	     179.508	       0.115	      33.404	     -22.444	     -10.613	      -5.247	    -150.732
	39.500000000	      -1.724	     179.280	      -0.004	      32.644	     -22.511	     -10.618	      -5.180	    -151.134
	40.000000000	      -1.713	     178.841	      -0.118	      31.812	     -22.525	     -10.703	      -5.109	    -151.513
	40.500000000	      -1.707	     178.438	      -0.247	      31.022	     -22.666	     -11.017	      -5.032	    -151.876
	41.000000000	      -1.681	     178.116	      -0.365	      30.183	     -22.647	     -10.856	      -4.974	    -152.397
	41.500000000	      -1.671	     177.934	      -0.483	      29.448	     -22.645	     -11.326	      -4.938	    -152.670
	42.000000000	      -1.670	     177.630	      -0.608	      28.641	     -22.722	     -11.706	      -4.874	    -152.907
	42.500000000	      -1.682	     177.224	      -0.734	      27.919	     -22.821	     -12.055	      -4.814	    -153.100
	43.000000000	      -1.679	     177.006	      -0.842	      27.282	     -22.963	     -11.526	      -4.754	    -153.419
	43.500000000	      -1.661	     176.762	      -0.961	      26.392	     -22.961	     -11.688	      -4.688	    -153.903
	44.000000000	      -1.667	     176.444	      -1.084	      25.665	     -22.986	     -11.324	      -4.616	    -154.398
	44.500000000	      -1.671	     175.983	      -1.215	      24.875	     -22.989	     -11.720	      -4.562	    -154.779
	45.000000000	      -1.683	     175.706	      -1.337	      24.163	     -23.063	     -11.788	      -4.505	    -155.233
	45.500000000	      -1.635	     175.339	      -1.620	      23.576	     -23.299	     -12.152	      -4.377	    -156.307
	46.000000000	      -1.613	     175.140	      -1.743	      22.927	     -23.394	     -12.720	      -4.337	    -156.709
	46.500000000	      -1.596	     174.808	      -1.849	      22.273	     -23.545	     -12.090	      -4.262	    -156.894
	47.000000000	      -1.594	     174.429	      -1.955	      21.544	     -23.538	     -11.940	      -4.213	    -157.170
	47.500000000	      -1.589	     174.161	      -2.072	      20.822	     -23.553	     -11.282	      -4.148	    -157.404
	48.000000000	      -1.566	     173.840	      -2.191	      20.121	     -23.662	     -11.514	      -4.125	    -157.837
	48.500000000	      -1.563	     173.562	      -2.306	      19.518	     -23.566	     -11.397	      -4.080	    -158.116
	49.000000000	      -1.575	     173.366	      -2.417	      18.942	     -23.725	     -11.898	      -4.002	    -158.436
	49.500000000	      -1.583	     173.108	      -2.521	      18.262	     -23.934	     -12.500	      -3.944	    -158.548
	50.000000000	      -1.566	     172.882	      -2.618	      17.786	     -23.855	     -12.644	      -3.889	    -159.016
	50.500000000	      -1.552	     172.599	      -2.691	      16.991	     -24.102	     -11.913	      -3.873	    -159.547
	51.000000000	      -1.539	     172.300	      -2.814	      16.335	     -24.034	     -11.391	      -3.824	    -159.865
	51.500000000	      -1.536	     172.147	      -2.914	      15.546	     -23.973	     -11.038	      -3.766	    -160.337
	52.000000000	      -1.525	     171.940	      -3.024	      14.805	     -23.933	     -11.620	      -3.716	    -160.623
	52.500000000	      -1.514	     171.556	      -3.135	      14.132	     -24.051	     -11.454	      -3.679	    -160.815
	53.000000000	      -1.511	     171.197	      -3.255	      13.382	     -24.067	     -11.781	      -3.607	    -161.039
	53.500000000	      -1.510	     171.100	      -3.353	      12.872	     -24.066	     -11.890	      -3.568	    -161.436
	54.000000000	      -1.492	     170.867	      -3.465	      12.347	     -24.243	     -11.914	      -3.496	    -161.782
	54.500000000	      -1.492	     170.478	      -3.564	      11.608	     -24.229	     -12.771	      -3.448	    -162.032
	55.000000000	      -1.494	     170.072	      -3.654	      11.002	     -24.192	     -11.974	      -3.409	    -162.310
	55.500000000	      -1.497	     169.758	      -3.739	      10.370	     -24.210	     -11.748	      -3.370	    -162.768
	56.000000000	      -1.481	     169.487	      -3.842	       9.647	     -24.343	     -12.954	      -3.332	    -163.263
	56.500000000	      -1.488	     169.394	      -3.952	       9.053	     -24.482	     -13.208	      -3.306	    -163.973
	57.000000000	      -1.474	     169.142	      -4.067	       8.368	     -24.541	     -13.620	      -3.320	    -164.145
	57.500000000	      -1.484	     169.001	      -4.194	       7.753	     -24.534	     -13.458	      -3.255	    -164.398
	58.000000000	      -1.455	     168.936	      -4.283	       7.221	     -24.697	     -14.043	      -3.216	    -164.699
	58.500000000	      -1.440	     168.740	      -4.381	       6.739	     -24.848	     -13.042	      -3.164	    -165.055
	59.000000000	      -1.411	     168.306	      -4.457	       5.956	     -24.756	     -12.631	      -3.117	    -165.212
	59.500000000	      -1.447	     168.202	      -4.546	       5.417	     -24.942	     -13.990	      -3.073	    -165.678
	60.000000000	      -1.424	     168.037	      -4.656	       4.790	     -24.846	     -12.528	      -3.100	    -166.024
	60.500000000	      -1.388	     167.840	      -4.759	       4.264	     -25.111	     -13.172	      -3.087	    -166.123
	61.000000000	      -1.353	     167.483	      -4.848	       3.691	     -24.981	     -12.437	      -3.039	    -166.304
	61.500000000	      -1.345	     167.277	      -4.944	       3.233	     -25.203	     -13.914	      -3.003	    -166.582
	62.000000000	      -1.331	     166.912	      -4.992	       2.650	     -25.163	     -11.837	      -2.984	    -166.755
	62.500000000	      -1.358	     166.750	      -5.083	       1.882	     -25.229	     -10.171	      -2.969	    -166.840
	63.000000000	      -1.318	     166.253	      -5.157	       1.293	     -25.478	     -10.959	      -2.913	    -166.895
	63.500000000	      -1.313	     166.092	      -5.229	       0.492	     -25.326	      -9.018	      -2.849	    -167.401
	64.000000000	      -1.318	     166.172	      -5.293	      -0.174	     -25.218	     -10.584	      -2.785	    -167.181
	64.500000000	      -1.285	     166.134	      -5.364	      -1.010	     -25.377	     -10.075	      -2.740	    -167.284
	65.000000000	      -1.316	     165.732	      -5.475	      -2.006	     -25.603	     -10.386	      -2.686	    -167.525
	65.500000000	      -1.297	     165.301	      -5.601	      -2.612	     -25.245	     -12.595	      -2.667	    -168.477
	66.000000000	      -1.290	     164.966	      -5.738	      -3.542	     -25.437	     -11.613	      -2.633	    -168.987
	66.500000000	      -1.321	     164.770	      -5.819	      -4.358	     -25.319	     -12.769	      -2.596	    -168.864
	67.000000000	      -1.370	     164.328	      -5.944	      -4.999	     -25.135	      -9.936	      -2.617	    -169.046
	67.500000000	      -1.351	     163.746	      -6.116	      -5.971	     -25.298	     -11.069	      -2.590	    -169.521
	68.000000000	      -1.401	     163.568	      -6.215	      -6.604	     -25.323	     -11.368	      -2.622	    -169.903
	68.500000000	      -1.446	     163.349	      -6.318	      -7.134	     -25.315	     -11.596	      -2.582	    -170.090
	69.000000000	      -1.476	     163.197	      -6.454	      -7.718	     -25.284	     -12.225	      -2.524	    -170.329
	69.500000000	      -1.469	     163.049	      -6.572	      -8.151	     -25.400	     -12.280	      -2.504	    -170.534
	70.000000000	      -1.445	     162.903	      -6.674	      -8.618	     -25.487	     -11.878	      -2.474	    -170.644
	70.500000000	      -1.421	     162.749	      -6.776	      -9.047	     -25.479	     -11.613	      -2.440	    -170.805
	71.000000000	      -1.406	     162.565	      -6.835	      -9.509	     -25.505	     -11.836	      -2.404	    -170.981
	71.500000000	      -1.340	     162.369	      -6.962	     -10.107	     -25.497	     -12.266	      -2.327	    -171.181
	72.000000000	      -1.348	     162.182	      -7.079	     -10.495	     -25.492	     -12.537	      -2.335	    -171.570
	72.500000000	      -1.368	     161.726	      -7.192	     -11.186	     -25.539	     -13.350	      -2.317	    -171.863
	73.000000000	      -1.399	     161.561	      -7.300	     -11.773	     -25.656	     -13.962	      -2.281	    -172.073
	73.500000000	      -1.422	     161.444	      -7.409	     -12.296	     -25.841	     -14.157	      -2.217	    -172.397
	74.000000000	      -1.431	     161.171	      -7.526	     -12.737	     -25.983	     -13.876	      -2.210	    -172.963
	74.500000000	      -1.464	     160.892	      -7.611	     -13.083	     -26.099	     -13.443	      -2.237	    -173.235
	75.000000000	      -1.506	     160.843	      -7.714	     -13.634	     -26.200	     -13.360	      -2.228	    -173.334
	75.500000000	      -1.543	     160.858	      -7.839	     -14.146	     -26.406	     -13.059	      -2.224	    -173.469
	76.000000000	      -1.548	     161.027	      -7.960	     -14.482	     -26.743	     -11.669	      -2.222	    -173.582
	76.500000000	      -1.540	     161.205	      -8.091	     -14.552	     -26.992	      -8.116	      -2.208	    -173.525
	77.000000000	      -1.510	     161.198	      -8.167	     -14.553	     -26.766	      -3.828	      -2.150	    -173.501
	77.500000000	      -1.430	     161.098	      -8.184	     -14.484	     -26.191	      -1.213	      -2.072	    -173.645
	78.000000000	      -1.342	     160.791	      -8.174	     -14.765	     -25.568	      -0.797	      -2.038	    -173.827
	78.500000000	      -1.299	     160.281	      -8.189	     -15.557	     -25.116	      -2.180	      -2.003	    -174.101
	79.000000000	      -1.327	     159.631	      -8.249	     -16.419	     -24.866	      -4.280	      -1.939	    -174.450
	79.500000000	      -1.358	     159.216	      -8.305	     -17.273	     -24.659	      -6.077	      -1.909	    -174.720
