!File name = EG0520U_1010_6x60_2SDBCB2EV_1915934D06_RC4034_2.5Vd_36mA.s2p
!Base file name = EG0520U_1010_6x60_2SDBCB2EV_1915934D06_RC4034
!Date = 8/23/2019
!Time = 12:56 PM
!Test duration(min) = 0.15
!Test = S-Parameters
!MPTS version = 8.91.5
!State File = C:\Data\PNA\20190821205423\S-Parameters_2019-08-23.sta
!Cal File = 
!ComputerName = CMPE-LAB-6
!Comments = 
!Attenuation = 0
!Z0 = 50
!Input Power(dBm) = -13.00
!Device ID = EG0520U_1010_6x60_2SDBCB2EV
!Row = 40
!Column = 34
!Technology = QPHT09
!Lot/Wafer = 1915934D06
!Gate Size = 360
!Mask = EG0520
!Cal Standards = GaAs BCB
!Cal Kit = EG2306
!Job Number = 20190821205423
!Device Type = FET
!set_Vg(v) = -1.500
!set_Vd(v) = 2.500
!set_Vd(mA) = 36.000
!file_name = EG0520U_1010_6x60_2SDBCB2EV_1915934D06_RC4034_2.5Vd_36mA.s2p
!Vd(V) = 2.500
!Vd(mA) = 36.023
!Vg(V) = -0.512
!Vg(mA) = -0.001
# GHz   S   DB   R   50
!%	Freq(GHz)	     s11(dB)	    s11(deg)	     s21(dB)	    s21(deg)	     s12(dB)	    s12(deg)	     s22(dB)	    s22(deg)
	0.500000000	      -0.037	     -14.339	      21.597	     171.333	     -38.547	      81.454	     -10.757	     -19.132
	1.000000000	      -0.121	     -28.373	      21.215	     162.789	     -32.763	      73.964	     -10.534	     -36.306
	1.500000000	      -0.164	     -41.635	      20.881	     155.749	     -29.596	      66.607	     -10.113	     -52.045
	2.000000000	      -0.312	     -53.789	      20.598	     148.292	     -27.579	      59.782	      -9.696	     -66.736
	2.500000000	      -0.408	     -65.037	      20.183	     141.975	     -26.196	      54.036	      -9.467	     -78.227
	3.000000000	      -0.807	     -72.688	      19.497	     136.927	     -25.364	      49.764	      -9.713	     -83.272
	3.500000000	      -0.927	     -81.485	      18.962	     131.853	     -24.597	      45.329	      -9.483	     -91.569
	4.000000000	      -1.031	     -89.247	      18.406	     127.474	     -24.018	      41.442	      -9.282	     -98.644
	4.500000000	      -1.142	     -96.155	      17.846	     123.293	     -23.580	      37.894	      -9.102	    -104.987
	5.000000000	      -1.217	    -102.278	      17.304	     119.742	     -23.234	      34.857	      -8.969	    -110.266
	5.500000000	      -1.291	    -107.851	      16.773	     116.388	     -22.965	      32.185	      -8.866	    -114.892
	6.000000000	      -1.355	    -112.802	      16.259	     113.359	     -22.739	      29.755	      -8.752	    -118.795
	6.500000000	      -1.406	    -117.214	      15.757	     110.663	     -22.564	      27.581	      -8.659	    -122.229
	7.000000000	      -1.452	    -121.200	      15.275	     108.097	     -22.416	      25.604	      -8.574	    -125.232
	7.500000000	      -1.484	    -124.785	      14.808	     105.769	     -22.302	      23.853	      -8.495	    -127.906
	8.000000000	      -1.498	    -127.831	      14.379	     103.715	     -22.175	      22.399	      -8.469	    -129.744
	8.500000000	      -1.529	    -130.869	      13.946	     101.690	     -22.097	      20.877	      -8.410	    -131.894
	9.000000000	      -1.559	    -133.595	      13.523	      99.797	     -22.029	      19.472	      -8.352	    -133.768
	9.500000000	      -1.580	    -136.144	      13.127	      97.949	     -21.974	      18.127	      -8.297	    -135.458
	10.000000000	      -1.595	    -138.489	      12.742	      96.241	     -21.939	      16.900	      -8.246	    -137.027
	10.500000000	      -1.617	    -140.695	      12.371	      94.567	     -21.916	      15.833	      -8.198	    -138.472
	11.000000000	      -1.629	    -142.695	      12.014	      93.031	     -21.895	      14.847	      -8.150	    -139.732
	11.500000000	      -1.648	    -144.600	      11.664	      91.521	     -21.879	      13.834	      -8.109	    -140.854
	12.000000000	      -1.661	    -146.357	      11.332	      90.089	     -21.871	      13.011	      -8.060	    -141.855
	12.500000000	      -1.670	    -147.992	      11.006	      88.727	     -21.862	      12.156	      -8.008	    -142.892
	13.000000000	      -1.679	    -149.528	      10.693	      87.377	     -21.860	      11.409	      -7.959	    -143.805
	13.500000000	      -1.686	    -151.005	      10.390	      86.097	     -21.867	      10.568	      -7.906	    -144.570
	14.000000000	      -1.698	    -152.419	      10.094	      84.840	     -21.882	       9.900	      -7.859	    -145.291
	14.500000000	      -1.703	    -153.678	       9.808	      83.627	     -21.894	       9.320	      -7.815	    -146.021
	15.000000000	      -1.708	    -154.819	       9.528	      82.463	     -21.906	       8.730	      -7.776	    -146.742
	15.500000000	      -1.713	    -155.960	       9.257	      81.302	     -21.917	       8.164	      -7.730	    -147.307
	16.000000000	      -1.717	    -157.093	       8.993	      80.172	     -21.926	       7.564	      -7.676	    -147.849
	16.500000000	      -1.722	    -158.174	       8.736	      79.064	     -21.947	       7.002	      -7.630	    -148.325
	17.000000000	      -1.723	    -159.187	       8.487	      77.983	     -21.977	       6.466	      -7.587	    -148.835
	17.500000000	      -1.730	    -160.109	       8.239	      76.929	     -21.998	       6.017	      -7.537	    -149.374
	18.000000000	      -1.738	    -161.009	       8.003	      75.902	     -22.033	       5.489	      -7.487	    -149.873
	18.500000000	      -1.740	    -161.890	       7.771	      74.892	     -22.050	       5.048	      -7.431	    -150.262
	19.000000000	      -1.739	    -162.730	       7.543	      73.892	     -22.087	       4.546	      -7.381	    -150.657
	19.500000000	      -1.736	    -163.536	       7.323	      72.919	     -22.146	       4.148	      -7.338	    -151.055
	20.000000000	      -1.743	    -164.308	       7.107	      71.968	     -22.204	       3.912	      -7.303	    -151.419
	20.500000000	      -1.748	    -165.030	       6.898	      71.023	     -22.224	       3.832	      -7.251	    -151.704
	21.000000000	      -1.747	    -165.719	       6.693	      70.083	     -22.240	       3.551	      -7.194	    -152.040
	21.500000000	      -1.739	    -166.454	       6.490	      69.143	     -22.256	       3.248	      -7.139	    -152.325
	22.000000000	      -1.732	    -167.076	       6.293	      68.228	     -22.283	       2.794	      -7.083	    -152.643
	22.500000000	      -1.729	    -167.737	       6.095	      67.291	     -22.295	       2.336	      -7.035	    -152.970
	23.000000000	      -1.730	    -168.391	       5.900	      66.397	     -22.350	       1.954	      -6.985	    -153.347
	23.500000000	      -1.730	    -169.033	       5.708	      65.534	     -22.434	       1.602	      -6.941	    -153.772
	24.000000000	      -1.738	    -169.645	       5.523	      64.704	     -22.528	       1.630	      -6.909	    -154.004
	24.500000000	      -1.732	    -170.097	       5.350	      63.852	     -22.521	       1.664	      -6.861	    -154.092
	25.000000000	      -1.721	    -170.613	       5.174	      62.955	     -22.507	       1.466	      -6.804	    -154.256
	25.500000000	      -1.721	    -171.166	       4.995	      62.113	     -22.560	       1.182	      -6.749	    -154.557
	26.000000000	      -1.723	    -171.781	       4.820	      61.285	     -22.594	       0.767	      -6.682	    -154.860
	26.500000000	      -1.722	    -172.245	       4.650	      60.444	     -22.631	       0.503	      -6.622	    -155.118
	27.000000000	      -1.716	    -172.684	       4.484	      59.659	     -22.692	       0.072	      -6.576	    -155.427
	27.500000000	      -1.720	    -173.108	       4.321	      58.926	     -22.804	       0.302	      -6.550	    -155.509
	28.000000000	      -1.721	    -173.591	       4.168	      58.152	     -22.906	       0.382	      -6.502	    -155.800
	28.500000000	      -1.699	    -174.040	       4.026	      57.262	     -22.804	       0.772	      -6.422	    -155.962
	29.000000000	      -1.690	    -174.516	       3.861	      56.386	     -22.834	       0.342	      -6.366	    -156.288
	29.500000000	      -1.693	    -174.944	       3.701	      55.614	     -22.877	      -0.054	      -6.315	    -156.558
	30.000000000	      -1.689	    -175.387	       3.546	      54.891	     -22.965	      -0.383	      -6.267	    -156.766
	30.500000000	      -1.687	    -175.807	       3.398	      54.113	     -22.998	      -0.466	      -6.220	    -157.013
	31.000000000	      -1.679	    -176.224	       3.250	      53.384	     -23.026	      -0.463	      -6.174	    -157.243
	31.500000000	      -1.669	    -176.616	       3.121	      52.660	     -23.103	      -0.314	      -6.128	    -157.459
	32.000000000	      -1.664	    -176.969	       2.980	      51.836	     -23.121	      -0.292	      -6.073	    -157.630
	32.500000000	      -1.668	    -177.405	       2.834	      50.995	     -23.111	      -0.392	      -6.007	    -157.822
	33.000000000	      -1.663	    -177.816	       2.693	      50.245	     -23.110	      -0.552	      -5.960	    -158.102
	33.500000000	      -1.655	    -178.203	       2.549	      49.526	     -23.207	      -0.825	      -5.912	    -158.365
	34.000000000	      -1.648	    -178.574	       2.409	      48.740	     -23.269	      -0.929	      -5.857	    -158.682
	34.500000000	      -1.650	    -178.975	       2.262	      48.031	     -23.283	      -1.387	      -5.802	    -158.826
	35.000000000	      -1.657	    -179.307	       2.123	      47.354	     -23.377	      -1.435	      -5.749	    -159.164
	35.500000000	      -1.646	    -179.642	       2.007	      46.648	     -23.416	      -0.958	      -5.711	    -159.306
	36.000000000	      -1.644	    -179.971	       1.880	      45.871	     -23.395	      -0.969	      -5.654	    -159.502
	36.500000000	      -1.633	     179.733	       1.749	      45.128	     -23.384	      -1.274	      -5.587	    -159.753
	37.000000000	      -1.628	     179.450	       1.616	      44.431	     -23.450	      -1.487	      -5.540	    -160.034
	37.500000000	      -1.626	     179.120	       1.487	      43.718	     -23.524	      -1.767	      -5.504	    -160.259
	38.000000000	      -1.619	     178.769	       1.359	      43.045	     -23.610	      -1.741	      -5.452	    -160.490
	38.500000000	      -1.612	     178.443	       1.228	      42.374	     -23.650	      -2.207	      -5.401	    -160.825
	39.000000000	      -1.610	     178.181	       1.110	      41.720	     -23.740	      -1.666	      -5.349	    -161.103
	39.500000000	      -1.605	     178.015	       0.997	      41.121	     -23.791	      -1.632	      -5.302	    -161.349
	40.000000000	      -1.590	     177.622	       0.893	      40.361	     -23.743	      -1.262	      -5.246	    -161.547
	40.500000000	      -1.580	     177.201	       0.765	      39.619	     -23.813	      -1.616	      -5.184	    -161.798
	41.000000000	      -1.572	     176.845	       0.646	      38.894	     -23.891	      -1.481	      -5.148	    -162.130
	41.500000000	      -1.567	     176.642	       0.529	      38.240	     -23.833	      -2.270	      -5.113	    -162.288
	42.000000000	      -1.563	     176.356	       0.411	      37.582	     -23.933	      -2.002	      -5.056	    -162.413
	42.500000000	      -1.580	     175.986	       0.291	      36.963	     -24.020	      -2.135	      -5.010	    -162.524
	43.000000000	      -1.573	     175.739	       0.195	      36.349	     -24.064	      -1.569	      -4.949	    -162.768
	43.500000000	      -1.561	     175.505	       0.079	      35.568	     -24.099	      -0.791	      -4.915	    -163.093
	44.000000000	      -1.561	     175.220	      -0.034	      34.879	     -24.026	      -1.665	      -4.860	    -163.383
	44.500000000	      -1.569	     174.809	      -0.161	      34.206	     -24.098	      -1.425	      -4.795	    -163.609
	45.000000000	      -1.581	     174.531	      -0.275	      33.562	     -24.092	      -1.611	      -4.742	    -163.925
	45.500000000	      -1.537	     174.146	      -0.551	      33.129	     -24.317	      -1.687	      -4.608	    -164.644
	46.000000000	      -1.522	     173.952	      -0.667	      32.556	     -24.400	      -2.075	      -4.565	    -164.915
	46.500000000	      -1.504	     173.641	      -0.762	      31.972	     -24.513	      -1.654	      -4.501	    -165.093
	47.000000000	      -1.507	     173.295	      -0.862	      31.312	     -24.525	      -1.391	      -4.447	    -165.131
	47.500000000	      -1.502	     172.984	      -0.964	      30.673	     -24.596	      -0.780	      -4.414	    -165.457
	48.000000000	      -1.486	     172.716	      -1.083	      29.961	     -24.478	      -0.908	      -4.382	    -165.584
	48.500000000	      -1.487	     172.386	      -1.188	      29.385	     -24.524	      -1.198	      -4.325	    -165.840
	49.000000000	      -1.492	     172.154	      -1.305	      28.789	     -24.587	      -1.483	      -4.271	    -166.113
	49.500000000	      -1.497	     171.949	      -1.399	      28.266	     -24.667	      -2.060	      -4.223	    -166.262
	50.000000000	      -1.482	     171.698	      -1.508	      27.695	     -24.893	      -0.745	      -4.165	    -166.604
	50.500000000	      -1.465	     171.351	      -1.608	      27.067	     -24.804	      -0.600	      -4.174	    -167.107
	51.000000000	      -1.466	     171.167	      -1.720	      26.586	     -24.871	      -0.096	      -4.141	    -167.465
	51.500000000	      -1.462	     170.970	      -1.813	      25.895	     -24.645	       0.060	      -4.103	    -167.652
	52.000000000	      -1.441	     170.802	      -1.920	      25.301	     -24.694	      -0.574	      -4.073	    -167.845
	52.500000000	      -1.447	     170.420	      -2.019	      24.754	     -24.781	      -0.821	      -4.036	    -167.973
	53.000000000	      -1.443	     170.123	      -2.128	      24.184	     -24.809	      -1.055	      -3.993	    -168.037
	53.500000000	      -1.434	     169.974	      -2.216	      23.746	     -24.955	      -0.706	      -3.945	    -168.398
	54.000000000	      -1.420	     169.690	      -2.302	      23.235	     -24.928	      -1.054	      -3.909	    -168.602
	54.500000000	      -1.419	     169.342	      -2.384	      22.622	     -25.055	      -0.188	      -3.854	    -168.711
	55.000000000	      -1.430	     168.968	      -2.471	      21.993	     -24.960	      -0.419	      -3.818	    -168.876
	55.500000000	      -1.427	     168.712	      -2.553	      21.399	     -24.894	      -0.862	      -3.788	    -169.127
	56.000000000	      -1.418	     168.431	      -2.641	      20.819	     -24.886	      -1.183	      -3.755	    -169.513
	56.500000000	      -1.414	     168.296	      -2.738	      20.205	     -25.069	      -0.798	      -3.713	    -169.888
	57.000000000	      -1.441	     167.967	      -2.840	      19.598	     -25.055	      -1.986	      -3.709	    -170.067
	57.500000000	      -1.421	     167.800	      -2.941	      19.014	     -25.092	      -1.361	      -3.660	    -170.235
	58.000000000	      -1.400	     167.620	      -3.032	      18.507	     -25.341	      -2.218	      -3.633	    -170.641
	58.500000000	      -1.398	     167.484	      -3.100	      17.825	     -25.278	      -0.604	      -3.596	    -170.787
	59.000000000	      -1.386	     167.099	      -3.188	      17.261	     -25.248	      -1.909	      -3.552	    -170.832
	59.500000000	      -1.377	     167.007	      -3.277	      16.584	     -25.276	      -0.981	      -3.509	    -171.128
	60.000000000	      -1.378	     166.774	      -3.369	      16.030	     -25.311	      -2.526	      -3.530	    -171.445
	60.500000000	      -1.374	     166.503	      -3.463	      15.340	     -25.143	      -1.689	      -3.515	    -171.601
	61.000000000	      -1.334	     166.237	      -3.556	      14.886	     -25.470	      -1.006	      -3.481	    -171.768
	61.500000000	      -1.325	     166.017	      -3.658	      14.441	     -25.357	      -1.671	      -3.448	    -171.984
	62.000000000	      -1.305	     165.765	      -3.743	      13.857	     -25.403	      -2.306	      -3.440	    -172.108
	62.500000000	      -1.321	     165.405	      -3.788	      13.216	     -25.637	      -1.789	      -3.423	    -172.043
	63.000000000	      -1.315	     164.904	      -3.886	      12.658	     -25.570	      -0.858	      -3.355	    -172.027
	63.500000000	      -1.288	     164.808	      -3.964	      11.961	     -25.403	      -0.358	      -3.324	    -172.422
	64.000000000	      -1.290	     164.803	      -4.018	      11.234	     -25.304	      -0.436	      -3.290	    -172.367
	64.500000000	      -1.264	     164.531	      -4.075	      10.519	     -25.344	      -0.908	      -3.240	    -172.252
	65.000000000	      -1.267	     164.243	      -4.204	       9.624	     -25.375	      -1.884	      -3.212	    -172.584
	65.500000000	      -1.272	     163.798	      -4.302	       9.050	     -25.512	      -1.367	      -3.159	    -173.355
	66.000000000	      -1.283	     163.500	      -4.432	       8.298	     -25.428	      -2.580	      -3.143	    -173.385
	66.500000000	      -1.295	     163.272	      -4.561	       7.599	     -25.218	      -1.290	      -3.113	    -173.464
	67.000000000	      -1.325	     162.941	      -4.673	       7.116	     -25.622	      -0.463	      -3.102	    -173.483
	67.500000000	      -1.325	     162.414	      -4.787	       6.289	     -25.530	      -1.494	      -3.073	    -173.830
	68.000000000	      -1.347	     162.238	      -4.897	       5.785	     -25.577	      -1.829	      -3.098	    -174.105
	68.500000000	      -1.368	     162.034	      -4.981	       5.201	     -25.519	      -1.901	      -3.051	    -174.138
	69.000000000	      -1.391	     161.817	      -5.102	       4.776	     -25.590	      -2.398	      -3.002	    -174.321
	69.500000000	      -1.391	     161.582	      -5.210	       4.401	     -25.669	      -2.506	      -2.983	    -174.436
	70.000000000	      -1.381	     161.400	      -5.293	       3.961	     -25.727	      -2.126	      -2.956	    -174.480
	70.500000000	      -1.372	     161.174	      -5.386	       3.478	     -25.667	      -2.110	      -2.920	    -174.609
	71.000000000	      -1.376	     160.905	      -5.472	       2.949	     -25.667	      -2.497	      -2.879	    -174.727
	71.500000000	      -1.368	     160.661	      -5.564	       2.482	     -25.626	      -2.685	      -2.816	    -174.919
	72.000000000	      -1.350	     160.439	      -5.662	       2.075	     -25.621	      -3.302	      -2.815	    -175.157
	72.500000000	      -1.376	     160.136	      -5.753	       1.440	     -25.669	      -3.994	      -2.793	    -175.354
	73.000000000	      -1.393	     159.923	      -5.842	       0.893	     -25.801	      -4.751	      -2.760	    -175.507
	73.500000000	      -1.416	     159.859	      -5.949	       0.370	     -25.985	      -4.919	      -2.690	    -175.723
	74.000000000	      -1.418	     159.633	      -6.040	      -0.103	     -26.072	      -4.586	      -2.691	    -176.300
	74.500000000	      -1.443	     159.467	      -6.135	      -0.610	     -26.141	      -4.300	      -2.706	    -176.525
	75.000000000	      -1.471	     159.366	      -6.226	      -1.179	     -26.234	      -4.328	      -2.699	    -176.612
	75.500000000	      -1.494	     159.307	      -6.352	      -1.775	     -26.447	      -4.208	      -2.703	    -176.679
	76.000000000	      -1.508	     159.358	      -6.476	      -2.197	     -26.753	      -2.732	      -2.715	    -176.703
	76.500000000	      -1.506	     159.479	      -6.607	      -2.432	     -26.891	       0.688	      -2.707	    -176.492
	77.000000000	      -1.480	     159.595	      -6.701	      -2.518	     -26.652	       4.304	      -2.643	    -176.305
	77.500000000	      -1.425	     159.458	      -6.745	      -2.583	     -26.045	       5.850	      -2.556	    -176.356
	78.000000000	      -1.353	     159.217	      -6.780	      -2.848	     -25.553	       5.487	      -2.505	    -176.415
	78.500000000	      -1.298	     158.786	      -6.829	      -3.345	     -25.260	       3.809	      -2.465	    -176.738
	79.000000000	      -1.291	     158.102	      -6.887	      -3.828	     -25.047	       2.646	      -2.401	    -176.990
	79.500000000	      -1.308	     157.625	      -6.923	      -4.524	     -24.820	       1.088	      -2.352	    -177.212
