!File name = EG0520U_1010_6x60_2SDBCB2EV_1915934D06_RC2952_3Vd_18mA.s2p
!Base file name = EG0520U_1010_6x60_2SDBCB2EV_1915934D06_RC2952
!Date = 8/23/2019
!Time = 1:14 PM
!Test duration(min) = 0.15
!Test = S-Parameters
!MPTS version = 8.91.5
!State File = C:\Data\PNA\20190821205423\S-Parameters_2019-08-23.sta
!Cal File = 
!ComputerName = CMPE-LAB-6
!Comments = 
!Attenuation = 0
!Z0 = 50
!Input Power(dBm) = -13.00
!Device ID = EG0520U_1010_6x60_2SDBCB2EV
!Row = 29
!Column = 52
!Technology = QPHT09
!Lot/Wafer = 1915934D06
!Gate Size = 360
!Mask = EG0520
!Cal Standards = GaAs BCB
!Cal Kit = EG2306
!Job Number = 20190821205423
!Device Type = FET
!set_Vg(v) = -1.500
!set_Vd(v) = 3.000
!set_Vd(mA) = 18.000
!file_name = EG0520U_1010_6x60_2SDBCB2EV_1915934D06_RC2952_3Vd_18mA.s2p
!Vd(V) = 3.000
!Vd(mA) = 17.921
!Vg(V) = -0.607
!Vg(mA) = -0.004
# GHz   S   DB   R   50
!%	Freq(GHz)	     s11(dB)	    s11(deg)	     s21(dB)	    s21(deg)	     s12(dB)	    s12(deg)	     s22(dB)	    s22(deg)
	0.500000000	      -0.049	     -12.665	      19.847	     172.084	     -37.421	      81.605	      -7.385	     -12.801
	1.000000000	      -0.131	     -25.098	      19.548	     164.061	     -31.601	      74.923	      -7.430	     -24.765
	1.500000000	      -0.167	     -36.986	      19.270	     157.752	     -28.364	      68.172	      -7.420	     -36.458
	2.000000000	      -0.319	     -48.181	      19.047	     150.435	     -26.274	      61.618	      -7.462	     -48.155
	2.500000000	      -0.412	     -58.639	      18.680	     144.415	     -24.828	      56.116	      -7.640	     -57.824
	3.000000000	      -0.805	     -65.949	      18.061	     139.151	     -23.957	      51.773	      -7.997	     -61.955
	3.500000000	      -0.927	     -74.516	      17.610	     134.163	     -23.119	      47.348	      -8.091	     -69.563
	4.000000000	      -1.042	     -82.157	      17.122	     129.683	     -22.474	      43.358	      -8.175	     -76.405
	4.500000000	      -1.183	     -89.009	      16.610	     125.313	     -21.984	      39.642	      -8.248	     -82.871
	5.000000000	      -1.266	     -95.213	      16.116	     121.650	     -21.594	      36.402	      -8.332	     -88.413
	5.500000000	      -1.359	    -100.924	      15.632	     118.100	     -21.295	      33.610	      -8.432	     -93.401
	6.000000000	      -1.439	    -106.093	      15.159	     114.862	     -21.032	      30.988	      -8.470	     -97.768
	6.500000000	      -1.501	    -110.704	      14.691	     111.974	     -20.827	      28.600	      -8.509	    -101.721
	7.000000000	      -1.564	    -114.907	      14.237	     109.198	     -20.659	      26.445	      -8.535	    -105.230
	7.500000000	      -1.609	    -118.725	      13.793	     106.663	     -20.524	      24.460	      -8.551	    -108.453
	8.000000000	      -1.636	    -121.972	      13.382	     104.423	     -20.390	      22.842	      -8.583	    -110.716
	8.500000000	      -1.678	    -125.226	      12.968	     102.199	     -20.293	      21.141	      -8.596	    -113.339
	9.000000000	      -1.719	    -128.130	      12.557	     100.111	     -20.209	      19.524	      -8.594	    -115.673
	9.500000000	      -1.750	    -130.895	      12.175	      98.066	     -20.139	      18.009	      -8.588	    -117.796
	10.000000000	      -1.775	    -133.434	      11.799	      96.174	     -20.098	      16.570	      -8.581	    -119.801
	10.500000000	      -1.806	    -135.820	      11.436	      94.317	     -20.064	      15.338	      -8.575	    -121.618
	11.000000000	      -1.824	    -137.982	      11.087	      92.623	     -20.032	      14.157	      -8.553	    -123.229
	11.500000000	      -1.848	    -140.033	      10.745	      90.949	     -20.009	      13.004	      -8.532	    -124.679
	12.000000000	      -1.864	    -141.956	      10.420	      89.362	     -19.989	      11.965	      -8.497	    -126.029
	12.500000000	      -1.872	    -143.759	      10.105	      87.854	     -19.976	      10.931	      -8.457	    -127.365
	13.000000000	      -1.886	    -145.452	       9.795	      86.325	     -19.972	       9.953	      -8.417	    -128.668
	13.500000000	      -1.899	    -147.063	       9.496	      84.892	     -19.977	       8.987	      -8.375	    -129.720
	14.000000000	      -1.912	    -148.601	       9.205	      83.499	     -19.993	       8.181	      -8.331	    -130.696
	14.500000000	      -1.919	    -149.996	       8.922	      82.140	     -20.005	       7.366	      -8.292	    -131.738
	15.000000000	      -1.923	    -151.245	       8.645	      80.839	     -20.016	       6.662	      -8.254	    -132.653
	15.500000000	      -1.931	    -152.481	       8.376	      79.545	     -20.023	       5.998	      -8.204	    -133.437
	16.000000000	      -1.936	    -153.710	       8.115	      78.281	     -20.023	       5.231	      -8.144	    -134.192
	16.500000000	      -1.939	    -154.902	       7.860	      77.040	     -20.040	       4.470	      -8.090	    -134.929
	17.000000000	      -1.940	    -156.016	       7.613	      75.833	     -20.066	       3.780	      -8.040	    -135.592
	17.500000000	      -1.947	    -157.030	       7.368	      74.638	     -20.086	       3.155	      -7.979	    -136.351
	18.000000000	      -1.956	    -158.030	       7.133	      73.472	     -20.117	       2.478	      -7.920	    -137.053
	18.500000000	      -1.957	    -158.997	       6.902	      72.339	     -20.137	       1.849	      -7.856	    -137.642
	19.000000000	      -1.956	    -159.940	       6.673	      71.204	     -20.181	       1.225	      -7.797	    -138.214
	19.500000000	      -1.955	    -160.826	       6.452	      70.111	     -20.237	       0.707	      -7.744	    -138.782
	20.000000000	      -1.959	    -161.652	       6.238	      69.042	     -20.277	       0.364	      -7.693	    -139.289
	20.500000000	      -1.962	    -162.452	       6.031	      67.969	     -20.292	       0.043	      -7.624	    -139.767
	21.000000000	      -1.960	    -163.268	       5.824	      66.904	     -20.303	      -0.561	      -7.552	    -140.310
	21.500000000	      -1.954	    -164.051	       5.620	      65.851	     -20.336	      -1.108	      -7.485	    -140.770
	22.000000000	      -1.950	    -164.705	       5.420	      64.837	     -20.381	      -1.633	      -7.422	    -141.239
	22.500000000	      -1.943	    -165.402	       5.223	      63.790	     -20.407	      -2.162	      -7.363	    -141.733
	23.000000000	      -1.943	    -166.086	       5.028	      62.772	     -20.446	      -2.722	      -7.295	    -142.295
	23.500000000	      -1.944	    -166.825	       4.835	      61.801	     -20.536	      -3.267	      -7.233	    -142.851
	24.000000000	      -1.947	    -167.490	       4.651	      60.853	     -20.613	      -3.470	      -7.181	    -143.237
	24.500000000	      -1.936	    -167.996	       4.475	      59.882	     -20.632	      -3.699	      -7.121	    -143.512
	25.000000000	      -1.921	    -168.521	       4.297	      58.886	     -20.656	      -4.039	      -7.053	    -143.846
	25.500000000	      -1.914	    -169.148	       4.119	      57.929	     -20.691	      -4.320	      -6.980	    -144.274
	26.000000000	      -1.916	    -169.862	       3.940	      56.978	     -20.734	      -4.799	      -6.896	    -144.737
	26.500000000	      -1.914	    -170.410	       3.766	      56.044	     -20.778	      -5.334	      -6.825	    -145.143
	27.000000000	      -1.908	    -170.868	       3.594	      55.126	     -20.823	      -5.760	      -6.763	    -145.543
	27.500000000	      -1.913	    -171.300	       3.427	      54.315	     -20.939	      -6.128	      -6.725	    -145.824
	28.000000000	      -1.917	    -171.851	       3.269	      53.458	     -21.025	      -6.141	      -6.657	    -146.189
	28.500000000	      -1.900	    -172.308	       3.122	      52.502	     -21.038	      -5.876	      -6.573	    -146.582
	29.000000000	      -1.885	    -172.771	       2.959	      51.552	     -21.058	      -6.344	      -6.508	    -147.009
	29.500000000	      -1.875	    -173.199	       2.803	      50.669	     -21.071	      -6.749	      -6.434	    -147.330
	30.000000000	      -1.874	    -173.635	       2.648	      49.842	     -21.130	      -7.199	      -6.381	    -147.656
	30.500000000	      -1.868	    -174.185	       2.496	      48.955	     -21.178	      -7.467	      -6.321	    -148.058
	31.000000000	      -1.859	    -174.653	       2.343	      48.116	     -21.241	      -8.000	      -6.263	    -148.453
	31.500000000	      -1.843	    -175.077	       2.206	      47.314	     -21.375	      -7.680	      -6.206	    -148.755
	32.000000000	      -1.842	    -175.417	       2.061	      46.421	     -21.401	      -7.544	      -6.135	    -149.025
	32.500000000	      -1.850	    -175.897	       1.915	      45.521	     -21.386	      -7.968	      -6.057	    -149.315
	33.000000000	      -1.850	    -176.349	       1.769	      44.694	     -21.400	      -8.169	      -5.998	    -149.706
	33.500000000	      -1.835	    -176.740	       1.624	      43.848	     -21.451	      -8.622	      -5.938	    -150.149
	34.000000000	      -1.824	    -177.049	       1.482	      43.053	     -21.505	      -8.987	      -5.868	    -150.599
	34.500000000	      -1.818	    -177.462	       1.334	      42.208	     -21.570	      -9.371	      -5.792	    -150.912
	35.000000000	      -1.816	    -177.828	       1.194	      41.405	     -21.663	      -9.644	      -5.736	    -151.366
	35.500000000	      -1.807	    -178.214	       1.076	      40.646	     -21.743	      -9.191	      -5.687	    -151.619
	36.000000000	      -1.789	    -178.568	       0.948	      39.772	     -21.711	      -9.501	      -5.616	    -151.939
	36.500000000	      -1.773	    -178.862	       0.813	      38.925	     -21.772	      -9.767	      -5.551	    -152.345
	37.000000000	      -1.765	    -179.171	       0.676	      38.139	     -21.803	     -10.181	      -5.492	    -152.682
	37.500000000	      -1.767	    -179.611	       0.535	      37.338	     -21.892	     -10.665	      -5.450	    -152.965
	38.000000000	      -1.775	    -179.991	       0.396	      36.635	     -21.932	     -11.011	      -5.388	    -153.344
	38.500000000	      -1.768	     179.721	       0.259	      35.940	     -22.091	     -11.233	      -5.327	    -153.736
	39.000000000	      -1.757	     179.511	       0.143	      35.262	     -22.154	     -10.989	      -5.268	    -154.085
	39.500000000	      -1.750	     179.317	       0.026	      34.540	     -22.209	     -11.021	      -5.204	    -154.443
	40.000000000	      -1.738	     178.864	      -0.086	      33.720	     -22.210	     -10.803	      -5.133	    -154.805
	40.500000000	      -1.730	     178.447	      -0.211	      32.957	     -22.204	     -11.210	      -5.060	    -155.123
	41.000000000	      -1.711	     178.157	      -0.328	      32.156	     -22.325	     -11.216	      -5.023	    -155.593
	41.500000000	      -1.696	     177.965	      -0.444	      31.416	     -22.344	     -11.467	      -4.977	    -155.836
	42.000000000	      -1.698	     177.653	      -0.566	      30.649	     -22.423	     -12.097	      -4.912	    -156.032
	42.500000000	      -1.709	     177.245	      -0.692	      29.943	     -22.517	     -12.542	      -4.857	    -156.173
	43.000000000	      -1.704	     176.979	      -0.797	      29.301	     -22.639	     -11.838	      -4.796	    -156.516
	43.500000000	      -1.686	     176.823	      -0.917	      28.489	     -22.610	     -11.693	      -4.740	    -157.017
	44.000000000	      -1.689	     176.467	      -1.038	      27.680	     -22.670	     -11.960	      -4.672	    -157.431
	44.500000000	      -1.700	     176.047	      -1.162	      26.949	     -22.658	     -12.203	      -4.616	    -157.750
	45.000000000	      -1.711	     175.772	      -1.283	      26.273	     -22.749	     -12.730	      -4.560	    -158.170
	45.500000000	      -1.658	     175.352	      -1.566	      25.725	     -22.996	     -12.526	      -4.432	    -159.114
	46.000000000	      -1.639	     175.172	      -1.688	      25.133	     -23.070	     -13.030	      -4.388	    -159.515
	46.500000000	      -1.624	     174.813	      -1.787	      24.495	     -23.173	     -12.609	      -4.323	    -159.607
	47.000000000	      -1.624	     174.474	      -1.892	      23.772	     -23.188	     -12.722	      -4.270	    -159.857
	47.500000000	      -1.616	     174.190	      -2.006	      22.988	     -23.263	     -12.030	      -4.221	    -160.214
	48.000000000	      -1.592	     173.899	      -2.134	      22.371	     -23.254	     -12.295	      -4.186	    -160.456
	48.500000000	      -1.587	     173.643	      -2.236	      21.823	     -23.275	     -12.842	      -4.145	    -160.721
	49.000000000	      -1.603	     173.395	      -2.345	      21.139	     -23.304	     -12.741	      -4.071	    -160.974
	49.500000000	      -1.601	     173.183	      -2.446	      20.602	     -23.438	     -12.821	      -4.025	    -161.317
	50.000000000	      -1.592	     172.887	      -2.554	      20.016	     -23.543	     -13.067	      -3.961	    -161.519
	50.500000000	      -1.575	     172.693	      -2.620	      19.275	     -23.600	     -11.724	      -3.928	    -162.064
	51.000000000	      -1.562	     172.384	      -2.741	      18.608	     -23.701	     -11.444	      -3.897	    -162.431
	51.500000000	      -1.570	     172.216	      -2.837	      17.913	     -23.502	     -11.927	      -3.850	    -162.737
	52.000000000	      -1.544	     171.994	      -2.944	      17.179	     -23.578	     -12.190	      -3.807	    -163.134
	52.500000000	      -1.538	     171.614	      -3.051	      16.495	     -23.667	     -12.870	      -3.746	    -163.213
	53.000000000	      -1.540	     171.274	      -3.179	      15.798	     -23.638	     -13.403	      -3.697	    -163.445
	53.500000000	      -1.523	     171.181	      -3.269	      15.310	     -23.828	     -13.236	      -3.647	    -163.757
	54.000000000	      -1.520	     170.939	      -3.382	      14.745	     -23.761	     -12.311	      -3.586	    -164.052
	54.500000000	      -1.519	     170.508	      -3.464	      14.112	     -23.841	     -13.141	      -3.539	    -164.358
	55.000000000	      -1.526	     170.140	      -3.559	      13.473	     -23.802	     -12.950	      -3.501	    -164.580
	55.500000000	      -1.521	     169.879	      -3.659	      12.779	     -23.846	     -13.929	      -3.450	    -164.947
	56.000000000	      -1.503	     169.575	      -3.749	      12.220	     -24.019	     -13.905	      -3.410	    -165.561
	56.500000000	      -1.518	     169.452	      -3.845	      11.509	     -23.809	     -14.061	      -3.410	    -166.240
	57.000000000	      -1.518	     169.264	      -3.964	      10.822	     -24.019	     -13.320	      -3.406	    -166.212
	57.500000000	      -1.514	     169.146	      -4.083	      10.405	     -24.174	     -15.139	      -3.353	    -166.468
	58.000000000	      -1.477	     169.007	      -4.172	       9.876	     -24.401	     -15.293	      -3.296	    -166.782
	58.500000000	      -1.473	     168.763	      -4.269	       9.277	     -24.389	     -14.876	      -3.258	    -167.199
	59.000000000	      -1.463	     168.596	      -4.343	       8.529	     -24.480	     -13.729	      -3.212	    -167.291
	59.500000000	      -1.468	     168.294	      -4.439	       7.949	     -24.349	     -15.183	      -3.190	    -167.562
	60.000000000	      -1.458	     168.211	      -4.537	       7.342	     -24.491	     -13.417	      -3.183	    -168.051
	60.500000000	      -1.417	     167.977	      -4.621	       6.760	     -24.618	     -14.280	      -3.177	    -168.168
	61.000000000	      -1.374	     167.656	      -4.725	       6.346	     -24.665	     -13.523	      -3.151	    -168.289
	61.500000000	      -1.369	     167.413	      -4.831	       5.831	     -24.558	     -12.985	      -3.113	    -168.563
	62.000000000	      -1.362	     167.122	      -4.886	       5.263	     -24.772	     -14.843	      -3.089	    -168.536
	62.500000000	      -1.374	     166.806	      -4.973	       4.575	     -24.897	     -13.021	      -3.076	    -168.726
	63.000000000	      -1.345	     166.388	      -5.039	       4.058	     -24.968	     -13.537	      -3.010	    -168.852
	63.500000000	      -1.345	     166.239	      -5.090	       3.255	     -24.735	     -13.864	      -2.979	    -169.240
	64.000000000	      -1.334	     166.344	      -5.165	       2.497	     -24.948	     -12.280	      -2.904	    -169.142
	64.500000000	      -1.309	     166.270	      -5.249	       1.663	     -24.871	     -12.092	      -2.872	    -169.051
	65.000000000	      -1.334	     165.824	      -5.339	       0.748	     -24.732	     -13.205	      -2.834	    -169.436
	65.500000000	      -1.313	     165.371	      -5.469	       0.198	     -25.075	     -12.611	      -2.803	    -170.273
	66.000000000	      -1.312	     165.086	      -5.588	      -0.782	     -25.000	     -13.814	      -2.758	    -170.658
	66.500000000	      -1.342	     164.901	      -5.649	      -1.354	     -24.830	     -13.277	      -2.723	    -170.642
	67.000000000	      -1.390	     164.594	      -5.799	      -1.980	     -25.075	     -13.730	      -2.724	    -170.733
	67.500000000	      -1.375	     163.889	      -5.974	      -3.088	     -24.919	     -13.467	      -2.719	    -171.148
	68.000000000	      -1.421	     163.732	      -6.075	      -3.712	     -24.963	     -13.499	      -2.745	    -171.502
	68.500000000	      -1.462	     163.512	      -6.174	      -4.270	     -24.956	     -13.785	      -2.704	    -171.547
	69.000000000	      -1.491	     163.339	      -6.299	      -4.778	     -24.974	     -14.229	      -2.637	    -171.866
	69.500000000	      -1.484	     163.180	      -6.418	      -5.195	     -25.067	     -14.355	      -2.620	    -171.965
	70.000000000	      -1.461	     163.046	      -6.518	      -5.646	     -25.187	     -13.965	      -2.593	    -172.109
	70.500000000	      -1.439	     162.879	      -6.607	      -6.069	     -25.128	     -13.803	      -2.558	    -172.213
	71.000000000	      -1.423	     162.708	      -6.682	      -6.499	     -25.130	     -13.996	      -2.525	    -172.419
	71.500000000	      -1.354	     162.677	      -6.776	      -6.931	     -25.157	     -14.413	      -2.463	    -172.641
	72.000000000	      -1.358	     162.292	      -6.899	      -7.467	     -25.167	     -14.883	      -2.457	    -172.996
	72.500000000	      -1.389	     161.834	      -7.004	      -8.178	     -25.204	     -15.441	      -2.440	    -173.253
	73.000000000	      -1.418	     161.689	      -7.106	      -8.739	     -25.311	     -16.125	      -2.401	    -173.439
	73.500000000	      -1.440	     161.601	      -7.217	      -9.231	     -25.468	     -16.442	      -2.339	    -173.719
	74.000000000	      -1.446	     161.328	      -7.322	      -9.693	     -25.610	     -16.229	      -2.333	    -174.253
	74.500000000	      -1.481	     161.060	      -7.412	     -10.086	     -25.723	     -15.900	      -2.356	    -174.495
	75.000000000	      -1.521	     160.998	      -7.515	     -10.629	     -25.803	     -15.842	      -2.338	    -174.596
	75.500000000	      -1.555	     161.034	      -7.632	     -11.163	     -26.020	     -15.687	      -2.339	    -174.706
	76.000000000	      -1.567	     161.171	      -7.754	     -11.525	     -26.380	     -14.667	      -2.342	    -174.837
	76.500000000	      -1.548	     161.339	      -7.878	     -11.606	     -26.638	     -11.362	      -2.334	    -174.769
	77.000000000	      -1.524	     161.371	      -7.959	     -11.596	     -26.476	      -7.054	      -2.269	    -174.675
	77.500000000	      -1.446	     161.136	      -7.970	     -11.583	     -25.939	      -4.403	      -2.197	    -174.790
	78.000000000	      -1.341	     160.922	      -7.960	     -11.802	     -25.328	      -3.743	      -2.159	    -175.012
	78.500000000	      -1.314	     160.433	      -7.985	     -12.615	     -24.907	      -5.174	      -2.120	    -175.232
	79.000000000	      -1.350	     159.849	      -8.051	     -13.489	     -24.648	      -6.985	      -2.072	    -175.509
	79.500000000	      -1.374	     159.391	      -8.109	     -14.289	     -24.424	      -8.726	      -2.030	    -175.760
