!File name = EG0520U_1010_6x60_2SDBCB2EV_1915934D06_RC2952_2.5Vd_45mA.s2p
!Base file name = EG0520U_1010_6x60_2SDBCB2EV_1915934D06_RC2952
!Date = 8/23/2019
!Time = 1:14 PM
!Test duration(min) = 0.15
!Test = S-Parameters
!MPTS version = 8.91.5
!State File = C:\Data\PNA\20190821205423\S-Parameters_2019-08-23.sta
!Cal File = 
!ComputerName = CMPE-LAB-6
!Comments = 
!Attenuation = 0
!Z0 = 50
!Input Power(dBm) = -13.00
!Device ID = EG0520U_1010_6x60_2SDBCB2EV
!Row = 29
!Column = 52
!Technology = QPHT09
!Lot/Wafer = 1915934D06
!Gate Size = 360
!Mask = EG0520
!Cal Standards = GaAs BCB
!Cal Kit = EG2306
!Job Number = 20190821205423
!Device Type = FET
!set_Vg(v) = -1.500
!set_Vd(v) = 2.500
!set_Vd(mA) = 45.000
!file_name = EG0520U_1010_6x60_2SDBCB2EV_1915934D06_RC2952_2.5Vd_45mA.s2p
!Vd(V) = 2.500
!Vd(mA) = 45.163
!Vg(V) = -0.448
!Vg(mA) = -0.001
# GHz   S   DB   R   50
!%	Freq(GHz)	     s11(dB)	    s11(deg)	     s21(dB)	    s21(deg)	     s12(dB)	    s12(deg)	     s22(dB)	    s22(deg)
	0.500000000	      -0.032	     -14.994	      22.236	     170.945	     -38.911	      81.318	     -10.685	     -19.284
	1.000000000	      -0.119	     -29.640	      21.797	     162.222	     -33.150	      73.436	     -10.496	     -36.584
	1.500000000	      -0.164	     -43.409	      21.431	     154.831	     -30.012	      65.900	     -10.112	     -52.438
	2.000000000	      -0.314	     -55.900	      21.144	     147.337	     -28.022	      58.998	      -9.743	     -67.227
	2.500000000	      -0.413	     -67.424	      20.696	     140.885	     -26.663	      53.128	      -9.548	     -78.752
	3.000000000	      -0.813	     -75.188	      19.996	     135.820	     -25.859	      48.840	      -9.831	     -83.800
	3.500000000	      -0.932	     -84.077	      19.427	     130.718	     -25.116	      44.411	      -9.634	     -92.124
	4.000000000	      -1.031	     -91.891	      18.848	     126.295	     -24.557	      40.513	      -9.460	     -99.232
	4.500000000	      -1.134	     -98.815	      18.275	     122.161	     -24.140	      37.018	      -9.304	    -105.547
	5.000000000	      -1.206	    -104.944	      17.713	     118.585	     -23.809	      34.025	      -9.191	    -110.825
	5.500000000	      -1.275	    -110.473	      17.170	     115.251	     -23.550	      31.383	      -9.101	    -115.410
	6.000000000	      -1.333	    -115.377	      16.638	     112.259	     -23.339	      29.007	      -9.001	    -119.295
	6.500000000	      -1.380	    -119.749	      16.127	     109.563	     -23.175	      26.878	      -8.916	    -122.737
	7.000000000	      -1.420	    -123.686	      15.637	     107.030	     -23.039	      24.954	      -8.840	    -125.704
	7.500000000	      -1.451	    -127.243	      15.160	     104.710	     -22.932	      23.240	      -8.770	    -128.355
	8.000000000	      -1.462	    -130.244	      14.724	     102.679	     -22.813	      21.827	      -8.752	    -130.143
	8.500000000	      -1.489	    -133.236	      14.285	     100.670	     -22.737	      20.368	      -8.695	    -132.247
	9.000000000	      -1.517	    -135.920	      13.857	      98.791	     -22.675	      18.989	      -8.641	    -134.138
	9.500000000	      -1.534	    -138.436	      13.456	      96.965	     -22.627	      17.666	      -8.587	    -135.822
	10.000000000	      -1.549	    -140.768	      13.066	      95.248	     -22.607	      16.459	      -8.538	    -137.454
	10.500000000	      -1.571	    -142.932	      12.689	      93.594	     -22.592	      15.494	      -8.503	    -138.838
	11.000000000	      -1.583	    -144.896	      12.327	      92.064	     -22.567	      14.524	      -8.455	    -140.039
	11.500000000	      -1.599	    -146.763	      11.975	      90.572	     -22.556	      13.588	      -8.410	    -141.155
	12.000000000	      -1.610	    -148.493	      11.638	      89.157	     -22.556	      12.806	      -8.359	    -142.132
	12.500000000	      -1.615	    -150.124	      11.311	      87.782	     -22.551	      11.965	      -8.302	    -143.161
	13.000000000	      -1.623	    -151.647	      10.995	      86.436	     -22.551	      11.192	      -8.251	    -144.079
	13.500000000	      -1.633	    -153.104	      10.687	      85.150	     -22.570	      10.418	      -8.202	    -144.885
	14.000000000	      -1.645	    -154.487	      10.388	      83.912	     -22.596	       9.824	      -8.151	    -145.529
	14.500000000	      -1.649	    -155.734	      10.098	      82.689	     -22.621	       9.265	      -8.106	    -146.259
	15.000000000	      -1.652	    -156.858	       9.816	      81.526	     -22.635	       8.797	      -8.068	    -146.972
	15.500000000	      -1.658	    -157.966	       9.543	      80.378	     -22.639	       8.343	      -8.021	    -147.494
	16.000000000	      -1.660	    -159.079	       9.278	      79.254	     -22.641	       7.752	      -7.961	    -148.014
	16.500000000	      -1.661	    -160.165	       9.019	      78.142	     -22.665	       7.171	      -7.910	    -148.483
	17.000000000	      -1.661	    -161.168	       8.768	      77.062	     -22.702	       6.716	      -7.864	    -148.983
	17.500000000	      -1.666	    -162.082	       8.520	      76.001	     -22.723	       6.285	      -7.806	    -149.519
	18.000000000	      -1.674	    -162.985	       8.281	      74.964	     -22.765	       5.778	      -7.751	    -150.030
	18.500000000	      -1.675	    -163.869	       8.047	      73.944	     -22.788	       5.334	      -7.693	    -150.410
	19.000000000	      -1.673	    -164.726	       7.816	      72.939	     -22.842	       4.908	      -7.642	    -150.797
	19.500000000	      -1.672	    -165.532	       7.592	      71.963	     -22.905	       4.647	      -7.599	    -151.195
	20.000000000	      -1.679	    -166.278	       7.375	      71.009	     -22.951	       4.556	      -7.555	    -151.534
	20.500000000	      -1.680	    -166.993	       7.166	      70.056	     -22.955	       4.445	      -7.495	    -151.830
	21.000000000	      -1.679	    -167.732	       6.956	      69.104	     -22.960	       4.038	      -7.431	    -152.198
	21.500000000	      -1.672	    -168.452	       6.751	      68.167	     -22.998	       3.674	      -7.375	    -152.489
	22.000000000	      -1.670	    -169.044	       6.549	      67.255	     -23.045	       3.281	      -7.321	    -152.800
	22.500000000	      -1.663	    -169.674	       6.353	      66.320	     -23.070	       2.941	      -7.270	    -153.147
	23.000000000	      -1.663	    -170.309	       6.155	      65.404	     -23.118	       2.582	      -7.212	    -153.552
	23.500000000	      -1.665	    -170.988	       5.962	      64.539	     -23.228	       2.309	      -7.157	    -153.968
	24.000000000	      -1.669	    -171.601	       5.776	      63.692	     -23.310	       2.407	      -7.117	    -154.217
	24.500000000	      -1.662	    -172.054	       5.600	      62.814	     -23.311	       2.462	      -7.069	    -154.354
	25.000000000	      -1.648	    -172.528	       5.421	      61.923	     -23.318	       2.263	      -7.018	    -154.549
	25.500000000	      -1.642	    -173.095	       5.242	      61.071	     -23.351	       2.206	      -6.952	    -154.801
	26.000000000	      -1.645	    -173.759	       5.062	      60.213	     -23.395	       1.856	      -6.876	    -155.108
	26.500000000	      -1.643	    -174.280	       4.888	      59.372	     -23.441	       1.524	      -6.814	    -155.387
	27.000000000	      -1.637	    -174.677	       4.718	      58.563	     -23.504	       1.173	      -6.765	    -155.678
	27.500000000	      -1.646	    -175.103	       4.549	      57.828	     -23.634	       1.305	      -6.740	    -155.793
	28.000000000	      -1.650	    -175.581	       4.393	      57.064	     -23.726	       1.746	      -6.681	    -156.078
	28.500000000	      -1.633	    -176.000	       4.244	      56.202	     -23.680	       2.035	      -6.603	    -156.307
	29.000000000	      -1.620	    -176.434	       4.082	      55.353	     -23.678	       1.794	      -6.547	    -156.565
	29.500000000	      -1.613	    -176.824	       3.925	      54.551	     -23.707	       1.361	      -6.482	    -156.812
	30.000000000	      -1.613	    -177.230	       3.771	      53.799	     -23.762	       1.253	      -6.440	    -157.017
	30.500000000	      -1.610	    -177.734	       3.619	      53.005	     -23.812	       1.000	      -6.383	    -157.286
	31.000000000	      -1.603	    -178.173	       3.468	      52.265	     -23.920	       0.928	      -6.335	    -157.537
	31.500000000	      -1.589	    -178.562	       3.330	      51.537	     -23.983	       1.490	      -6.289	    -157.790
	32.000000000	      -1.589	    -178.925	       3.184	      50.731	     -23.966	       1.700	      -6.231	    -157.947
	32.500000000	      -1.599	    -179.286	       3.042	      49.896	     -23.944	       1.659	      -6.158	    -158.094
	33.000000000	      -1.597	    -179.740	       2.896	      49.153	     -23.957	       1.627	      -6.104	    -158.388
	33.500000000	      -1.587	     179.870	       2.748	      48.442	     -23.996	       1.202	      -6.056	    -158.701
	34.000000000	      -1.576	     179.600	       2.608	      47.710	     -24.099	       1.187	      -5.993	    -159.048
	34.500000000	      -1.571	     179.227	       2.462	      46.905	     -24.136	       0.764	      -5.925	    -159.216
	35.000000000	      -1.573	     178.871	       2.321	      46.218	     -24.240	       0.773	      -5.869	    -159.585
	35.500000000	      -1.565	     178.530	       2.203	      45.529	     -24.270	       1.558	      -5.833	    -159.736
	36.000000000	      -1.551	     178.196	       2.076	      44.708	     -24.252	       1.317	      -5.771	    -159.953
	36.500000000	      -1.537	     177.924	       1.939	      43.930	     -24.239	       1.146	      -5.705	    -160.222
	37.000000000	      -1.534	     177.624	       1.804	      43.215	     -24.301	       1.029	      -5.659	    -160.452
	37.500000000	      -1.542	     177.237	       1.664	      42.519	     -24.347	       1.290	      -5.625	    -160.717
	38.000000000	      -1.544	     176.868	       1.528	      41.861	     -24.475	       0.877	      -5.571	    -160.930
	38.500000000	      -1.541	     176.579	       1.392	      41.246	     -24.583	       0.398	      -5.514	    -161.274
	39.000000000	      -1.532	     176.414	       1.281	      40.634	     -24.573	       1.041	      -5.459	    -161.512
	39.500000000	      -1.523	     176.225	       1.164	      39.989	     -24.670	       1.461	      -5.398	    -161.747
	40.000000000	      -1.513	     175.806	       1.054	      39.201	     -24.603	       1.803	      -5.333	    -161.995
	40.500000000	      -1.508	     175.405	       0.928	      38.535	     -24.645	       1.744	      -5.267	    -162.219
	41.000000000	      -1.488	     175.133	       0.814	      37.776	     -24.672	       1.598	      -5.224	    -162.659
	41.500000000	      -1.478	     174.952	       0.694	      37.126	     -24.672	       1.264	      -5.196	    -162.819
	42.000000000	      -1.477	     174.658	       0.577	      36.415	     -24.817	       1.437	      -5.133	    -162.897
	42.500000000	      -1.493	     174.276	       0.452	      35.786	     -24.895	       1.219	      -5.083	    -162.977
	43.000000000	      -1.494	     174.047	       0.349	      35.199	     -24.959	       2.108	      -5.032	    -163.217
	43.500000000	      -1.472	     173.834	       0.238	      34.389	     -24.898	       2.466	      -4.987	    -163.554
	44.000000000	      -1.468	     173.533	       0.118	      33.711	     -24.930	       2.238	      -4.922	    -163.925
	44.500000000	      -1.495	     173.146	      -0.011	      33.028	     -24.919	       1.904	      -4.861	    -164.126
	45.000000000	      -1.501	     172.852	      -0.133	      32.437	     -24.975	       1.754	      -4.806	    -164.484
	45.500000000	      -1.455	     172.557	      -0.408	      31.991	     -25.137	       1.729	      -4.669	    -165.246
	46.000000000	      -1.435	     172.387	      -0.532	      31.454	     -25.374	       1.530	      -4.626	    -165.553
	46.500000000	      -1.419	     172.034	      -0.629	      30.889	     -25.494	       2.429	      -4.555	    -165.624
	47.000000000	      -1.426	     171.699	      -0.733	      30.236	     -25.447	       2.689	      -4.505	    -165.840
	47.500000000	      -1.415	     171.427	      -0.848	      29.583	     -25.395	       3.672	      -4.486	    -166.062
	48.000000000	      -1.402	     171.162	      -0.958	      28.968	     -25.445	       3.400	      -4.434	    -166.156
	48.500000000	      -1.395	     170.911	      -1.071	      28.413	     -25.357	       4.092	      -4.389	    -166.388
	49.000000000	      -1.413	     170.701	      -1.172	      27.893	     -25.475	       1.911	      -4.312	    -166.647
	49.500000000	      -1.419	     170.494	      -1.270	      27.377	     -25.482	       3.222	      -4.285	    -166.838
	50.000000000	      -1.398	     170.302	      -1.376	      26.799	     -25.685	       3.802	      -4.225	    -167.013
	50.500000000	      -1.385	     169.978	      -1.443	      26.122	     -25.559	       4.119	      -4.209	    -167.402
	51.000000000	      -1.382	     169.729	      -1.560	      25.507	     -25.519	       4.119	      -4.176	    -167.744
	51.500000000	      -1.382	     169.577	      -1.659	      24.869	     -25.529	       4.860	      -4.122	    -168.054
	52.000000000	      -1.358	     169.377	      -1.758	      24.201	     -25.488	       4.457	      -4.073	    -168.193
	52.500000000	      -1.363	     169.024	      -1.876	      23.563	     -25.566	       3.971	      -4.041	    -168.326
	53.000000000	      -1.356	     168.696	      -1.979	      22.965	     -25.657	       3.891	      -3.996	    -168.369
	53.500000000	      -1.348	     168.552	      -2.087	      22.400	     -25.647	       4.084	      -3.935	    -168.656
	54.000000000	      -1.342	     168.351	      -2.179	      21.958	     -25.654	       4.717	      -3.876	    -168.952
	54.500000000	      -1.338	     167.948	      -2.274	      21.422	     -25.671	       5.559	      -3.833	    -169.200
	55.000000000	      -1.348	     167.579	      -2.366	      20.787	     -25.678	       4.817	      -3.799	    -169.344
	55.500000000	      -1.342	     167.330	      -2.455	      20.233	     -25.635	       4.882	      -3.756	    -169.700
	56.000000000	      -1.333	     167.078	      -2.561	      19.707	     -25.501	       3.916	      -3.723	    -170.201
	56.500000000	      -1.324	     166.805	      -2.662	      19.033	     -25.615	       3.721	      -3.696	    -170.553
	57.000000000	      -1.351	     166.793	      -2.746	      18.436	     -25.789	       3.571	      -3.691	    -170.844
	57.500000000	      -1.338	     166.496	      -2.875	      17.990	     -25.743	       3.516	      -3.649	    -170.836
	58.000000000	      -1.325	     166.464	      -2.956	      17.360	     -26.130	       3.971	      -3.606	    -171.122
	58.500000000	      -1.299	     166.409	      -3.041	      16.824	     -26.077	       4.603	      -3.572	    -171.424
	59.000000000	      -1.297	     165.985	      -3.115	      16.141	     -26.115	       3.167	      -3.516	    -171.600
	59.500000000	      -1.307	     165.821	      -3.216	      15.524	     -25.926	       4.154	      -3.471	    -171.764
	60.000000000	      -1.296	     165.737	      -3.312	      15.053	     -26.079	       5.083	      -3.495	    -172.230
	60.500000000	      -1.264	     165.460	      -3.407	      14.486	     -25.977	       4.370	      -3.488	    -172.285
	61.000000000	      -1.222	     165.223	      -3.504	      14.083	     -26.303	       4.972	      -3.450	    -172.434
	61.500000000	      -1.224	     165.037	      -3.600	      13.780	     -26.235	       3.651	      -3.419	    -172.734
	62.000000000	      -1.217	     164.771	      -3.646	      13.128	     -26.056	       7.040	      -3.418	    -172.793
	62.500000000	      -1.225	     164.475	      -3.742	      12.504	     -26.264	       7.529	      -3.402	    -172.636
	63.000000000	      -1.197	     164.118	      -3.815	      12.002	     -26.114	       8.173	      -3.350	    -172.803
	63.500000000	      -1.180	     164.018	      -3.899	      11.240	     -26.070	       7.824	      -3.285	    -173.082
	64.000000000	      -1.185	     164.069	      -3.927	      10.681	     -26.112	       7.169	      -3.231	    -172.975
	64.500000000	      -1.154	     163.966	      -4.006	       9.813	     -26.116	       8.120	      -3.212	    -172.745
	65.000000000	      -1.180	     163.532	      -4.102	       8.949	     -25.877	       6.373	      -3.146	    -173.042
	65.500000000	      -1.168	     163.066	      -4.241	       8.372	     -26.213	       4.608	      -3.113	    -173.733
	66.000000000	      -1.164	     162.768	      -4.353	       7.622	     -26.005	       7.097	      -3.093	    -174.153
	66.500000000	      -1.200	     162.582	      -4.435	       7.182	     -26.214	       5.608	      -3.063	    -173.941
	67.000000000	      -1.266	     162.156	      -4.554	       6.300	     -25.732	       6.628	      -3.038	    -173.990
	67.500000000	      -1.220	     161.558	      -4.702	       5.439	     -26.024	       5.845	      -3.060	    -174.429
	68.000000000	      -1.273	     161.372	      -4.805	       4.782	     -25.989	       5.490	      -3.089	    -174.643
	68.500000000	      -1.314	     161.141	      -4.896	       4.426	     -26.000	       5.196	      -3.040	    -174.821
	69.000000000	      -1.346	     160.971	      -5.011	       3.888	     -26.024	       4.569	      -2.978	    -174.848
	69.500000000	      -1.342	     160.814	      -5.101	       3.507	     -26.140	       4.736	      -2.953	    -175.033
	70.000000000	      -1.323	     160.663	      -5.216	       3.093	     -26.218	       5.303	      -2.923	    -175.081
	70.500000000	      -1.301	     160.518	      -5.287	       2.700	     -26.158	       5.431	      -2.886	    -175.203
	71.000000000	      -1.290	     160.414	      -5.380	       2.223	     -26.135	       5.204	      -2.844	    -175.312
	71.500000000	      -1.245	     160.243	      -5.482	       1.759	     -26.111	       4.697	      -2.767	    -175.492
	72.000000000	      -1.239	     159.973	      -5.588	       1.269	     -26.134	       4.071	      -2.783	    -175.770
	72.500000000	      -1.266	     159.538	      -5.679	       0.623	     -26.163	       3.263	      -2.760	    -176.008
	73.000000000	      -1.302	     159.333	      -5.771	       0.060	     -26.247	       2.862	      -2.721	    -176.174
	73.500000000	      -1.324	     159.302	      -5.877	      -0.458	     -26.434	       2.878	      -2.658	    -176.373
	74.000000000	      -1.336	     159.064	      -5.978	      -0.859	     -26.541	       3.208	      -2.648	    -176.924
	74.500000000	      -1.370	     158.791	      -6.054	      -1.262	     -26.624	       3.745	      -2.667	    -177.129
	75.000000000	      -1.413	     158.750	      -6.153	      -1.844	     -26.679	       3.741	      -2.659	    -177.259
	75.500000000	      -1.446	     158.787	      -6.277	      -2.414	     -26.908	       4.292	      -2.658	    -177.267
	76.000000000	      -1.463	     158.961	      -6.405	      -2.744	     -27.149	       6.213	      -2.663	    -177.304
	76.500000000	      -1.450	     159.112	      -6.524	      -2.940	     -27.192	       9.795	      -2.652	    -177.135
	77.000000000	      -1.431	     159.214	      -6.608	      -2.995	     -26.784	      13.271	      -2.589	    -176.989
	77.500000000	      -1.333	     159.191	      -6.634	      -3.000	     -26.137	      14.567	      -2.507	    -177.059
	78.000000000	      -1.247	     158.803	      -6.632	      -3.316	     -25.540	      13.866	      -2.483	    -177.240
	78.500000000	      -1.218	     158.353	      -6.669	      -4.069	     -25.187	      11.553	      -2.431	    -177.420
	79.000000000	      -1.235	     157.792	      -6.753	      -4.848	     -25.016	       9.015	      -2.365	    -177.595
	79.500000000	      -1.258	     157.341	      -6.819	      -5.590	     -24.894	       6.920	      -2.313	    -177.829
