!File name = EG0520U_1010_6x60_2SDBCB2EV_1915934D06_RC4034_2.5Vd_54mA.s2p
!Base file name = EG0520U_1010_6x60_2SDBCB2EV_1915934D06_RC4034
!Date = 8/23/2019
!Time = 12:56 PM
!Test duration(min) = 0.15
!Test = S-Parameters
!MPTS version = 8.91.5
!State File = C:\Data\PNA\20190821205423\S-Parameters_2019-08-23.sta
!Cal File = 
!ComputerName = CMPE-LAB-6
!Comments = 
!Attenuation = 0
!Z0 = 50
!Input Power(dBm) = -13.00
!Device ID = EG0520U_1010_6x60_2SDBCB2EV
!Row = 40
!Column = 34
!Technology = QPHT09
!Lot/Wafer = 1915934D06
!Gate Size = 360
!Mask = EG0520
!Cal Standards = GaAs BCB
!Cal Kit = EG2306
!Job Number = 20190821205423
!Device Type = FET
!set_Vg(v) = -1.500
!set_Vd(v) = 2.500
!set_Vd(mA) = 54.000
!file_name = EG0520U_1010_6x60_2SDBCB2EV_1915934D06_RC4034_2.5Vd_54mA.s2p
!Vd(V) = 2.500
!Vd(mA) = 54.092
!Vg(V) = -0.427
!Vg(mA) = -0.001
# GHz   S   DB   R   50
!%	Freq(GHz)	     s11(dB)	    s11(deg)	     s21(dB)	    s21(deg)	     s12(dB)	    s12(deg)	     s22(dB)	    s22(deg)
	0.500000000	      -0.030	     -15.065	      22.502	     170.883	     -39.266	      81.427	     -11.215	     -20.306
	1.000000000	      -0.114	     -29.779	      22.045	     162.217	     -33.496	      73.492	     -10.960	     -38.295
	1.500000000	      -0.158	     -43.592	      21.673	     154.770	     -30.367	      65.975	     -10.486	     -54.550
	2.000000000	      -0.304	     -56.096	      21.389	     147.346	     -28.377	      59.099	     -10.025	     -69.535
	2.500000000	      -0.401	     -67.627	      20.939	     140.901	     -27.018	      53.237	      -9.754	     -81.099
	3.000000000	      -0.798	     -75.374	      20.238	     135.880	     -26.211	      48.929	     -10.005	     -86.170
	3.500000000	      -0.916	     -84.231	      19.661	     130.798	     -25.471	      44.539	      -9.759	     -94.414
	4.000000000	      -1.012	     -92.011	      19.082	     126.401	     -24.912	      40.660	      -9.545	    -101.410
	4.500000000	      -1.111	     -98.910	      18.507	     122.302	     -24.494	      37.218	      -9.357	    -107.606
	5.000000000	      -1.183	    -105.000	      17.943	     118.749	     -24.165	      34.226	      -9.216	    -112.733
	5.500000000	      -1.250	    -110.485	      17.397	     115.448	     -23.909	      31.615	      -9.103	    -117.205
	6.000000000	      -1.306	    -115.343	      16.865	     112.492	     -23.697	      29.248	      -8.986	    -120.969
	6.500000000	      -1.352	    -119.675	      16.353	     109.826	     -23.529	      27.178	      -8.888	    -124.271
	7.000000000	      -1.392	    -123.575	      15.861	     107.322	     -23.397	      25.286	      -8.802	    -127.144
	7.500000000	      -1.420	    -127.087	      15.386	     105.035	     -23.284	      23.629	      -8.720	    -129.726
	8.000000000	      -1.428	    -130.047	      14.950	     103.032	     -23.170	      22.210	      -8.694	    -131.405
	8.500000000	      -1.455	    -133.010	      14.510	     101.049	     -23.092	      20.758	      -8.632	    -133.418
	9.000000000	      -1.483	    -135.666	      14.082	      99.202	     -23.031	      19.417	      -8.572	    -135.225
	9.500000000	      -1.499	    -138.150	      13.681	      97.396	     -22.981	      18.133	      -8.513	    -136.811
	10.000000000	      -1.513	    -140.439	      13.292	      95.715	     -22.957	      16.953	      -8.460	    -138.341
	10.500000000	      -1.531	    -142.576	      12.917	      94.086	     -22.938	      15.978	      -8.412	    -139.675
	11.000000000	      -1.543	    -144.520	      12.556	      92.576	     -22.919	      15.034	      -8.362	    -140.853
	11.500000000	      -1.559	    -146.370	      12.204	      91.103	     -22.913	      14.116	      -8.318	    -141.903
	12.000000000	      -1.572	    -148.076	      11.867	      89.708	     -22.914	      13.339	      -8.266	    -142.831
	12.500000000	      -1.578	    -149.657	      11.540	      88.367	     -22.902	      12.575	      -8.214	    -143.763
	13.000000000	      -1.586	    -151.144	      11.224	      87.050	     -22.902	      11.843	      -8.162	    -144.650
	13.500000000	      -1.593	    -152.585	      10.919	      85.788	     -22.913	      11.086	      -8.108	    -145.360
	14.000000000	      -1.604	    -153.951	      10.620	      84.560	     -22.935	      10.475	      -8.058	    -146.028
	14.500000000	      -1.610	    -155.167	      10.331	      83.371	     -22.947	       9.955	      -8.012	    -146.697
	15.000000000	      -1.612	    -156.275	      10.050	      82.225	     -22.967	       9.426	      -7.972	    -147.370
	15.500000000	      -1.617	    -157.380	       9.778	      81.092	     -22.978	       8.968	      -7.924	    -147.883
	16.000000000	      -1.621	    -158.481	       9.511	      79.983	     -22.993	       8.408	      -7.870	    -148.381
	16.500000000	      -1.625	    -159.528	       9.253	      78.898	     -23.014	       7.901	      -7.818	    -148.851
	17.000000000	      -1.625	    -160.515	       9.003	      77.839	     -23.061	       7.438	      -7.775	    -149.291
	17.500000000	      -1.633	    -161.406	       8.754	      76.803	     -23.077	       7.066	      -7.724	    -149.768
	18.000000000	      -1.641	    -162.285	       8.516	      75.793	     -23.117	       6.626	      -7.671	    -150.242
	18.500000000	      -1.641	    -163.138	       8.282	      74.803	     -23.129	       6.170	      -7.613	    -150.597
	19.000000000	      -1.639	    -163.957	       8.053	      73.822	     -23.173	       5.758	      -7.562	    -150.950
	19.500000000	      -1.637	    -164.742	       7.831	      72.867	     -23.235	       5.427	      -7.517	    -151.319
	20.000000000	      -1.645	    -165.493	       7.614	      71.935	     -23.307	       5.327	      -7.480	    -151.643
	20.500000000	      -1.649	    -166.193	       7.404	      71.006	     -23.325	       5.298	      -7.426	    -151.893
	21.000000000	      -1.648	    -166.857	       7.198	      70.082	     -23.332	       5.091	      -7.368	    -152.197
	21.500000000	      -1.640	    -167.579	       6.994	      69.157	     -23.355	       4.887	      -7.311	    -152.450
	22.000000000	      -1.632	    -168.175	       6.796	      68.257	     -23.378	       4.473	      -7.253	    -152.728
	22.500000000	      -1.630	    -168.825	       6.597	      67.339	     -23.403	       4.091	      -7.203	    -153.045
	23.000000000	      -1.632	    -169.422	       6.401	      66.456	     -23.455	       3.800	      -7.150	    -153.402
	23.500000000	      -1.632	    -170.094	       6.209	      65.606	     -23.550	       3.419	      -7.104	    -153.813
	24.000000000	      -1.640	    -170.692	       6.022	      64.787	     -23.647	       3.607	      -7.071	    -154.011
	24.500000000	      -1.635	    -171.133	       5.848	      63.949	     -23.630	       3.795	      -7.022	    -154.064
	25.000000000	      -1.622	    -171.613	       5.671	      63.068	     -23.620	       3.723	      -6.960	    -154.214
	25.500000000	      -1.620	    -172.213	       5.492	      62.240	     -23.670	       3.361	      -6.901	    -154.483
	26.000000000	      -1.625	    -172.764	       5.315	      61.426	     -23.701	       3.052	      -6.832	    -154.770
	26.500000000	      -1.622	    -173.248	       5.146	      60.610	     -23.739	       2.781	      -6.770	    -155.015
	27.000000000	      -1.616	    -173.646	       4.978	      59.819	     -23.821	       2.450	      -6.723	    -155.303
	27.500000000	      -1.623	    -174.041	       4.814	      59.105	     -23.967	       2.786	      -6.694	    -155.378
	28.000000000	      -1.623	    -174.526	       4.659	      58.346	     -24.012	       3.203	      -6.645	    -155.619
	28.500000000	      -1.599	    -174.965	       4.516	      57.462	     -23.935	       3.409	      -6.563	    -155.766
	29.000000000	      -1.593	    -175.442	       4.351	      56.598	     -23.947	       3.182	      -6.502	    -156.107
	29.500000000	      -1.591	    -175.896	       4.190	      55.828	     -23.998	       2.765	      -6.449	    -156.358
	30.000000000	      -1.594	    -176.274	       4.035	      55.117	     -24.063	       2.543	      -6.402	    -156.540
	30.500000000	      -1.591	    -176.697	       3.887	      54.356	     -24.108	       2.537	      -6.351	    -156.764
	31.000000000	      -1.584	    -177.124	       3.736	      53.628	     -24.173	       2.373	      -6.303	    -157.025
	31.500000000	      -1.569	    -177.484	       3.606	      52.912	     -24.254	       3.101	      -6.260	    -157.204
	32.000000000	      -1.567	    -177.798	       3.466	      52.092	     -24.254	       3.195	      -6.199	    -157.375
	32.500000000	      -1.572	    -178.229	       3.321	      51.268	     -24.222	       3.010	      -6.132	    -157.549
	33.000000000	      -1.570	    -178.674	       3.177	      50.535	     -24.261	       2.749	      -6.081	    -157.804
	33.500000000	      -1.558	    -179.054	       3.033	      49.822	     -24.334	       2.704	      -6.030	    -158.033
	34.000000000	      -1.550	    -179.416	       2.889	      49.090	     -24.349	       2.528	      -5.975	    -158.360
	34.500000000	      -1.553	    -179.802	       2.740	      48.338	     -24.417	       2.593	      -5.905	    -158.531
	35.000000000	      -1.560	     179.870	       2.603	      47.683	     -24.519	       2.470	      -5.864	    -158.850
	35.500000000	      -1.552	     179.537	       2.486	      46.980	     -24.539	       3.089	      -5.821	    -158.943
	36.000000000	      -1.547	     179.201	       2.359	      46.198	     -24.496	       3.044	      -5.760	    -159.152
	36.500000000	      -1.538	     178.926	       2.226	      45.468	     -24.499	       2.878	      -5.697	    -159.396
	37.000000000	      -1.534	     178.672	       2.094	      44.780	     -24.549	       2.501	      -5.647	    -159.671
	37.500000000	      -1.536	     178.307	       1.962	      44.081	     -24.673	       2.768	      -5.605	    -159.890
	38.000000000	      -1.527	     177.988	       1.835	      43.409	     -24.715	       2.277	      -5.555	    -160.097
	38.500000000	      -1.522	     177.664	       1.702	      42.737	     -24.766	       2.312	      -5.497	    -160.478
	39.000000000	      -1.516	     177.421	       1.585	      42.122	     -24.880	       2.951	      -5.449	    -160.669
	39.500000000	      -1.509	     177.240	       1.470	      41.501	     -24.896	       2.888	      -5.400	    -160.954
	40.000000000	      -1.495	     176.854	       1.364	      40.739	     -24.878	       3.378	      -5.339	    -161.136
	40.500000000	      -1.489	     176.448	       1.237	      40.012	     -24.918	       3.200	      -5.273	    -161.399
	41.000000000	      -1.479	     176.090	       1.113	      39.295	     -24.900	       3.137	      -5.240	    -161.719
	41.500000000	      -1.475	     175.865	       0.997	      38.654	     -24.985	       2.597	      -5.211	    -161.871
	42.000000000	      -1.474	     175.617	       0.880	      37.988	     -25.046	       2.877	      -5.146	    -162.002
	42.500000000	      -1.484	     175.266	       0.759	      37.364	     -25.142	       3.058	      -5.097	    -162.107
	43.000000000	      -1.481	     174.975	       0.662	      36.780	     -25.189	       4.039	      -5.039	    -162.379
	43.500000000	      -1.467	     174.753	       0.548	      35.987	     -25.084	       3.694	      -4.994	    -162.620
	44.000000000	      -1.468	     174.448	       0.429	      35.323	     -25.203	       4.058	      -4.938	    -162.964
	44.500000000	      -1.474	     174.082	       0.305	      34.647	     -25.186	       4.168	      -4.873	    -163.179
	45.000000000	      -1.489	     173.793	       0.183	      34.028	     -25.195	       3.873	      -4.819	    -163.428
	45.500000000	      -1.449	     173.446	      -0.084	      33.550	     -25.417	       3.418	      -4.684	    -164.239
	46.000000000	      -1.426	     173.231	      -0.199	      32.990	     -25.589	       3.771	      -4.641	    -164.454
	46.500000000	      -1.420	     172.874	      -0.298	      32.428	     -25.596	       4.413	      -4.577	    -164.630
	47.000000000	      -1.419	     172.590	      -0.408	      31.764	     -25.604	       4.415	      -4.535	    -164.776
	47.500000000	      -1.413	     172.309	      -0.511	      31.130	     -25.569	       4.938	      -4.478	    -165.031
	48.000000000	      -1.396	     172.008	      -0.623	      30.499	     -25.569	       5.491	      -4.447	    -165.183
	48.500000000	      -1.395	     171.677	      -0.732	      29.886	     -25.667	       4.796	      -4.389	    -165.382
	49.000000000	      -1.406	     171.485	      -0.847	      29.266	     -25.657	       4.372	      -4.346	    -165.728
	49.500000000	      -1.406	     171.248	      -0.950	      28.757	     -25.701	       4.919	      -4.297	    -165.929
	50.000000000	      -1.388	     171.029	      -1.041	      28.238	     -25.739	       4.593	      -4.239	    -166.307
	50.500000000	      -1.387	     170.743	      -1.158	      27.585	     -25.813	       5.794	      -4.208	    -166.720
	51.000000000	      -1.379	     170.511	      -1.259	      26.976	     -25.952	       6.610	      -4.214	    -166.865
	51.500000000	      -1.376	     170.292	      -1.354	      26.406	     -25.774	       6.073	      -4.154	    -167.221
	52.000000000	      -1.360	     170.122	      -1.476	      25.817	     -25.749	       6.018	      -4.121	    -167.511
	52.500000000	      -1.360	     169.762	      -1.576	      25.273	     -25.809	       5.592	      -4.096	    -167.564
	53.000000000	      -1.356	     169.446	      -1.675	      24.706	     -25.854	       5.817	      -4.061	    -167.559
	53.500000000	      -1.346	     169.261	      -1.774	      24.242	     -25.984	       5.911	      -3.999	    -167.885
	54.000000000	      -1.335	     169.071	      -1.855	      23.759	     -25.888	       6.011	      -3.961	    -168.097
	54.500000000	      -1.334	     168.646	      -1.942	      23.164	     -25.940	       6.240	      -3.909	    -168.277
	55.000000000	      -1.344	     168.267	      -2.028	      22.551	     -25.926	       6.455	      -3.872	    -168.389
	55.500000000	      -1.340	     168.025	      -2.112	      21.935	     -25.777	       6.275	      -3.826	    -168.655
	56.000000000	      -1.335	     167.707	      -2.202	      21.300	     -25.829	       6.692	      -3.796	    -169.074
	56.500000000	      -1.330	     167.510	      -2.294	      20.827	     -25.949	       5.424	      -3.769	    -169.455
	57.000000000	      -1.327	     167.285	      -2.401	      20.123	     -25.966	       5.942	      -3.752	    -169.599
	57.500000000	      -1.341	     167.108	      -2.495	      19.575	     -25.947	       5.594	      -3.707	    -169.827
	58.000000000	      -1.321	     166.971	      -2.594	      18.956	     -26.180	       6.652	      -3.673	    -170.071
	58.500000000	      -1.314	     166.759	      -2.671	      18.441	     -26.088	       6.332	      -3.646	    -170.325
	59.000000000	      -1.292	     166.486	      -2.751	      17.807	     -26.355	       8.199	      -3.608	    -170.562
	59.500000000	      -1.306	     166.228	      -2.844	      16.995	     -25.981	       6.124	      -3.545	    -170.685
	60.000000000	      -1.295	     166.084	      -2.936	      16.586	     -26.026	       6.811	      -3.579	    -171.085
	60.500000000	      -1.281	     165.905	      -3.041	      15.913	     -26.169	       5.958	      -3.561	    -171.223
	61.000000000	      -1.249	     165.660	      -3.139	      15.462	     -26.350	       6.348	      -3.508	    -171.323
	61.500000000	      -1.246	     165.333	      -3.231	      15.006	     -26.271	       6.103	      -3.490	    -171.507
	62.000000000	      -1.229	     165.109	      -3.285	      14.437	     -26.342	       6.079	      -3.462	    -171.678
	62.500000000	      -1.234	     164.741	      -3.372	      13.900	     -26.311	       7.944	      -3.457	    -171.720
	63.000000000	      -1.219	     164.356	      -3.455	      13.214	     -26.310	       7.530	      -3.404	    -171.638
	63.500000000	      -1.214	     164.096	      -3.524	      12.568	     -25.971	       7.583	      -3.354	    -171.895
	64.000000000	      -1.208	     164.125	      -3.595	      11.773	     -26.375	       7.430	      -3.311	    -171.908
	64.500000000	      -1.196	     163.998	      -3.678	      11.093	     -26.096	       6.576	      -3.296	    -171.839
	65.000000000	      -1.201	     163.645	      -3.776	      10.278	     -26.411	       5.343	      -3.207	    -172.191
	65.500000000	      -1.203	     163.115	      -3.910	       9.742	     -26.162	       5.967	      -3.193	    -172.772
	66.000000000	      -1.198	     162.892	      -4.018	       8.937	     -26.402	       6.045	      -3.171	    -173.135
	66.500000000	      -1.212	     162.690	      -4.122	       8.225	     -26.279	       7.264	      -3.132	    -173.018
	67.000000000	      -1.260	     162.353	      -4.230	       7.569	     -26.214	       5.498	      -3.137	    -173.061
	67.500000000	      -1.242	     161.718	      -4.367	       6.908	     -26.156	       6.611	      -3.111	    -173.389
	68.000000000	      -1.268	     161.576	      -4.458	       6.384	     -26.200	       6.220	      -3.132	    -173.671
	68.500000000	      -1.288	     161.367	      -4.555	       5.908	     -26.202	       6.033	      -3.098	    -173.799
	69.000000000	      -1.313	     161.142	      -4.684	       5.362	     -26.198	       5.574	      -3.042	    -173.903
	69.500000000	      -1.316	     160.904	      -4.788	       5.011	     -26.294	       5.401	      -3.010	    -174.022
	70.000000000	      -1.305	     160.716	      -4.878	       4.551	     -26.381	       6.005	      -2.978	    -174.074
	70.500000000	      -1.296	     160.502	      -4.966	       4.053	     -26.267	       5.844	      -2.938	    -174.145
	71.000000000	      -1.302	     160.212	      -5.070	       3.624	     -26.292	       5.639	      -2.908	    -174.288
	71.500000000	      -1.289	     159.962	      -5.168	       3.062	     -26.226	       5.252	      -2.840	    -174.459
	72.000000000	      -1.283	     159.806	      -5.255	       2.616	     -26.255	       4.531	      -2.838	    -174.715
	72.500000000	      -1.300	     159.439	      -5.340	       1.963	     -26.277	       3.663	      -2.817	    -174.934
	73.000000000	      -1.338	     159.222	      -5.444	       1.411	     -26.445	       3.077	      -2.780	    -175.086
	73.500000000	      -1.345	     159.171	      -5.548	       0.944	     -26.644	       3.177	      -2.712	    -175.359
	74.000000000	      -1.351	     158.976	      -5.647	       0.473	     -26.704	       3.701	      -2.709	    -175.856
	74.500000000	      -1.377	     158.781	      -5.733	      -0.022	     -26.788	       3.967	      -2.724	    -176.085
	75.000000000	      -1.405	     158.662	      -5.830	      -0.597	     -26.855	       4.241	      -2.715	    -176.184
	75.500000000	      -1.429	     158.647	      -5.957	      -1.162	     -27.094	       4.668	      -2.718	    -176.285
	76.000000000	      -1.445	     158.684	      -6.081	      -1.606	     -27.327	       6.447	      -2.733	    -176.290
	76.500000000	      -1.443	     158.884	      -6.212	      -1.808	     -27.406	      10.108	      -2.718	    -176.114
	77.000000000	      -1.419	     158.933	      -6.307	      -1.926	     -26.999	      13.411	      -2.647	    -175.902
	77.500000000	      -1.363	     158.846	      -6.353	      -1.982	     -26.359	      14.474	      -2.561	    -175.962
	78.000000000	      -1.276	     158.664	      -6.392	      -2.188	     -25.882	      13.526	      -2.510	    -176.068
	78.500000000	      -1.223	     158.174	      -6.443	      -2.724	     -25.577	      11.564	      -2.463	    -176.359
	79.000000000	      -1.222	     157.607	      -6.506	      -3.231	     -25.409	      10.124	      -2.410	    -176.621
	79.500000000	      -1.234	     157.032	      -6.540	      -3.912	     -25.193	       8.394	      -2.363	    -176.832
