!File name = EG0520U_1010_6x60_2SDBCB2EV_1915934D06_RC7325_4Vd_18mA.s2p
!Base file name = EG0520U_1010_6x60_2SDBCB2EV_1915934D06_RC7325
!Date = 8/23/2019
!Time = 1:11 PM
!Test duration(min) = 0.15
!Test = S-Parameters
!MPTS version = 8.91.5
!State File = C:\Data\PNA\20190821205423\S-Parameters_2019-08-23.sta
!Cal File = 
!ComputerName = CMPE-LAB-6
!Comments = 
!Attenuation = 0
!Z0 = 50
!Input Power(dBm) = -13.00
!Device ID = EG0520U_1010_6x60_2SDBCB2EV
!Row = 73
!Column = 25
!Technology = QPHT09
!Lot/Wafer = 1915934D06
!Gate Size = 360
!Mask = EG0520
!Cal Standards = GaAs BCB
!Cal Kit = EG2306
!Job Number = 20190821205423
!Device Type = FET
!set_Vg(v) = -1.500
!set_Vd(v) = 4.000
!set_Vd(mA) = 18.000
!file_name = EG0520U_1010_6x60_2SDBCB2EV_1915934D06_RC7325_4Vd_18mA.s2p
!Vd(V) = 4.000
!Vd(mA) = 17.840
!Vg(V) = -0.678
!Vg(mA) = -0.010
# GHz   S   DB   R   50
!%	Freq(GHz)	     s11(dB)	    s11(deg)	     s21(dB)	    s21(deg)	     s12(dB)	    s12(deg)	     s22(dB)	    s22(deg)
	0.500000000	      -0.092	     -12.263	      19.593	     172.194	     -37.818	      80.528	      -6.489	     -11.044
	1.000000000	      -0.170	     -24.300	      19.304	     164.554	     -31.983	      74.786	      -6.578	     -21.309
	1.500000000	      -0.204	     -35.851	      19.032	     158.215	     -28.731	      68.532	      -6.652	     -31.414
	2.000000000	      -0.336	     -46.626	      18.807	     151.244	     -26.608	      62.326	      -6.785	     -41.508
	2.500000000	      -0.428	     -56.865	      18.451	     145.276	     -25.126	      56.979	      -7.023	     -50.063
	3.000000000	      -0.800	     -63.890	      17.832	     140.017	     -24.242	      52.647	      -7.381	     -53.620
	3.500000000	      -0.916	     -72.315	      17.403	     135.103	     -23.384	      48.306	      -7.564	     -60.470
	4.000000000	      -1.030	     -79.824	      16.931	     130.587	     -22.719	      44.377	      -7.738	     -66.695
	4.500000000	      -1.161	     -86.562	      16.436	     126.270	     -22.207	      40.712	      -7.903	     -72.600
	5.000000000	      -1.246	     -92.739	      15.958	     122.551	     -21.800	      37.497	      -8.065	     -77.723
	5.500000000	      -1.336	     -98.337	      15.483	     119.012	     -21.481	      34.688	      -8.232	     -82.369
	6.000000000	      -1.415	    -103.482	      15.020	     115.758	     -21.210	      32.065	      -8.339	     -86.532
	6.500000000	      -1.477	    -108.047	      14.562	     112.829	     -20.989	      29.692	      -8.438	     -90.298
	7.000000000	      -1.539	    -112.235	      14.117	     110.035	     -20.811	      27.506	      -8.516	     -93.729
	7.500000000	      -1.584	    -116.021	      13.681	     107.474	     -20.665	      25.534	      -8.579	     -96.845
	8.000000000	      -1.610	    -119.255	      13.275	     105.203	     -20.529	      23.879	      -8.635	     -99.006
	8.500000000	      -1.654	    -122.498	      12.866	     102.943	     -20.421	      22.171	      -8.686	    -101.570
	9.000000000	      -1.695	    -125.398	      12.462	     100.819	     -20.332	      20.543	      -8.714	    -103.864
	9.500000000	      -1.727	    -128.142	      12.085	      98.756	     -20.259	      19.025	      -8.732	    -105.953
	10.000000000	      -1.750	    -130.671	      11.715	      96.832	     -20.203	      17.594	      -8.744	    -107.919
	10.500000000	      -1.780	    -133.039	      11.358	      94.950	     -20.164	      16.314	      -8.750	    -109.754
	11.000000000	      -1.798	    -135.210	      11.014	      93.208	     -20.127	      15.108	      -8.746	    -111.348
	11.500000000	      -1.823	    -137.259	      10.674	      91.504	     -20.102	      13.944	      -8.735	    -112.844
	12.000000000	      -1.841	    -139.176	      10.353	      89.888	     -20.082	      12.902	      -8.708	    -114.232
	12.500000000	      -1.852	    -140.970	      10.040	      88.340	     -20.066	      11.863	      -8.676	    -115.638
	13.000000000	      -1.866	    -142.629	       9.732	      86.790	     -20.060	      10.897	      -8.645	    -116.895
	13.500000000	      -1.879	    -144.232	       9.436	      85.335	     -20.057	       9.910	      -8.603	    -117.964
	14.000000000	      -1.892	    -145.745	       9.147	      83.913	     -20.061	       9.067	      -8.558	    -118.983
	14.500000000	      -1.898	    -147.128	       8.867	      82.527	     -20.069	       8.267	      -8.518	    -120.044
	15.000000000	      -1.904	    -148.371	       8.591	      81.195	     -20.075	       7.518	      -8.475	    -120.989
	15.500000000	      -1.910	    -149.607	       8.326	      79.875	     -20.081	       6.786	      -8.422	    -121.823
	16.000000000	      -1.918	    -150.826	       8.065	      78.585	     -20.083	       6.015	      -8.359	    -122.620
	16.500000000	      -1.923	    -151.996	       7.812	      77.314	     -20.108	       5.283	      -8.302	    -123.349
	17.000000000	      -1.924	    -153.097	       7.568	      76.085	     -20.132	       4.573	      -8.246	    -124.087
	17.500000000	      -1.933	    -154.088	       7.322	      74.873	     -20.149	       3.947	      -8.184	    -124.879
	18.000000000	      -1.943	    -155.069	       7.090	      73.698	     -20.179	       3.277	      -8.121	    -125.610
	18.500000000	      -1.944	    -156.028	       6.860	      72.542	     -20.194	       2.650	      -8.048	    -126.235
	19.000000000	      -1.944	    -156.936	       6.633	      71.394	     -20.229	       1.991	      -7.981	    -126.844
	19.500000000	      -1.941	    -157.800	       6.415	      70.286	     -20.276	       1.456	      -7.921	    -127.432
	20.000000000	      -1.946	    -158.615	       6.200	      69.193	     -20.329	       1.023	      -7.864	    -127.982
	20.500000000	      -1.947	    -159.405	       5.997	      68.103	     -20.353	       0.664	      -7.788	    -128.492
	21.000000000	      -1.947	    -160.159	       5.792	      67.024	     -20.368	       0.227	      -7.711	    -129.046
	21.500000000	      -1.938	    -160.958	       5.590	      65.951	     -20.395	      -0.243	      -7.633	    -129.530
	22.000000000	      -1.931	    -161.630	       5.392	      64.902	     -20.420	      -0.824	      -7.561	    -129.961
	22.500000000	      -1.929	    -162.338	       5.196	      63.829	     -20.445	      -1.390	      -7.495	    -130.557
	23.000000000	      -1.932	    -163.004	       5.001	      62.801	     -20.482	      -1.951	      -7.423	    -131.165
	23.500000000	      -1.932	    -163.750	       4.808	      61.799	     -20.559	      -2.576	      -7.358	    -131.779
	24.000000000	      -1.940	    -164.398	       4.622	      60.859	     -20.653	      -2.873	      -7.301	    -132.150
	24.500000000	      -1.932	    -164.877	       4.449	      59.898	     -20.677	      -2.922	      -7.226	    -132.412
	25.000000000	      -1.918	    -165.382	       4.276	      58.884	     -20.675	      -3.225	      -7.145	    -132.773
	25.500000000	      -1.916	    -166.034	       4.097	      57.925	     -20.724	      -3.688	      -7.058	    -133.261
	26.000000000	      -1.919	    -166.637	       3.921	      56.981	     -20.759	      -4.155	      -6.973	    -133.808
	26.500000000	      -1.911	    -167.168	       3.752	      56.014	     -20.798	      -4.654	      -6.896	    -134.274
	27.000000000	      -1.903	    -167.610	       3.585	      55.082	     -20.847	      -5.194	      -6.827	    -134.697
	27.500000000	      -1.904	    -168.012	       3.422	      54.256	     -20.981	      -5.369	      -6.772	    -134.899
	28.000000000	      -1.899	    -168.584	       3.270	      53.351	     -21.058	      -5.412	      -6.697	    -135.398
	28.500000000	      -1.878	    -169.091	       3.124	      52.353	     -21.036	      -5.265	      -6.600	    -135.825
	29.000000000	      -1.870	    -169.611	       2.960	      51.379	     -21.050	      -5.797	      -6.526	    -136.333
	29.500000000	      -1.866	    -170.034	       2.802	      50.461	     -21.097	      -6.218	      -6.456	    -136.776
	30.000000000	      -1.867	    -170.504	       2.646	      49.630	     -21.157	      -6.656	      -6.394	    -137.116
	30.500000000	      -1.867	    -170.965	       2.497	      48.732	     -21.202	      -6.883	      -6.332	    -137.532
	31.000000000	      -1.852	    -171.438	       2.346	      47.869	     -21.252	      -7.296	      -6.267	    -137.966
	31.500000000	      -1.840	    -171.856	       2.213	      47.033	     -21.379	      -6.979	      -6.199	    -138.325
	32.000000000	      -1.837	    -172.206	       2.070	      46.114	     -21.407	      -7.192	      -6.126	    -138.648
	32.500000000	      -1.844	    -172.706	       1.925	      45.214	     -21.383	      -7.520	      -6.045	    -139.018
	33.000000000	      -1.845	    -173.146	       1.781	      44.366	     -21.427	      -7.769	      -5.984	    -139.418
	33.500000000	      -1.831	    -173.573	       1.637	      43.550	     -21.515	      -8.297	      -5.924	    -139.869
	34.000000000	      -1.819	    -173.939	       1.497	      42.664	     -21.557	      -8.356	      -5.849	    -140.407
	34.500000000	      -1.821	    -174.341	       1.347	      41.813	     -21.598	      -8.753	      -5.774	    -140.769
	35.000000000	      -1.820	    -174.718	       1.208	      41.009	     -21.704	      -9.056	      -5.706	    -141.271
	35.500000000	      -1.819	    -175.110	       1.089	      40.263	     -21.730	      -8.879	      -5.659	    -141.535
	36.000000000	      -1.811	    -175.443	       0.959	      39.424	     -21.762	      -8.988	      -5.580	    -141.887
	36.500000000	      -1.796	    -175.686	       0.833	      38.552	     -21.798	      -9.201	      -5.509	    -142.304
	37.000000000	      -1.789	    -175.959	       0.703	      37.722	     -21.841	      -9.805	      -5.448	    -142.725
	37.500000000	      -1.786	    -176.373	       0.573	      36.924	     -21.900	      -9.870	      -5.399	    -143.096
	38.000000000	      -1.774	    -176.758	       0.441	      36.100	     -21.941	     -10.310	      -5.329	    -143.462
	38.500000000	      -1.759	    -177.140	       0.305	      35.337	     -22.050	     -10.611	      -5.263	    -143.983
	39.000000000	      -1.749	    -177.417	       0.185	      34.586	     -22.149	     -10.564	      -5.203	    -144.398
	39.500000000	      -1.744	    -177.656	       0.067	      33.848	     -22.212	     -10.808	      -5.140	    -144.809
	40.000000000	      -1.735	    -178.106	      -0.044	      32.993	     -22.198	     -10.664	      -5.067	    -145.203
	40.500000000	      -1.729	    -178.592	      -0.174	      32.166	     -22.180	     -10.994	      -5.003	    -145.620
	41.000000000	      -1.711	    -178.956	      -0.299	      31.354	     -22.320	     -11.294	      -4.962	    -146.102
	41.500000000	      -1.706	    -179.182	      -0.417	      30.593	     -22.367	     -11.528	      -4.910	    -146.356
	42.000000000	      -1.712	    -179.479	      -0.534	      29.861	     -22.409	     -11.675	      -4.848	    -146.600
	42.500000000	      -1.727	    -179.864	      -0.661	      29.159	     -22.500	     -11.637	      -4.780	    -146.795
	43.000000000	      -1.724	     179.859	      -0.761	      28.478	     -22.644	     -11.633	      -4.716	    -147.195
	43.500000000	      -1.710	     179.629	      -0.875	      27.623	     -22.635	     -11.750	      -4.674	    -147.695
	44.000000000	      -1.709	     179.306	      -0.993	      26.856	     -22.570	     -11.633	      -4.594	    -148.181
	44.500000000	      -1.717	     178.886	      -1.115	      26.077	     -22.668	     -11.760	      -4.544	    -148.588
	45.000000000	      -1.728	     178.588	      -1.228	      25.331	     -22.742	     -12.317	      -4.481	    -149.005
	45.500000000	      -1.674	     178.066	      -1.507	      24.599	     -22.902	     -12.474	      -4.374	    -150.211
	46.000000000	      -1.654	     177.826	      -1.629	      23.944	     -23.128	     -13.157	      -4.323	    -150.628
	46.500000000	      -1.642	     177.424	      -1.730	      23.251	     -23.250	     -12.476	      -4.244	    -150.867
	47.000000000	      -1.639	     177.058	      -1.840	      22.496	     -23.210	     -13.111	      -4.196	    -151.219
	47.500000000	      -1.636	     176.740	      -1.954	      21.759	     -23.217	     -12.337	      -4.157	    -151.548
	48.000000000	      -1.621	     176.425	      -2.066	      21.043	     -23.286	     -12.465	      -4.108	    -151.886
	48.500000000	      -1.613	     176.103	      -2.172	      20.367	     -23.344	     -12.709	      -4.031	    -152.205
	49.000000000	      -1.620	     175.889	      -2.286	      19.588	     -23.383	     -13.179	      -3.977	    -152.498
	49.500000000	      -1.635	     175.654	      -2.401	      19.015	     -23.501	     -13.027	      -3.908	    -152.804
	50.000000000	      -1.618	     175.272	      -2.527	      18.342	     -23.483	     -13.994	      -3.862	    -153.402
	50.500000000	      -1.604	     175.016	      -2.600	      17.762	     -23.606	     -12.641	      -3.858	    -153.980
	51.000000000	      -1.592	     174.709	      -2.714	      17.025	     -23.670	     -12.394	      -3.837	    -154.300
	51.500000000	      -1.593	     174.531	      -2.828	      16.368	     -23.648	     -12.996	      -3.787	    -154.798
	52.000000000	      -1.568	     174.243	      -2.929	      15.650	     -23.611	     -12.362	      -3.745	    -155.101
	52.500000000	      -1.570	     173.856	      -3.031	      14.951	     -23.699	     -12.754	      -3.697	    -155.259
	53.000000000	      -1.566	     173.534	      -3.145	      14.298	     -23.812	     -13.513	      -3.651	    -155.430
	53.500000000	      -1.557	     173.286	      -3.244	      13.703	     -23.925	     -13.569	      -3.597	    -155.753
	54.000000000	      -1.546	     173.008	      -3.331	      13.145	     -23.741	     -13.224	      -3.541	    -156.264
	54.500000000	      -1.547	     172.582	      -3.431	      12.490	     -23.908	     -13.354	      -3.493	    -156.408
	55.000000000	      -1.557	     172.155	      -3.526	      11.776	     -24.006	     -13.127	      -3.436	    -156.678
	55.500000000	      -1.546	     171.809	      -3.608	      11.205	     -23.937	     -13.328	      -3.404	    -157.092
	56.000000000	      -1.545	     171.510	      -3.693	      10.303	     -23.873	     -13.532	      -3.357	    -157.631
	56.500000000	      -1.552	     171.279	      -3.818	       9.781	     -23.917	     -14.791	      -3.339	    -158.236
	57.000000000	      -1.539	     171.150	      -3.913	       9.077	     -24.083	     -13.830	      -3.326	    -158.322
	57.500000000	      -1.540	     170.878	      -4.010	       8.329	     -24.206	     -15.105	      -3.269	    -158.824
	58.000000000	      -1.529	     170.801	      -4.114	       7.791	     -24.432	     -14.618	      -3.234	    -159.055
	58.500000000	      -1.484	     170.560	      -4.202	       7.129	     -24.329	     -13.451	      -3.174	    -159.606
	59.000000000	      -1.486	     170.126	      -4.297	       6.264	     -24.498	     -14.470	      -3.135	    -159.829
	59.500000000	      -1.499	     169.787	      -4.375	       5.609	     -24.355	     -14.275	      -3.068	    -160.119
	60.000000000	      -1.482	     169.687	      -4.467	       5.000	     -24.536	     -14.306	      -3.091	    -160.648
	60.500000000	      -1.456	     169.358	      -4.579	       4.297	     -24.649	     -14.932	      -3.098	    -160.769
	61.000000000	      -1.431	     169.041	      -4.673	       3.747	     -24.607	     -14.901	      -3.045	    -160.973
	61.500000000	      -1.414	     168.802	      -4.759	       3.064	     -24.697	     -15.297	      -3.012	    -161.212
	62.000000000	      -1.406	     168.389	      -4.822	       2.465	     -24.923	     -14.281	      -2.995	    -161.494
	62.500000000	      -1.420	     168.122	      -4.936	       1.726	     -24.645	     -13.945	      -2.962	    -161.544
	63.000000000	      -1.394	     167.667	      -5.014	       0.986	     -24.812	     -14.432	      -2.898	    -161.691
	63.500000000	      -1.388	     167.416	      -5.079	       0.276	     -24.731	     -13.054	      -2.836	    -162.116
	64.000000000	      -1.383	     167.468	      -5.156	      -0.714	     -24.776	     -13.071	      -2.748	    -162.160
	64.500000000	      -1.367	     167.378	      -5.247	      -1.344	     -24.861	     -14.145	      -2.705	    -162.232
	65.000000000	      -1.371	     166.908	      -5.327	      -2.305	     -24.933	     -14.691	      -2.648	    -162.784
	65.500000000	      -1.364	     166.420	      -5.492	      -3.245	     -25.091	     -13.344	      -2.634	    -163.689
	66.000000000	      -1.365	     166.050	      -5.602	      -4.020	     -24.748	     -15.508	      -2.600	    -164.189
	66.500000000	      -1.398	     165.872	      -5.717	      -4.827	     -24.714	     -15.360	      -2.591	    -164.044
	67.000000000	      -1.441	     165.395	      -5.831	      -5.479	     -25.143	     -14.097	      -2.549	    -164.422
	67.500000000	      -1.416	     164.800	      -5.998	      -6.368	     -24.930	     -14.629	      -2.559	    -164.883
	68.000000000	      -1.462	     164.576	      -6.118	      -7.103	     -24.954	     -14.982	      -2.593	    -165.226
	68.500000000	      -1.502	     164.310	      -6.205	      -7.729	     -24.945	     -15.454	      -2.544	    -165.386
	69.000000000	      -1.532	     164.085	      -6.326	      -8.262	     -24.934	     -15.915	      -2.489	    -165.794
	69.500000000	      -1.521	     163.867	      -6.472	      -8.849	     -25.032	     -16.282	      -2.484	    -166.061
	70.000000000	      -1.502	     163.661	      -6.582	      -9.396	     -25.176	     -16.056	      -2.458	    -166.212
	70.500000000	      -1.481	     163.448	      -6.693	      -9.919	     -25.145	     -15.770	      -2.423	    -166.446
	71.000000000	      -1.468	     163.234	      -6.782	     -10.446	     -25.131	     -16.046	      -2.388	    -166.691
	71.500000000	      -1.421	     163.068	      -6.894	     -11.010	     -25.101	     -16.588	      -2.325	    -167.023
	72.000000000	      -1.419	     162.729	      -7.031	     -11.522	     -25.141	     -17.487	      -2.332	    -167.284
	72.500000000	      -1.434	     162.260	      -7.148	     -12.188	     -25.146	     -18.576	      -2.312	    -167.606
	73.000000000	      -1.467	     162.039	      -7.269	     -12.800	     -25.317	     -19.603	      -2.276	    -167.876
	73.500000000	      -1.488	     161.920	      -7.400	     -13.287	     -25.564	     -20.073	      -2.212	    -168.244
	74.000000000	      -1.494	     161.624	      -7.522	     -13.670	     -25.762	     -19.636	      -2.218	    -168.834
	74.500000000	      -1.528	     161.360	      -7.622	     -14.059	     -25.904	     -19.228	      -2.232	    -169.093
	75.000000000	      -1.563	     161.279	      -7.728	     -14.575	     -26.002	     -19.076	      -2.223	    -169.238
	75.500000000	      -1.589	     161.247	      -7.855	     -15.048	     -26.242	     -19.020	      -2.222	    -169.374
	76.000000000	      -1.606	     161.303	      -7.982	     -15.398	     -26.627	     -17.843	      -2.229	    -169.510
	76.500000000	      -1.585	     161.414	      -8.108	     -15.469	     -26.961	     -14.263	      -2.212	    -169.500
	77.000000000	      -1.569	     161.365	      -8.180	     -15.488	     -26.827	      -9.386	      -2.150	    -169.431
	77.500000000	      -1.481	     161.296	      -8.201	     -15.401	     -26.271	      -6.291	      -2.074	    -169.605
	78.000000000	      -1.397	     160.878	      -8.187	     -15.728	     -25.659	      -5.374	      -2.037	    -169.783
	78.500000000	      -1.356	     160.356	      -8.201	     -16.528	     -25.177	      -6.480	      -1.996	    -170.156
	79.000000000	      -1.401	     159.706	      -8.257	     -17.494	     -24.845	      -8.258	      -1.936	    -170.477
	79.500000000	      -1.425	     159.164	      -8.314	     -18.393	     -24.608	     -10.041	      -1.901	    -170.777
