!File name = EG0520U_1010_6x60_2SDBCB2EV_1915934D06_RC2943_2.5Vd_18mA.s2p
!Base file name = EG0520U_1010_6x60_2SDBCB2EV_1915934D06_RC2943
!Date = 8/23/2019
!Time = 1:01 PM
!Test duration(min) = 0.15
!Test = S-Parameters
!MPTS version = 8.91.5
!State File = C:\Data\PNA\20190821205423\S-Parameters_2019-08-23.sta
!Cal File = 
!ComputerName = CMPE-LAB-6
!Comments = 
!Attenuation = 0
!Z0 = 50
!Input Power(dBm) = -13.00
!Device ID = EG0520U_1010_6x60_2SDBCB2EV
!Row = 29
!Column = 43
!Technology = QPHT09
!Lot/Wafer = 1915934D06
!Gate Size = 360
!Mask = EG0520
!Cal Standards = GaAs BCB
!Cal Kit = EG2306
!Job Number = 20190821205423
!Device Type = FET
!set_Vg(v) = -1.500
!set_Vd(v) = 2.500
!set_Vd(mA) = 18.000
!file_name = EG0520U_1010_6x60_2SDBCB2EV_1915934D06_RC2943_2.5Vd_18mA.s2p
!Vd(V) = 2.500
!Vd(mA) = 17.854
!Vg(V) = -0.601
!Vg(mA) = -0.002
# GHz   S   DB   R   50
!%	Freq(GHz)	     s11(dB)	    s11(deg)	     s21(dB)	    s21(deg)	     s12(dB)	    s12(deg)	     s22(dB)	    s22(deg)
	0.500000000	      -0.042	     -12.544	      19.655	     172.212	     -37.132	      81.841	      -8.450	     -14.569
	1.000000000	      -0.123	     -24.852	      19.373	     164.147	     -31.307	      75.089	      -8.414	     -28.096
	1.500000000	      -0.162	     -36.622	      19.101	     158.007	     -28.072	      68.325	      -8.270	     -41.118
	2.000000000	      -0.316	     -47.790	      18.873	     150.625	     -25.976	      61.751	      -8.146	     -53.980
	2.500000000	      -0.409	     -58.154	      18.519	     144.688	     -24.529	      56.256	      -8.180	     -64.516
	3.000000000	      -0.807	     -65.444	      17.899	     139.521	     -23.647	      51.966	      -8.480	     -69.123
	3.500000000	      -0.932	     -73.966	      17.458	     134.547	     -22.809	      47.534	      -8.435	     -77.207
	4.000000000	      -1.051	     -81.575	      16.971	     130.149	     -22.161	      43.544	      -8.388	     -84.357
	4.500000000	      -1.194	     -88.409	      16.460	     125.789	     -21.669	      39.827	      -8.336	     -91.036
	5.000000000	      -1.281	     -94.574	      15.971	     122.194	     -21.278	      36.602	      -8.313	     -96.717
	5.500000000	      -1.377	    -100.283	      15.486	     118.678	     -20.976	      33.802	      -8.320	    -101.810
	6.000000000	      -1.460	    -105.433	      15.018	     115.470	     -20.712	      31.201	      -8.279	    -106.170
	6.500000000	      -1.525	    -110.033	      14.551	     112.639	     -20.505	      28.819	      -8.249	    -110.090
	7.000000000	      -1.589	    -114.222	      14.098	     109.893	     -20.333	      26.646	      -8.216	    -113.566
	7.500000000	      -1.636	    -118.022	      13.655	     107.403	     -20.197	      24.661	      -8.182	    -116.751
	8.000000000	      -1.665	    -121.263	      13.246	     105.198	     -20.063	      23.053	      -8.180	    -118.956
	8.500000000	      -1.707	    -124.500	      12.834	     103.019	     -19.963	      21.348	      -8.153	    -121.494
	9.000000000	      -1.751	    -127.392	      12.424	     100.974	     -19.878	      19.736	      -8.123	    -123.771
	9.500000000	      -1.784	    -130.146	      12.043	      98.970	     -19.808	      18.240	      -8.090	    -125.818
	10.000000000	      -1.807	    -132.663	      11.670	      97.128	     -19.759	      16.823	      -8.057	    -127.726
	10.500000000	      -1.837	    -135.044	      11.311	      95.305	     -19.719	      15.548	      -8.023	    -129.510
	11.000000000	      -1.857	    -137.217	      10.963	      93.639	     -19.690	      14.334	      -7.993	    -131.070
	11.500000000	      -1.883	    -139.270	      10.621	      91.999	     -19.664	      13.192	      -7.961	    -132.514
	12.000000000	      -1.902	    -141.176	      10.298	      90.461	     -19.650	      12.165	      -7.922	    -133.818
	12.500000000	      -1.915	    -142.958	       9.981	      88.987	     -19.636	      11.176	      -7.879	    -135.114
	13.000000000	      -1.932	    -144.635	       9.671	      87.507	     -19.631	      10.210	      -7.840	    -136.249
	13.500000000	      -1.943	    -146.206	       9.374	      86.129	     -19.628	       9.270	      -7.793	    -137.267
	14.000000000	      -1.955	    -147.740	       9.085	      84.770	     -19.633	       8.393	      -7.748	    -138.224
	14.500000000	      -1.961	    -149.130	       8.804	      83.448	     -19.639	       7.604	      -7.708	    -139.215
	15.000000000	      -1.968	    -150.381	       8.528	      82.181	     -19.649	       6.835	      -7.671	    -140.102
	15.500000000	      -1.978	    -151.620	       8.260	      80.928	     -19.663	       6.147	      -7.629	    -140.843
	16.000000000	      -1.985	    -152.835	       7.999	      79.703	     -19.660	       5.440	      -7.578	    -141.557
	16.500000000	      -1.992	    -154.007	       7.745	      78.498	     -19.679	       4.689	      -7.532	    -142.213
	17.000000000	      -1.995	    -155.103	       7.498	      77.331	     -19.706	       4.028	      -7.488	    -142.881
	17.500000000	      -2.003	    -156.093	       7.254	      76.190	     -19.721	       3.406	      -7.438	    -143.565
	18.000000000	      -2.015	    -157.062	       7.019	      75.073	     -19.747	       2.778	      -7.387	    -144.207
	18.500000000	      -2.015	    -158.021	       6.789	      73.979	     -19.758	       2.124	      -7.329	    -144.753
	19.000000000	      -2.017	    -158.936	       6.562	      72.891	     -19.792	       1.456	      -7.278	    -145.305
	19.500000000	      -2.016	    -159.793	       6.342	      71.844	     -19.847	       0.902	      -7.236	    -145.827
	20.000000000	      -2.023	    -160.603	       6.129	      70.828	     -19.891	       0.545	      -7.194	    -146.287
	20.500000000	      -2.024	    -161.382	       5.925	      69.802	     -19.910	       0.224	      -7.137	    -146.724
	21.000000000	      -2.024	    -162.173	       5.719	      68.778	     -19.915	      -0.269	      -7.077	    -147.201
	21.500000000	      -2.019	    -162.949	       5.516	      67.769	     -19.953	      -0.818	      -7.024	    -147.619
	22.000000000	      -2.017	    -163.618	       5.319	      66.795	     -19.976	      -1.337	      -6.966	    -148.040
	22.500000000	      -2.015	    -164.260	       5.122	      65.807	     -20.005	      -1.938	      -6.917	    -148.495
	23.000000000	      -2.018	    -164.946	       4.927	      64.841	     -20.055	      -2.469	      -6.865	    -148.998
	23.500000000	      -2.019	    -165.574	       4.739	      63.943	     -20.138	      -2.898	      -6.816	    -149.476
	24.000000000	      -2.017	    -166.199	       4.561	      63.043	     -20.201	      -2.974	      -6.771	    -149.803
	24.500000000	      -2.005	    -166.708	       4.389	      62.103	     -20.211	      -3.166	      -6.720	    -150.039
	25.000000000	      -1.991	    -167.216	       4.214	      61.147	     -20.197	      -3.605	      -6.664	    -150.363
	25.500000000	      -1.982	    -167.817	       4.039	      60.239	     -20.241	      -4.007	      -6.603	    -150.706
	26.000000000	      -1.985	    -168.495	       3.862	      59.332	     -20.279	      -4.431	      -6.534	    -151.135
	26.500000000	      -1.984	    -169.017	       3.693	      58.438	     -20.329	      -4.940	      -6.473	    -151.475
	27.000000000	      -1.975	    -169.427	       3.527	      57.584	     -20.383	      -5.362	      -6.423	    -151.766
	27.500000000	      -1.970	    -169.828	       3.371	      56.797	     -20.464	      -5.551	      -6.383	    -151.996
	28.000000000	      -1.957	    -170.384	       3.223	      55.923	     -20.516	      -5.715	      -6.324	    -152.406
	28.500000000	      -1.944	    -170.944	       3.069	      54.963	     -20.479	      -5.921	      -6.255	    -152.741
	29.000000000	      -1.935	    -171.392	       2.910	      54.067	     -20.512	      -6.333	      -6.194	    -153.122
	29.500000000	      -1.930	    -171.843	       2.753	      53.216	     -20.571	      -6.824	      -6.139	    -153.442
	30.000000000	      -1.921	    -172.258	       2.603	      52.426	     -20.614	      -7.174	      -6.092	    -153.740
	30.500000000	      -1.914	    -172.731	       2.455	      51.561	     -20.663	      -7.450	      -6.042	    -154.082
	31.000000000	      -1.900	    -173.209	       2.307	      50.739	     -20.707	      -8.036	      -5.997	    -154.402
	31.500000000	      -1.887	    -173.656	       2.171	      49.917	     -20.793	      -7.898	      -5.947	    -154.716
	32.000000000	      -1.884	    -174.018	       2.028	      49.077	     -20.827	      -7.937	      -5.894	    -154.962
	32.500000000	      -1.892	    -174.500	       1.883	      48.201	     -20.855	      -8.393	      -5.828	    -155.185
	33.000000000	      -1.891	    -174.918	       1.742	      47.419	     -20.877	      -8.717	      -5.778	    -155.490
	33.500000000	      -1.874	    -175.321	       1.598	      46.638	     -20.943	      -9.064	      -5.724	    -155.864
	34.000000000	      -1.857	    -175.686	       1.462	      45.834	     -21.004	      -9.127	      -5.661	    -156.219
	34.500000000	      -1.853	    -176.123	       1.314	      44.965	     -21.055	      -9.685	      -5.597	    -156.474
	35.000000000	      -1.850	    -176.523	       1.177	      44.190	     -21.136	      -9.851	      -5.552	    -156.877
	35.500000000	      -1.846	    -176.927	       1.051	      43.465	     -21.167	      -9.818	      -5.509	    -157.094
	36.000000000	      -1.840	    -177.282	       0.921	      42.619	     -21.195	     -10.112	      -5.442	    -157.375
	36.500000000	      -1.827	    -177.602	       0.788	      41.809	     -21.215	     -10.411	      -5.386	    -157.693
	37.000000000	      -1.821	    -177.873	       0.654	      41.065	     -21.241	     -10.757	      -5.337	    -157.994
	37.500000000	      -1.821	    -178.320	       0.520	      40.309	     -21.305	     -11.268	      -5.296	    -158.295
	38.000000000	      -1.820	    -178.648	       0.387	      39.614	     -21.420	     -11.619	      -5.248	    -158.499
	38.500000000	      -1.805	    -179.030	       0.253	      38.889	     -21.461	     -11.852	      -5.188	    -158.966
	39.000000000	      -1.803	    -179.361	       0.125	      38.169	     -21.533	     -11.715	      -5.141	    -159.280
	39.500000000	      -1.810	    -179.624	       0.001	      37.513	     -21.569	     -12.032	      -5.087	    -159.558
	40.000000000	      -1.816	    -179.971	      -0.112	      36.824	     -21.678	     -11.871	      -5.032	    -159.784
	40.500000000	      -1.812	     179.668	      -0.233	      36.106	     -21.715	     -11.928	      -4.965	    -160.025
	41.000000000	      -1.796	     179.383	      -0.345	      35.379	     -21.746	     -11.871	      -4.924	    -160.428
	41.500000000	      -1.785	     179.180	      -0.463	      34.664	     -21.784	     -12.119	      -4.878	    -160.725
	42.000000000	      -1.785	     178.935	      -0.578	      33.962	     -21.800	     -12.602	      -4.830	    -160.936
	42.500000000	      -1.801	     178.552	      -0.701	      33.289	     -21.906	     -13.060	      -4.773	    -161.027
	43.000000000	      -1.798	     178.330	      -0.803	      32.708	     -21.988	     -12.992	      -4.721	    -161.361
	43.500000000	      -1.782	     178.117	      -0.913	      31.903	     -21.985	     -12.962	      -4.680	    -161.738
	44.000000000	      -1.777	     177.885	      -1.020	      31.170	     -22.017	     -12.611	      -4.620	    -162.099
	44.500000000	      -1.784	     177.505	      -1.147	      30.477	     -22.089	     -13.038	      -4.557	    -162.382
	45.000000000	      -1.789	     177.189	      -1.259	      29.779	     -22.092	     -13.227	      -4.504	    -162.701
	45.500000000	      -1.735	     176.787	      -1.533	      29.231	     -22.307	     -13.815	      -4.381	    -163.470
	46.000000000	      -1.712	     176.496	      -1.657	      28.594	     -22.385	     -13.697	      -4.335	    -163.797
	46.500000000	      -1.702	     176.152	      -1.762	      28.004	     -22.509	     -13.869	      -4.278	    -163.908
	47.000000000	      -1.701	     175.780	      -1.859	      27.348	     -22.574	     -14.343	      -4.223	    -164.212
	47.500000000	      -1.699	     175.531	      -1.969	      26.691	     -22.658	     -13.462	      -4.180	    -164.272
	48.000000000	      -1.677	     175.273	      -2.065	      26.006	     -22.668	     -13.319	      -4.141	    -164.694
	48.500000000	      -1.675	     174.928	      -2.179	      25.348	     -22.588	     -13.868	      -4.088	    -164.924
	49.000000000	      -1.683	     174.751	      -2.303	      24.736	     -22.641	     -14.272	      -4.044	    -165.188
	49.500000000	      -1.688	     174.533	      -2.412	      24.076	     -22.726	     -15.351	      -3.983	    -165.589
	50.000000000	      -1.676	     174.239	      -2.520	      23.606	     -22.931	     -15.304	      -3.950	    -165.886
	50.500000000	      -1.666	     174.030	      -2.609	      23.000	     -22.940	     -15.238	      -3.934	    -166.318
	51.000000000	      -1.642	     173.706	      -2.729	      22.350	     -22.990	     -14.416	      -3.914	    -166.580
	51.500000000	      -1.648	     173.607	      -2.814	      21.778	     -23.022	     -13.718	      -3.869	    -166.859
	52.000000000	      -1.621	     173.354	      -2.906	      21.133	     -22.939	     -14.095	      -3.835	    -167.158
	52.500000000	      -1.615	     172.988	      -3.021	      20.537	     -22.993	     -14.111	      -3.796	    -167.281
	53.000000000	      -1.611	     172.618	      -3.127	      19.896	     -23.127	     -14.757	      -3.751	    -167.467
	53.500000000	      -1.603	     172.490	      -3.213	      19.452	     -23.194	     -15.034	      -3.696	    -167.679
	54.000000000	      -1.596	     172.265	      -3.307	      18.888	     -23.111	     -15.247	      -3.653	    -167.926
	54.500000000	      -1.598	     171.867	      -3.393	      18.335	     -23.238	     -14.791	      -3.610	    -168.195
	55.000000000	      -1.605	     171.500	      -3.481	      17.681	     -23.334	     -14.825	      -3.567	    -168.294
	55.500000000	      -1.600	     171.246	      -3.562	      17.092	     -23.195	     -15.011	      -3.523	    -168.650
	56.000000000	      -1.583	     171.013	      -3.639	      16.337	     -23.162	     -16.572	      -3.484	    -169.085
	56.500000000	      -1.583	     170.757	      -3.751	      15.753	     -23.209	     -15.156	      -3.482	    -169.600
	57.000000000	      -1.593	     170.616	      -3.827	      15.213	     -23.213	     -16.041	      -3.465	    -169.754
	57.500000000	      -1.582	     170.444	      -3.946	      14.722	     -23.349	     -15.685	      -3.398	    -169.955
	58.000000000	      -1.560	     170.268	      -4.040	      14.225	     -23.468	     -16.059	      -3.382	    -170.349
	58.500000000	      -1.523	     170.075	      -4.109	      13.502	     -23.555	     -15.267	      -3.355	    -170.522
	59.000000000	      -1.527	     169.769	      -4.184	      12.742	     -23.644	     -16.777	      -3.309	    -170.715
	59.500000000	      -1.522	     169.517	      -4.278	      12.008	     -23.535	     -16.546	      -3.264	    -171.069
	60.000000000	      -1.516	     169.444	      -4.367	      11.430	     -23.571	     -17.848	      -3.285	    -171.330
	60.500000000	      -1.487	     169.195	      -4.475	      10.808	     -23.770	     -17.274	      -3.270	    -171.375
	61.000000000	      -1.461	     168.831	      -4.574	      10.397	     -23.943	     -17.074	      -3.230	    -171.658
	61.500000000	      -1.447	     168.577	      -4.669	       9.815	     -23.983	     -17.988	      -3.189	    -171.825
	62.000000000	      -1.439	     168.291	      -4.723	       9.170	     -24.041	     -16.813	      -3.192	    -171.942
	62.500000000	      -1.448	     168.033	      -4.837	       8.634	     -24.177	     -16.056	      -3.168	    -171.982
	63.000000000	      -1.424	     167.549	      -4.901	       8.120	     -24.000	     -16.955	      -3.124	    -172.058
	63.500000000	      -1.426	     167.415	      -4.977	       7.334	     -24.123	     -16.686	      -3.087	    -172.466
	64.000000000	      -1.411	     167.460	      -5.042	       6.595	     -23.932	     -18.211	      -3.058	    -172.470
	64.500000000	      -1.394	     167.355	      -5.128	       5.826	     -24.013	     -17.334	      -3.030	    -172.326
	65.000000000	      -1.394	     166.869	      -5.257	       5.236	     -24.158	     -16.997	      -2.935	    -172.675
	65.500000000	      -1.389	     166.532	      -5.329	       4.419	     -24.430	     -16.555	      -2.928	    -173.156
	66.000000000	      -1.403	     166.237	      -5.456	       3.758	     -24.348	     -17.681	      -2.907	    -173.472
	66.500000000	      -1.399	     165.996	      -5.539	       3.186	     -24.249	     -17.325	      -2.902	    -173.285
	67.000000000	      -1.436	     165.761	      -5.650	       2.730	     -24.352	     -18.041	      -2.869	    -173.540
	67.500000000	      -1.431	     165.176	      -5.836	       1.605	     -24.402	     -17.900	      -2.857	    -173.990
	68.000000000	      -1.465	     165.000	      -5.937	       1.042	     -24.376	     -18.168	      -2.884	    -174.251
	68.500000000	      -1.495	     164.798	      -6.037	       0.452	     -24.424	     -18.240	      -2.837	    -174.244
	69.000000000	      -1.515	     164.630	      -6.150	      -0.027	     -24.437	     -18.714	      -2.785	    -174.389
	69.500000000	      -1.508	     164.406	      -6.248	      -0.365	     -24.540	     -18.900	      -2.767	    -174.571
	70.000000000	      -1.487	     164.248	      -6.338	      -0.795	     -24.647	     -18.578	      -2.742	    -174.670
	70.500000000	      -1.468	     164.053	      -6.428	      -1.245	     -24.615	     -18.255	      -2.706	    -174.759
	71.000000000	      -1.458	     163.826	      -6.508	      -1.532	     -24.631	     -18.315	      -2.674	    -174.905
	71.500000000	      -1.428	     163.584	      -6.600	      -2.071	     -24.608	     -18.675	      -2.602	    -175.095
	72.000000000	      -1.418	     163.327	      -6.687	      -2.544	     -24.564	     -18.926	      -2.614	    -175.331
	72.500000000	      -1.434	     163.016	      -6.771	      -3.205	     -24.625	     -19.375	      -2.592	    -175.587
	73.000000000	      -1.446	     162.823	      -6.857	      -3.747	     -24.716	     -20.038	      -2.555	    -175.734
	73.500000000	      -1.460	     162.734	      -6.951	      -4.307	     -24.849	     -20.483	      -2.488	    -176.004
	74.000000000	      -1.461	     162.500	      -7.045	      -4.833	     -24.922	     -20.318	      -2.480	    -176.467
	74.500000000	      -1.482	     162.291	      -7.124	      -5.346	     -24.938	     -20.268	      -2.496	    -176.674
	75.000000000	      -1.504	     162.208	      -7.218	      -5.991	     -25.001	     -20.629	      -2.469	    -176.709
	75.500000000	      -1.520	     162.196	      -7.325	      -6.661	     -25.105	     -21.407	      -2.473	    -176.930
	76.000000000	      -1.524	     162.201	      -7.450	      -7.251	     -25.372	     -21.893	      -2.487	    -177.080
	76.500000000	      -1.511	     162.213	      -7.606	      -7.631	     -25.761	     -20.800	      -2.486	    -176.981
	77.000000000	      -1.503	     162.193	      -7.754	      -7.745	     -26.017	     -17.869	      -2.453	    -176.809
	77.500000000	      -1.435	     162.099	      -7.824	      -7.432	     -25.883	     -14.118	      -2.377	    -176.781
	78.000000000	      -1.361	     161.986	      -7.862	      -7.351	     -25.486	     -12.066	      -2.332	    -176.862
	78.500000000	      -1.298	     161.554	      -7.876	      -7.685	     -25.104	     -11.701	      -2.282	    -177.131
	79.000000000	      -1.291	     160.891	      -7.914	      -8.191	     -24.819	     -12.085	      -2.222	    -177.404
	79.500000000	      -1.289	     160.447	      -7.928	      -8.736	     -24.549	     -12.986	      -2.188	    -177.604
