!File name = EG0520U_1010_6x60_2SDBCB2EV_1915934D06_RC7325_2.5Vd_45mA.s2p
!Base file name = EG0520U_1010_6x60_2SDBCB2EV_1915934D06_RC7325
!Date = 8/23/2019
!Time = 1:08 PM
!Test duration(min) = 0.15
!Test = S-Parameters
!MPTS version = 8.91.5
!State File = C:\Data\PNA\20190821205423\S-Parameters_2019-08-23.sta
!Cal File = 
!ComputerName = CMPE-LAB-6
!Comments = 
!Attenuation = 0
!Z0 = 50
!Input Power(dBm) = -13.00
!Device ID = EG0520U_1010_6x60_2SDBCB2EV
!Row = 73
!Column = 25
!Technology = QPHT09
!Lot/Wafer = 1915934D06
!Gate Size = 360
!Mask = EG0520
!Cal Standards = GaAs BCB
!Cal Kit = EG2306
!Job Number = 20190821205423
!Device Type = FET
!set_Vg(v) = -1.500
!set_Vd(v) = 2.500
!set_Vd(mA) = 45.000
!file_name = EG0520U_1010_6x60_2SDBCB2EV_1915934D06_RC7325_2.5Vd_45mA.s2p
!Vd(V) = 2.500
!Vd(mA) = 45.037
!Vg(V) = -0.485
!Vg(mA) = -0.001
# GHz   S   DB   R   50
!%	Freq(GHz)	     s11(dB)	    s11(deg)	     s21(dB)	    s21(deg)	     s12(dB)	    s12(deg)	     s22(dB)	    s22(deg)
	0.500000000	      -0.032	     -14.580	      22.036	     171.205	     -39.023	      81.567	     -11.120	     -19.686
	1.000000000	      -0.114	     -28.825	      21.620	     162.686	     -33.249	      73.902	     -10.872	     -37.251
	1.500000000	      -0.157	     -42.263	      21.272	     155.509	     -30.089	      66.501	     -10.414	     -53.219
	2.000000000	      -0.301	     -54.515	      20.992	     148.133	     -28.085	      59.698	      -9.960	     -67.980
	2.500000000	      -0.396	     -65.829	      20.564	     141.796	     -26.706	      53.945	      -9.696	     -79.472
	3.000000000	      -0.790	     -73.499	      19.877	     136.789	     -25.884	      49.659	      -9.937	     -84.478
	3.500000000	      -0.909	     -82.284	      19.325	     131.744	     -25.125	      45.270	      -9.689	     -92.707
	4.000000000	      -1.007	     -90.029	      18.761	     127.381	     -24.549	      41.396	      -9.471	     -99.710
	4.500000000	      -1.112	     -96.907	      18.199	     123.268	     -24.119	      37.911	      -9.280	    -105.927
	5.000000000	      -1.186	    -102.997	      17.649	     119.735	     -23.776	      34.900	      -9.138	    -111.107
	5.500000000	      -1.256	    -108.513	      17.113	     116.426	     -23.510	      32.273	      -9.027	    -115.610
	6.000000000	      -1.315	    -113.400	      16.592	     113.456	     -23.288	      29.887	      -8.906	    -119.454
	6.500000000	      -1.363	    -117.751	      16.087	     110.797	     -23.115	      27.753	      -8.809	    -122.757
	7.000000000	      -1.406	    -121.686	      15.604	     108.281	     -22.973	      25.842	      -8.718	    -125.694
	7.500000000	      -1.436	    -125.214	      15.133	     105.995	     -22.855	      24.143	      -8.638	    -128.220
	8.000000000	      -1.448	    -128.213	      14.703	     103.989	     -22.734	      22.709	      -8.609	    -129.966
	8.500000000	      -1.477	    -131.195	      14.268	     102.007	     -22.651	      21.252	      -8.548	    -132.002
	9.000000000	      -1.507	    -133.873	      13.844	     100.153	     -22.586	      19.873	      -8.489	    -133.825
	9.500000000	      -1.526	    -136.368	      13.446	      98.358	     -22.535	      18.589	      -8.430	    -135.427
	10.000000000	      -1.541	    -138.679	      13.061	      96.678	     -22.502	      17.363	      -8.378	    -136.971
	10.500000000	      -1.562	    -140.835	      12.689	      95.049	     -22.481	      16.352	      -8.330	    -138.312
	11.000000000	      -1.573	    -142.794	      12.332	      93.543	     -22.454	      15.393	      -8.287	    -139.461
	11.500000000	      -1.591	    -144.660	      11.983	      92.070	     -22.445	      14.478	      -8.238	    -140.558
	12.000000000	      -1.605	    -146.376	      11.649	      90.687	     -22.441	      13.653	      -8.187	    -141.486
	12.500000000	      -1.612	    -147.971	      11.323	      89.353	     -22.429	      12.840	      -8.135	    -142.426
	13.000000000	      -1.621	    -149.476	      11.009	      88.039	     -22.427	      12.108	      -8.085	    -143.321
	13.500000000	      -1.631	    -150.906	      10.706	      86.795	     -22.436	      11.358	      -8.035	    -144.011
	14.000000000	      -1.641	    -152.268	      10.410	      85.586	     -22.447	      10.732	      -7.983	    -144.654
	14.500000000	      -1.646	    -153.494	      10.123	      84.404	     -22.462	      10.132	      -7.939	    -145.340
	15.000000000	      -1.649	    -154.598	       9.845	      83.272	     -22.471	       9.655	      -7.899	    -146.015
	15.500000000	      -1.655	    -155.703	       9.574	      82.151	     -22.479	       9.160	      -7.854	    -146.527
	16.000000000	      -1.659	    -156.800	       9.311	      81.056	     -22.486	       8.568	      -7.799	    -147.001
	16.500000000	      -1.662	    -157.851	       9.054	      79.980	     -22.515	       8.016	      -7.750	    -147.472
	17.000000000	      -1.663	    -158.842	       8.807	      78.932	     -22.541	       7.531	      -7.710	    -147.900
	17.500000000	      -1.671	    -159.732	       8.560	      77.911	     -22.557	       7.137	      -7.659	    -148.373
	18.000000000	      -1.680	    -160.603	       8.323	      76.912	     -22.594	       6.637	      -7.609	    -148.833
	18.500000000	      -1.681	    -161.458	       8.093	      75.934	     -22.608	       6.189	      -7.551	    -149.169
	19.000000000	      -1.680	    -162.282	       7.865	      74.972	     -22.656	       5.713	      -7.504	    -149.456
	19.500000000	      -1.678	    -163.059	       7.646	      74.030	     -22.709	       5.432	      -7.461	    -149.869
	20.000000000	      -1.684	    -163.799	       7.431	      73.105	     -22.756	       5.296	      -7.426	    -150.182
	20.500000000	      -1.687	    -164.497	       7.225	      72.183	     -22.776	       5.187	      -7.372	    -150.434
	21.000000000	      -1.685	    -165.201	       7.019	      71.274	     -22.787	       4.948	      -7.315	    -150.723
	21.500000000	      -1.679	    -165.904	       6.817	      70.364	     -22.808	       4.583	      -7.263	    -150.965
	22.000000000	      -1.671	    -166.505	       6.620	      69.472	     -22.827	       4.221	      -7.209	    -151.234
	22.500000000	      -1.669	    -167.150	       6.423	      68.562	     -22.848	       3.800	      -7.163	    -151.533
	23.000000000	      -1.674	    -167.741	       6.229	      67.697	     -22.892	       3.424	      -7.109	    -151.898
	23.500000000	      -1.674	    -168.432	       6.038	      66.851	     -22.982	       3.033	      -7.062	    -152.301
	24.000000000	      -1.684	    -169.026	       5.853	      66.056	     -23.089	       3.125	      -7.033	    -152.485
	24.500000000	      -1.680	    -169.487	       5.679	      65.235	     -23.095	       3.298	      -6.989	    -152.522
	25.000000000	      -1.668	    -169.892	       5.506	      64.379	     -23.077	       3.123	      -6.934	    -152.646
	25.500000000	      -1.669	    -170.455	       5.328	      63.562	     -23.124	       2.848	      -6.878	    -152.895
	26.000000000	      -1.669	    -171.029	       5.157	      62.764	     -23.152	       2.598	      -6.802	    -153.181
	26.500000000	      -1.664	    -171.526	       4.989	      61.944	     -23.188	       2.191	      -6.745	    -153.394
	27.000000000	      -1.657	    -171.957	       4.823	      61.166	     -23.247	       1.957	      -6.702	    -153.659
	27.500000000	      -1.663	    -172.299	       4.663	      60.474	     -23.372	       2.106	      -6.676	    -153.682
	28.000000000	      -1.660	    -172.807	       4.512	      59.707	     -23.444	       2.541	      -6.622	    -153.959
	28.500000000	      -1.641	    -173.263	       4.367	      58.838	     -23.376	       2.621	      -6.547	    -154.114
	29.000000000	      -1.635	    -173.733	       4.207	      57.995	     -23.357	       2.269	      -6.488	    -154.378
	29.500000000	      -1.633	    -174.121	       4.048	      57.222	     -23.405	       1.892	      -6.435	    -154.650
	30.000000000	      -1.632	    -174.552	       3.895	      56.521	     -23.483	       1.505	      -6.392	    -154.817
	30.500000000	      -1.634	    -174.988	       3.748	      55.768	     -23.524	       1.502	      -6.348	    -155.046
	31.000000000	      -1.624	    -175.414	       3.600	      55.049	     -23.539	       1.362	      -6.304	    -155.259
	31.500000000	      -1.614	    -175.791	       3.471	      54.307	     -23.679	       1.859	      -6.255	    -155.450
	32.000000000	      -1.613	    -176.113	       3.330	      53.548	     -23.703	       2.058	      -6.204	    -155.580
	32.500000000	      -1.621	    -176.558	       3.187	      52.742	     -23.624	       1.831	      -6.141	    -155.717
	33.000000000	      -1.620	    -176.980	       3.047	      52.029	     -23.657	       1.826	      -6.094	    -155.960
	33.500000000	      -1.611	    -177.353	       2.901	      51.323	     -23.717	       1.559	      -6.046	    -156.267
	34.000000000	      -1.601	    -177.694	       2.763	      50.611	     -23.753	       1.353	      -5.991	    -156.534
	34.500000000	      -1.606	    -178.075	       2.619	      49.859	     -23.781	       1.089	      -5.928	    -156.709
	35.000000000	      -1.606	    -178.409	       2.483	      49.194	     -23.873	       1.037	      -5.875	    -156.995
	35.500000000	      -1.606	    -178.778	       2.367	      48.527	     -23.909	       1.620	      -5.844	    -157.131
	36.000000000	      -1.601	    -179.079	       2.243	      47.765	     -23.882	       1.467	      -5.787	    -157.316
	36.500000000	      -1.585	    -179.289	       2.118	      47.057	     -23.926	       1.210	      -5.728	    -157.499
	37.000000000	      -1.582	    -179.546	       1.990	      46.361	     -23.913	       1.125	      -5.675	    -157.721
	37.500000000	      -1.579	    -179.916	       1.863	      45.653	     -23.991	       0.956	      -5.644	    -157.990
	38.000000000	      -1.573	     179.703	       1.737	      44.980	     -24.047	       0.690	      -5.590	    -158.179
	38.500000000	      -1.561	     179.357	       1.604	      44.321	     -24.141	       0.375	      -5.535	    -158.483
	39.000000000	      -1.555	     179.113	       1.489	      43.676	     -24.209	       1.327	      -5.487	    -158.745
	39.500000000	      -1.548	     178.913	       1.376	      43.045	     -24.252	       0.959	      -5.431	    -158.961
	40.000000000	      -1.540	     178.466	       1.265	      42.309	     -24.223	       1.276	      -5.372	    -159.204
	40.500000000	      -1.539	     178.009	       1.139	      41.573	     -24.232	       1.009	      -5.319	    -159.434
	41.000000000	      -1.522	     177.687	       1.020	      40.871	     -24.272	       1.319	      -5.279	    -159.812
	41.500000000	      -1.520	     177.485	       0.906	      40.254	     -24.399	       0.439	      -5.247	    -159.892
	42.000000000	      -1.525	     177.190	       0.787	      39.609	     -24.401	       1.055	      -5.198	    -160.002
	42.500000000	      -1.544	     176.809	       0.674	      39.015	     -24.460	       0.564	      -5.138	    -160.037
	43.000000000	      -1.538	     176.590	       0.572	      38.420	     -24.548	       0.780	      -5.087	    -160.315
	43.500000000	      -1.529	     176.324	       0.464	      37.630	     -24.475	       1.597	      -5.051	    -160.595
	44.000000000	      -1.531	     176.072	       0.346	      36.996	     -24.467	       1.164	      -4.993	    -160.934
	44.500000000	      -1.542	     175.695	       0.229	      36.321	     -24.505	       1.423	      -4.940	    -161.180
	45.000000000	      -1.543	     175.390	       0.117	      35.701	     -24.572	       0.821	      -4.887	    -161.440
	45.500000000	      -1.503	     174.958	      -0.154	      35.172	     -24.810	       1.035	      -4.749	    -162.273
	46.000000000	      -1.481	     174.713	      -0.271	      34.622	     -24.916	       0.820	      -4.713	    -162.539
	46.500000000	      -1.469	     174.383	      -0.365	      34.060	     -25.065	       1.089	      -4.653	    -162.656
	47.000000000	      -1.472	     174.030	      -0.465	      33.388	     -24.948	       1.358	      -4.599	    -162.876
	47.500000000	      -1.469	     173.745	      -0.582	      32.720	     -24.998	       2.109	      -4.565	    -163.008
	48.000000000	      -1.451	     173.432	      -0.687	      32.086	     -25.004	       2.132	      -4.526	    -163.256
	48.500000000	      -1.454	     173.095	      -0.792	      31.550	     -25.028	       1.774	      -4.471	    -163.338
	49.000000000	      -1.468	     172.947	      -0.902	      31.002	     -25.077	       0.961	      -4.404	    -163.548
	49.500000000	      -1.472	     172.636	      -0.999	      30.346	     -25.184	       1.552	      -4.359	    -163.798
	50.000000000	      -1.447	     172.407	      -1.110	      29.863	     -25.265	       1.925	      -4.302	    -164.163
	50.500000000	      -1.445	     172.108	      -1.195	      29.265	     -25.351	       1.784	      -4.305	    -164.748
	51.000000000	      -1.441	     171.809	      -1.319	      28.688	     -25.376	       2.013	      -4.289	    -165.042
	51.500000000	      -1.443	     171.693	      -1.402	      28.041	     -25.287	       1.898	      -4.233	    -165.192
	52.000000000	      -1.414	     171.432	      -1.513	      27.365	     -25.242	       2.104	      -4.193	    -165.379
	52.500000000	      -1.413	     170.985	      -1.612	      26.811	     -25.178	       2.142	      -4.174	    -165.480
	53.000000000	      -1.413	     170.687	      -1.712	      26.272	     -25.354	       1.758	      -4.123	    -165.548
	53.500000000	      -1.408	     170.505	      -1.809	      25.751	     -25.323	       2.110	      -4.066	    -165.908
	54.000000000	      -1.403	     170.261	      -1.893	      25.230	     -25.288	       2.743	      -4.025	    -166.037
	54.500000000	      -1.396	     169.824	      -1.976	      24.692	     -25.465	       1.723	      -3.990	    -166.156
	55.000000000	      -1.406	     169.454	      -2.065	      24.094	     -25.377	       2.174	      -3.945	    -166.331
	55.500000000	      -1.397	     169.087	      -2.143	      23.485	     -25.182	       2.675	      -3.921	    -166.537
	56.000000000	      -1.386	     168.779	      -2.228	      22.886	     -25.446	       1.738	      -3.878	    -167.062
	56.500000000	      -1.393	     168.592	      -2.312	      22.295	     -25.262	       2.619	      -3.848	    -167.522
	57.000000000	      -1.391	     168.388	      -2.425	      21.632	     -25.479	       1.950	      -3.825	    -167.622
	57.500000000	      -1.402	     168.162	      -2.533	      21.040	     -25.580	       1.062	      -3.782	    -167.871
	58.000000000	      -1.391	     168.048	      -2.619	      20.468	     -25.611	       0.786	      -3.751	    -168.086
	58.500000000	      -1.364	     167.783	      -2.691	      19.969	     -25.697	       0.345	      -3.728	    -168.364
	59.000000000	      -1.355	     167.469	      -2.772	      19.219	     -25.599	       0.126	      -3.668	    -168.539
	59.500000000	      -1.373	     167.350	      -2.865	      18.516	     -25.548	       2.825	      -3.620	    -168.765
	60.000000000	      -1.352	     167.102	      -2.966	      17.963	     -25.706	       1.794	      -3.652	    -169.176
	60.500000000	      -1.338	     166.824	      -3.050	      17.390	     -25.566	       1.124	      -3.632	    -169.227
	61.000000000	      -1.297	     166.505	      -3.168	      16.867	     -25.764	       0.924	      -3.587	    -169.332
	61.500000000	      -1.301	     166.233	      -3.241	      16.456	     -25.964	       2.043	      -3.569	    -169.470
	62.000000000	      -1.293	     165.995	      -3.329	      15.803	     -25.808	       1.029	      -3.560	    -169.391
	62.500000000	      -1.294	     165.562	      -3.410	      15.090	     -25.945	       2.355	      -3.531	    -169.639
	63.000000000	      -1.276	     165.232	      -3.483	      14.572	     -25.763	       2.184	      -3.473	    -169.625
	63.500000000	      -1.266	     164.995	      -3.551	      13.919	     -25.813	       3.568	      -3.438	    -170.073
	64.000000000	      -1.264	     165.111	      -3.631	      13.014	     -25.695	       2.041	      -3.367	    -169.899
	64.500000000	      -1.246	     164.921	      -3.721	      12.544	     -25.576	       0.162	      -3.352	    -169.828
	65.000000000	      -1.261	     164.421	      -3.802	      11.655	     -25.286	       1.105	      -3.269	    -170.031
	65.500000000	      -1.243	     164.034	      -3.906	      10.930	     -25.719	       2.044	      -3.238	    -170.949
	66.000000000	      -1.229	     163.709	      -4.056	      10.267	     -25.809	       0.124	      -3.232	    -171.270
	66.500000000	      -1.267	     163.547	      -4.126	       9.576	     -25.988	      -0.098	      -3.168	    -171.134
	67.000000000	      -1.301	     163.061	      -4.260	       9.002	     -25.670	      -0.090	      -3.164	    -171.266
	67.500000000	      -1.296	     162.417	      -4.394	       8.133	     -25.765	       0.959	      -3.180	    -171.592
	68.000000000	      -1.336	     162.179	      -4.491	       7.484	     -25.777	       0.856	      -3.208	    -171.896
	68.500000000	      -1.368	     161.906	      -4.583	       6.968	     -25.771	       0.151	      -3.157	    -171.981
	69.000000000	      -1.394	     161.689	      -4.707	       6.450	     -25.752	      -0.237	      -3.088	    -172.144
	69.500000000	      -1.391	     161.463	      -4.820	       5.972	     -25.919	      -0.784	      -3.078	    -172.328
	70.000000000	      -1.377	     161.249	      -4.912	       5.485	     -25.939	      -0.492	      -3.051	    -172.372
	70.500000000	      -1.364	     161.060	      -5.001	       5.029	     -25.893	      -0.223	      -3.017	    -172.508
	71.000000000	      -1.359	     160.825	      -5.094	       4.612	     -25.898	      -0.712	      -2.976	    -172.643
	71.500000000	      -1.335	     160.615	      -5.209	       4.013	     -25.883	      -1.249	      -2.905	    -172.939
	72.000000000	      -1.319	     160.327	      -5.317	       3.603	     -25.858	      -2.028	      -2.918	    -173.158
	72.500000000	      -1.343	     159.922	      -5.409	       2.902	     -25.946	      -3.419	      -2.895	    -173.370
	73.000000000	      -1.378	     159.709	      -5.521	       2.367	     -26.101	      -4.121	      -2.853	    -173.563
	73.500000000	      -1.401	     159.619	      -5.632	       1.899	     -26.360	      -4.337	      -2.788	    -173.843
	74.000000000	      -1.407	     159.361	      -5.737	       1.505	     -26.477	      -3.752	      -2.786	    -174.349
	74.500000000	      -1.440	     159.138	      -5.823	       1.101	     -26.578	      -3.195	      -2.807	    -174.561
	75.000000000	      -1.471	     159.061	      -5.922	       0.525	     -26.687	      -3.063	      -2.795	    -174.587
	75.500000000	      -1.501	     159.033	      -6.046	       0.025	     -26.922	      -2.741	      -2.792	    -174.741
	76.000000000	      -1.514	     159.067	      -6.165	      -0.366	     -27.237	      -0.945	      -2.799	    -174.757
	76.500000000	      -1.496	     159.254	      -6.279	      -0.516	     -27.422	       2.981	      -2.800	    -174.595
	77.000000000	      -1.481	     159.297	      -6.356	      -0.634	     -27.043	       7.050	      -2.741	    -174.405
	77.500000000	      -1.405	     159.198	      -6.391	      -0.710	     -26.388	       8.775	      -2.653	    -174.468
	78.000000000	      -1.316	     158.801	      -6.399	      -1.019	     -25.801	       8.379	      -2.599	    -174.581
	78.500000000	      -1.281	     158.345	      -6.434	      -1.784	     -25.358	       6.517	      -2.558	    -174.825
	79.000000000	      -1.308	     157.694	      -6.511	      -2.636	     -25.117	       4.238	      -2.494	    -175.042
	79.500000000	      -1.335	     157.188	      -6.584	      -3.409	     -24.956	       2.117	      -2.441	    -175.257
