!File name = EG0520U_1010_6x60_2SDBCB2EV_1915934D06_RC2952_4Vd_45mA.s2p
!Base file name = EG0520U_1010_6x60_2SDBCB2EV_1915934D06_RC2952
!Date = 8/23/2019
!Time = 1:17 PM
!Test duration(min) = 0.15
!Test = S-Parameters
!MPTS version = 8.91.5
!State File = C:\Data\PNA\20190821205423\S-Parameters_2019-08-23.sta
!Cal File = 
!ComputerName = CMPE-LAB-6
!Comments = 
!Attenuation = 0
!Z0 = 50
!Input Power(dBm) = -13.00
!Device ID = EG0520U_1010_6x60_2SDBCB2EV
!Row = 29
!Column = 52
!Technology = QPHT09
!Lot/Wafer = 1915934D06
!Gate Size = 360
!Mask = EG0520
!Cal Standards = GaAs BCB
!Cal Kit = EG2306
!Job Number = 20190821205423
!Device Type = FET
!set_Vg(v) = -1.500
!set_Vd(v) = 4.000
!set_Vd(mA) = 45.000
!file_name = EG0520U_1010_6x60_2SDBCB2EV_1915934D06_RC2952_4Vd_45mA.s2p
!Vd(V) = 4.000
!Vd(mA) = 45.068
!Vg(V) = -0.486
!Vg(mA) = -0.003
# GHz   S   DB   R   50
!%	Freq(GHz)	     s11(dB)	    s11(deg)	     s21(dB)	    s21(deg)	     s12(dB)	    s12(deg)	     s22(dB)	    s22(deg)
	0.500000000	      -0.067	     -15.166	      22.328	     170.725	     -39.198	      80.725	      -8.328	     -14.759
	1.000000000	      -0.157	     -29.946	      21.866	     162.064	     -33.434	      73.014	      -8.408	     -28.139
	1.500000000	      -0.198	     -43.835	      21.483	     154.393	     -30.304	      65.582	      -8.429	     -41.033
	2.000000000	      -0.342	     -56.320	      21.213	     146.964	     -28.313	      58.725	      -8.518	     -53.608
	2.500000000	      -0.442	     -67.897	      20.741	     140.411	     -26.956	      52.859	      -8.698	     -63.790
	3.000000000	      -0.832	     -75.632	      20.040	     135.184	     -26.168	      48.462	      -9.125	     -67.880
	3.500000000	      -0.948	     -84.512	      19.457	     130.054	     -25.432	      44.024	      -9.248	     -75.672
	4.000000000	      -1.043	     -92.327	      18.876	     125.517	     -24.878	      40.134	      -9.352	     -82.543
	4.500000000	      -1.143	     -99.221	      18.302	     121.359	     -24.460	      36.633	      -9.441	     -88.811
	5.000000000	      -1.214	    -105.354	      17.733	     117.686	     -24.132	      33.623	      -9.528	     -94.128
	5.500000000	      -1.280	    -110.838	      17.189	     114.297	     -23.879	      30.944	      -9.605	     -98.821
	6.000000000	      -1.335	    -115.728	      16.653	     111.253	     -23.670	      28.577	      -9.639	    -102.907
	6.500000000	      -1.380	    -120.074	      16.141	     108.478	     -23.506	      26.435	      -9.668	    -106.551
	7.000000000	      -1.418	    -123.992	      15.648	     105.885	     -23.376	      24.508	      -9.685	    -109.767
	7.500000000	      -1.447	    -127.538	      15.170	     103.499	     -23.272	      22.779	      -9.689	    -112.614
	8.000000000	      -1.457	    -130.514	      14.731	     101.405	     -23.157	      21.397	      -9.711	    -114.447
	8.500000000	      -1.484	    -133.490	      14.290	      99.328	     -23.085	      19.909	      -9.706	    -116.755
	9.000000000	      -1.511	    -136.159	      13.860	      97.382	     -23.027	      18.501	      -9.688	    -118.794
	9.500000000	      -1.527	    -138.668	      13.458	      95.478	     -22.980	      17.166	      -9.665	    -120.641
	10.000000000	      -1.541	    -140.984	      13.066	      93.695	     -22.960	      15.924	      -9.642	    -122.420
	10.500000000	      -1.563	    -143.132	      12.687	      91.971	     -22.953	      14.934	      -9.622	    -123.918
	11.000000000	      -1.573	    -145.086	      12.323	      90.373	     -22.931	      13.955	      -9.584	    -125.253
	11.500000000	      -1.588	    -146.938	      11.970	      88.812	     -22.923	      13.017	      -9.544	    -126.469
	12.000000000	      -1.599	    -148.664	      11.631	      87.325	     -22.929	      12.170	      -9.492	    -127.547
	12.500000000	      -1.603	    -150.278	      11.304	      85.881	     -22.926	      11.330	      -9.433	    -128.717
	13.000000000	      -1.610	    -151.787	      10.986	      84.464	     -22.932	      10.551	      -9.377	    -129.749
	13.500000000	      -1.620	    -153.238	      10.676	      83.112	     -22.958	       9.781	      -9.318	    -130.583
	14.000000000	      -1.630	    -154.612	      10.375	      81.795	     -22.986	       9.124	      -9.257	    -131.382
	14.500000000	      -1.633	    -155.846	      10.084	      80.509	     -23.014	       8.571	      -9.202	    -132.235
	15.000000000	      -1.637	    -156.963	       9.798	      79.277	     -23.032	       8.068	      -9.147	    -132.961
	15.500000000	      -1.640	    -158.063	       9.524	      78.060	     -23.049	       7.630	      -9.080	    -133.564
	16.000000000	      -1.642	    -159.166	       9.257	      76.866	     -23.052	       7.050	      -9.001	    -134.163
	16.500000000	      -1.643	    -160.240	       8.995	      75.685	     -23.088	       6.448	      -8.930	    -134.706
	17.000000000	      -1.642	    -161.241	       8.744	      74.541	     -23.126	       5.944	      -8.859	    -135.316
	17.500000000	      -1.647	    -162.154	       8.493	      73.407	     -23.156	       5.548	      -8.785	    -135.892
	18.000000000	      -1.655	    -163.047	       8.253	      72.304	     -23.204	       5.006	      -8.710	    -136.481
	18.500000000	      -1.655	    -163.928	       8.017	      71.220	     -23.225	       4.566	      -8.628	    -136.958
	19.000000000	      -1.653	    -164.780	       7.783	      70.138	     -23.288	       4.136	      -8.555	    -137.398
	19.500000000	      -1.652	    -165.582	       7.558	      69.093	     -23.361	       3.860	      -8.489	    -137.852
	20.000000000	      -1.656	    -166.324	       7.339	      68.069	     -23.416	       3.745	      -8.421	    -138.253
	20.500000000	      -1.659	    -167.028	       7.127	      67.043	     -23.425	       3.733	      -8.334	    -138.623
	21.000000000	      -1.659	    -167.739	       6.915	      66.025	     -23.438	       3.235	      -8.245	    -139.076
	21.500000000	      -1.649	    -168.482	       6.708	      65.010	     -23.475	       2.837	      -8.163	    -139.450
	22.000000000	      -1.645	    -169.063	       6.505	      64.040	     -23.535	       2.429	      -8.084	    -139.836
	22.500000000	      -1.639	    -169.689	       6.304	      63.027	     -23.573	       2.077	      -8.010	    -140.257
	23.000000000	      -1.639	    -170.323	       6.105	      62.052	     -23.627	       1.700	      -7.928	    -140.758
	23.500000000	      -1.639	    -171.000	       5.909	      61.114	     -23.751	       1.410	      -7.854	    -141.256
	24.000000000	      -1.643	    -171.605	       5.720	      60.210	     -23.849	       1.512	      -7.787	    -141.565
	24.500000000	      -1.633	    -172.053	       5.541	      59.270	     -23.869	       1.554	      -7.715	    -141.752
	25.000000000	      -1.618	    -172.525	       5.359	      58.307	     -23.877	       1.504	      -7.629	    -142.027
	25.500000000	      -1.612	    -173.140	       5.177	      57.387	     -23.925	       1.205	      -7.542	    -142.407
	26.000000000	      -1.615	    -173.750	       4.996	      56.477	     -23.961	       1.025	      -7.442	    -142.857
	26.500000000	      -1.612	    -174.272	       4.819	      55.558	     -24.009	       0.646	      -7.357	    -143.235
	27.000000000	      -1.606	    -174.672	       4.646	      54.683	     -24.087	       0.498	      -7.283	    -143.589
	27.500000000	      -1.614	    -175.082	       4.474	      53.883	     -24.247	       0.454	      -7.236	    -143.748
	28.000000000	      -1.618	    -175.584	       4.314	      53.040	     -24.366	       0.983	      -7.154	    -144.139
	28.500000000	      -1.599	    -175.994	       4.163	      52.131	     -24.301	       1.291	      -7.052	    -144.502
	29.000000000	      -1.588	    -176.429	       3.997	      51.203	     -24.295	       1.165	      -6.980	    -144.919
	29.500000000	      -1.579	    -176.854	       3.837	      50.337	     -24.359	       0.736	      -6.898	    -145.224
	30.000000000	      -1.577	    -177.253	       3.679	      49.528	     -24.431	       0.576	      -6.831	    -145.525
	30.500000000	      -1.574	    -177.717	       3.526	      48.671	     -24.480	       0.531	      -6.757	    -145.857
	31.000000000	      -1.565	    -178.176	       3.368	      47.848	     -24.569	       0.433	      -6.691	    -146.222
	31.500000000	      -1.551	    -178.552	       3.230	      47.024	     -24.669	       0.965	      -6.624	    -146.546
	32.000000000	      -1.552	    -178.870	       3.081	      46.194	     -24.706	       1.373	      -6.544	    -146.787
	32.500000000	      -1.560	    -179.286	       2.933	      45.308	     -24.666	       1.287	      -6.454	    -147.039
	33.000000000	      -1.559	    -179.740	       2.784	      44.497	     -24.671	       1.028	      -6.380	    -147.420
	33.500000000	      -1.548	     179.900	       2.633	      43.716	     -24.759	       1.186	      -6.314	    -147.882
	34.000000000	      -1.535	     179.608	       2.487	      42.930	     -24.803	       0.802	      -6.235	    -148.316
	34.500000000	      -1.533	     179.234	       2.339	      42.075	     -24.863	       0.498	      -6.148	    -148.624
	35.000000000	      -1.532	     178.868	       2.196	      41.274	     -25.000	       0.751	      -6.077	    -149.066
	35.500000000	      -1.523	     178.531	       2.073	      40.559	     -25.075	       1.610	      -6.028	    -149.326
	36.000000000	      -1.505	     178.177	       1.943	      39.681	     -25.035	       1.707	      -5.942	    -149.638
	36.500000000	      -1.494	     177.913	       1.802	      38.851	     -25.026	       1.396	      -5.867	    -150.007
	37.000000000	      -1.486	     177.641	       1.664	      38.053	     -25.066	       1.181	      -5.802	    -150.351
	37.500000000	      -1.495	     177.211	       1.522	      37.272	     -25.199	       0.903	      -5.751	    -150.684
	38.000000000	      -1.499	     176.868	       1.377	      36.579	     -25.240	       0.639	      -5.685	    -151.002
	38.500000000	      -1.494	     176.572	       1.237	      35.923	     -25.415	       0.953	      -5.611	    -151.416
	39.000000000	      -1.485	     176.403	       1.119	      35.225	     -25.479	       1.262	      -5.543	    -151.745
	39.500000000	      -1.477	     176.204	       1.002	      34.525	     -25.516	       1.873	      -5.470	    -152.107
	40.000000000	      -1.465	     175.787	       0.881	      33.693	     -25.482	       2.447	      -5.396	    -152.457
	40.500000000	      -1.464	     175.395	       0.756	      32.956	     -25.554	       2.424	      -5.316	    -152.808
	41.000000000	      -1.442	     175.107	       0.636	      32.123	     -25.633	       2.168	      -5.255	    -153.256
	41.500000000	      -1.428	     174.921	       0.512	      31.429	     -25.687	       2.354	      -5.222	    -153.519
	42.000000000	      -1.430	     174.611	       0.390	      30.659	     -25.615	       1.654	      -5.151	    -153.757
	42.500000000	      -1.446	     174.235	       0.261	      29.969	     -25.767	       1.981	      -5.082	    -153.877
	43.000000000	      -1.441	     173.986	       0.151	      29.336	     -25.885	       3.280	      -5.018	    -154.235
	43.500000000	      -1.422	     173.769	       0.037	      28.500	     -25.866	       3.644	      -4.956	    -154.639
	44.000000000	      -1.436	     173.503	      -0.093	      27.749	     -25.918	       3.764	      -4.885	    -155.144
	44.500000000	      -1.441	     173.087	      -0.229	      27.014	     -25.898	       3.943	      -4.808	    -155.481
	45.000000000	      -1.454	     172.806	      -0.349	      26.326	     -25.941	       3.043	      -4.753	    -155.891
	45.500000000	      -1.407	     172.498	      -0.636	      25.790	     -26.123	       3.160	      -4.617	    -156.955
	46.000000000	      -1.382	     172.315	      -0.766	      25.170	     -26.336	       2.811	      -4.571	    -157.374
	46.500000000	      -1.371	     171.978	      -0.865	      24.601	     -26.408	       3.922	      -4.495	    -157.519
	47.000000000	      -1.368	     171.632	      -0.969	      23.827	     -26.381	       4.868	      -4.445	    -157.802
	47.500000000	      -1.365	     171.367	      -1.095	      23.144	     -26.384	       4.943	      -4.390	    -158.064
	48.000000000	      -1.348	     171.102	      -1.209	      22.466	     -26.422	       5.238	      -4.343	    -158.326
	48.500000000	      -1.346	     170.795	      -1.332	      21.900	     -26.416	       5.595	      -4.296	    -158.642
	49.000000000	      -1.354	     170.661	      -1.435	      21.263	     -26.524	       5.455	      -4.217	    -158.924
	49.500000000	      -1.361	     170.415	      -1.541	      20.792	     -26.586	       5.147	      -4.180	    -159.146
	50.000000000	      -1.347	     170.225	      -1.650	      20.207	     -26.454	       6.769	      -4.116	    -159.392
	50.500000000	      -1.338	     169.949	      -1.734	      19.372	     -26.661	       7.620	      -4.065	    -159.923
	51.000000000	      -1.319	     169.646	      -1.841	      18.729	     -26.536	       8.256	      -4.040	    -160.332
	51.500000000	      -1.323	     169.498	      -1.952	      18.014	     -26.479	       8.003	      -3.975	    -160.689
	52.000000000	      -1.304	     169.269	      -2.064	      17.256	     -26.481	       7.506	      -3.923	    -160.982
	52.500000000	      -1.310	     168.912	      -2.175	      16.655	     -26.517	       7.520	      -3.875	    -161.242
	53.000000000	      -1.299	     168.567	      -2.292	      15.929	     -26.466	       7.021	      -3.821	    -161.448
	53.500000000	      -1.300	     168.477	      -2.401	      15.353	     -26.628	       7.086	      -3.752	    -161.709
	54.000000000	      -1.294	     168.221	      -2.506	      14.828	     -26.588	       7.851	      -3.696	    -161.997
	54.500000000	      -1.284	     167.851	      -2.601	      14.219	     -26.625	       8.282	      -3.650	    -162.316
	55.000000000	      -1.291	     167.459	      -2.703	      13.560	     -26.705	       8.191	      -3.597	    -162.597
	55.500000000	      -1.291	     167.171	      -2.802	      12.933	     -26.696	       9.114	      -3.557	    -162.992
	56.000000000	      -1.272	     166.841	      -2.895	      12.279	     -26.639	       8.803	      -3.519	    -163.519
	56.500000000	      -1.276	     166.758	      -3.021	      11.601	     -26.740	       6.444	      -3.505	    -164.240
	57.000000000	      -1.292	     166.566	      -3.142	      10.943	     -27.065	       7.382	      -3.466	    -164.170
	57.500000000	      -1.299	     166.390	      -3.248	      10.415	     -26.978	       7.299	      -3.430	    -164.505
	58.000000000	      -1.268	     166.376	      -3.320	       9.861	     -27.022	       8.123	      -3.387	    -164.893
	58.500000000	      -1.244	     166.192	      -3.428	       9.270	     -27.174	       9.758	      -3.335	    -165.193
	59.000000000	      -1.247	     165.861	      -3.515	       8.664	     -27.221	       8.447	      -3.279	    -165.434
	59.500000000	      -1.236	     165.730	      -3.640	       7.917	     -27.230	       9.188	      -3.225	    -165.816
	60.000000000	      -1.234	     165.579	      -3.726	       7.403	     -27.101	      10.073	      -3.251	    -166.146
	60.500000000	      -1.204	     165.326	      -3.828	       6.936	     -27.366	       9.063	      -3.250	    -166.179
	61.000000000	      -1.164	     165.055	      -3.911	       6.489	     -27.134	      10.559	      -3.215	    -166.510
	61.500000000	      -1.164	     164.828	      -4.000	       5.950	     -27.227	      10.938	      -3.170	    -166.687
	62.000000000	      -1.151	     164.608	      -4.073	       5.438	     -27.211	      12.190	      -3.184	    -166.758
	62.500000000	      -1.180	     164.343	      -4.147	       4.674	     -27.441	      10.248	      -3.135	    -166.907
	63.000000000	      -1.137	     163.843	      -4.246	       4.061	     -27.281	      12.688	      -3.069	    -166.981
	63.500000000	      -1.128	     163.696	      -4.314	       3.364	     -26.977	      12.589	      -3.007	    -167.441
	64.000000000	      -1.137	     163.854	      -4.382	       2.553	     -26.788	      13.963	      -2.946	    -167.333
	64.500000000	      -1.105	     163.645	      -4.444	       1.814	     -26.969	      14.063	      -2.902	    -167.243
	65.000000000	      -1.152	     163.351	      -4.548	       0.851	     -26.679	      11.665	      -2.841	    -167.875
	65.500000000	      -1.108	     162.788	      -4.700	       0.052	     -27.017	      12.548	      -2.781	    -168.476
	66.000000000	      -1.102	     162.474	      -4.804	      -0.835	     -26.680	      13.910	      -2.791	    -168.871
	66.500000000	      -1.159	     162.340	      -4.909	      -1.399	     -27.001	      13.209	      -2.754	    -168.793
	67.000000000	      -1.188	     161.853	      -5.000	      -2.210	     -26.641	      11.610	      -2.749	    -168.913
	67.500000000	      -1.176	     161.268	      -5.204	      -3.126	     -26.669	      12.091	      -2.731	    -169.464
	68.000000000	      -1.228	     161.082	      -5.298	      -3.777	     -26.649	      11.239	      -2.753	    -169.728
	68.500000000	      -1.272	     160.856	      -5.404	      -4.269	     -26.643	      11.490	      -2.718	    -169.948
	69.000000000	      -1.305	     160.685	      -5.533	      -4.796	     -26.684	      10.417	      -2.635	    -170.264
	69.500000000	      -1.299	     160.559	      -5.675	      -5.287	     -26.814	      10.900	      -2.616	    -170.427
	70.000000000	      -1.276	     160.399	      -5.770	      -5.765	     -26.860	      11.524	      -2.596	    -170.497
	70.500000000	      -1.258	     160.258	      -5.875	      -6.188	     -26.778	      11.514	      -2.550	    -170.683
	71.000000000	      -1.244	     160.137	      -5.952	      -6.519	     -26.795	      10.991	      -2.511	    -170.923
	71.500000000	      -1.181	     160.000	      -6.081	      -7.056	     -26.765	      10.625	      -2.445	    -171.149
	72.000000000	      -1.187	     159.807	      -6.200	      -7.684	     -26.846	       9.883	      -2.448	    -171.368
	72.500000000	      -1.216	     159.294	      -6.304	      -8.300	     -26.823	       9.389	      -2.422	    -171.709
	73.000000000	      -1.256	     159.048	      -6.411	      -8.942	     -27.017	       8.795	      -2.383	    -171.911
	73.500000000	      -1.280	     159.016	      -6.536	      -9.436	     -27.183	       9.161	      -2.318	    -172.187
	74.000000000	      -1.287	     158.736	      -6.649	      -9.836	     -27.308	       9.782	      -2.309	    -172.785
	74.500000000	      -1.326	     158.473	      -6.742	     -10.195	     -27.381	      10.581	      -2.331	    -173.077
	75.000000000	      -1.370	     158.408	      -6.848	     -10.724	     -27.445	      11.065	      -2.320	    -173.223
	75.500000000	      -1.412	     158.466	      -6.974	     -11.213	     -27.620	      11.955	      -2.317	    -173.309
	76.000000000	      -1.426	     158.650	      -7.101	     -11.558	     -27.841	      14.246	      -2.319	    -173.433
	76.500000000	      -1.401	     158.819	      -7.225	     -11.660	     -27.785	      18.478	      -2.308	    -173.343
	77.000000000	      -1.382	     158.849	      -7.303	     -11.707	     -27.238	      21.868	      -2.239	    -173.323
	77.500000000	      -1.288	     158.876	      -7.329	     -11.659	     -26.514	      22.547	      -2.158	    -173.469
	78.000000000	      -1.190	     158.538	      -7.317	     -11.973	     -25.885	      21.331	      -2.129	    -173.618
	78.500000000	      -1.167	     158.054	      -7.350	     -12.812	     -25.507	      18.574	      -2.079	    -173.928
	79.000000000	      -1.199	     157.384	      -7.418	     -13.695	     -25.328	      15.911	      -2.025	    -174.276
	79.500000000	      -1.219	     157.023	      -7.492	     -14.472	     -25.200	      13.510	      -1.975	    -174.529
