!File name = EG0520U_1010_6x60_2SDBCB2EV_1915934D06_RC7325_2.5Vd_18mA.s2p
!Base file name = EG0520U_1010_6x60_2SDBCB2EV_1915934D06_RC7325
!Date = 8/23/2019
!Time = 1:07 PM
!Test duration(min) = 0.15
!Test = S-Parameters
!MPTS version = 8.91.5
!State File = C:\Data\PNA\20190821205423\S-Parameters_2019-08-23.sta
!Cal File = 
!ComputerName = CMPE-LAB-6
!Comments = 
!Attenuation = 0
!Z0 = 50
!Input Power(dBm) = -13.00
!Device ID = EG0520U_1010_6x60_2SDBCB2EV
!Row = 73
!Column = 25
!Technology = QPHT09
!Lot/Wafer = 1915934D06
!Gate Size = 360
!Mask = EG0520
!Cal Standards = GaAs BCB
!Cal Kit = EG2306
!Job Number = 20190821205423
!Device Type = FET
!set_Vg(v) = -1.500
!set_Vd(v) = 2.500
!set_Vd(mA) = 18.000
!file_name = EG0520U_1010_6x60_2SDBCB2EV_1915934D06_RC7325_2.5Vd_18mA.s2p
!Vd(V) = 2.500
!Vd(mA) = 17.940
!Vg(V) = -0.631
!Vg(mA) = -0.002
# GHz   S   DB   R   50
!%	Freq(GHz)	     s11(dB)	    s11(deg)	     s21(dB)	    s21(deg)	     s12(dB)	    s12(deg)	     s22(dB)	    s22(deg)
	0.500000000	      -0.040	     -12.300	      19.490	     172.370	     -37.146	      82.007	      -8.555	     -14.447
	1.000000000	      -0.118	     -24.368	      19.212	     164.461	     -31.313	      75.391	      -8.510	     -27.876
	1.500000000	      -0.156	     -35.929	      18.948	     158.443	     -28.064	      68.748	      -8.354	     -40.802
	2.000000000	      -0.304	     -46.924	      18.727	     151.181	     -25.957	      62.264	      -8.213	     -53.540
	2.500000000	      -0.395	     -57.122	      18.380	     145.336	     -24.495	      56.833	      -8.228	     -64.019
	3.000000000	      -0.788	     -64.340	      17.771	     140.206	     -23.600	      52.560	      -8.510	     -68.583
	3.500000000	      -0.911	     -72.760	      17.339	     135.304	     -22.751	      48.193	      -8.452	     -76.611
	4.000000000	      -1.030	     -80.300	      16.862	     130.954	     -22.094	      44.236	      -8.392	     -83.715
	4.500000000	      -1.174	     -87.095	      16.360	     126.622	     -21.593	      40.518	      -8.329	     -90.337
	5.000000000	      -1.260	     -93.216	      15.879	     123.065	     -21.190	      37.326	      -8.297	     -95.976
	5.500000000	      -1.358	     -98.899	      15.400	     119.579	     -20.883	      34.536	      -8.293	    -101.037
	6.000000000	      -1.441	    -104.030	      14.938	     116.397	     -20.611	      31.926	      -8.246	    -105.367
	6.500000000	      -1.506	    -108.613	      14.477	     113.595	     -20.398	      29.569	      -8.210	    -109.240
	7.000000000	      -1.573	    -112.799	      14.030	     110.871	     -20.220	      27.401	      -8.170	    -112.687
	7.500000000	      -1.620	    -116.571	      13.592	     108.412	     -20.074	      25.437	      -8.130	    -115.827
	8.000000000	      -1.650	    -119.820	      13.187	     106.223	     -19.937	      23.815	      -8.124	    -118.012
	8.500000000	      -1.694	    -123.052	      12.778	     104.067	     -19.837	      22.125	      -8.098	    -120.509
	9.000000000	      -1.739	    -125.938	      12.371	     102.049	     -19.745	      20.527	      -8.064	    -122.756
	9.500000000	      -1.773	    -128.677	      11.994	     100.069	     -19.670	      19.026	      -8.031	    -124.757
	10.000000000	      -1.797	    -131.188	      11.624	      98.254	     -19.617	      17.630	      -7.998	    -126.622
	10.500000000	      -1.829	    -133.564	      11.268	      96.458	     -19.577	      16.367	      -7.967	    -128.366
	11.000000000	      -1.847	    -135.716	      10.924	      94.825	     -19.540	      15.193	      -7.936	    -129.874
	11.500000000	      -1.874	    -137.758	      10.585	      93.215	     -19.510	      14.065	      -7.902	    -131.272
	12.000000000	      -1.894	    -139.660	      10.265	      91.701	     -19.490	      13.038	      -7.862	    -132.521
	12.500000000	      -1.906	    -141.434	       9.950	      90.255	     -19.470	      12.042	      -7.818	    -133.752
	13.000000000	      -1.921	    -143.107	       9.644	      88.795	     -19.458	      11.096	      -7.778	    -134.937
	13.500000000	      -1.934	    -144.684	       9.350	      87.441	     -19.452	      10.141	      -7.736	    -135.870
	14.000000000	      -1.948	    -146.202	       9.063	      86.116	     -19.460	       9.323	      -7.691	    -136.781
	14.500000000	      -1.954	    -147.576	       8.785	      84.827	     -19.456	       8.545	      -7.650	    -137.690
	15.000000000	      -1.961	    -148.804	       8.511	      83.589	     -19.462	       7.795	      -7.616	    -138.566
	15.500000000	      -1.969	    -150.036	       8.246	      82.360	     -19.466	       7.092	      -7.573	    -139.284
	16.000000000	      -1.976	    -151.246	       7.989	      81.161	     -19.463	       6.316	      -7.523	    -139.974
	16.500000000	      -1.983	    -152.411	       7.738	      79.983	     -19.477	       5.605	      -7.479	    -140.577
	17.000000000	      -1.984	    -153.494	       7.495	      78.845	     -19.497	       4.931	      -7.437	    -141.218
	17.500000000	      -1.994	    -154.484	       7.252	      77.724	     -19.507	       4.327	      -7.389	    -141.878
	18.000000000	      -2.004	    -155.445	       7.020	      76.636	     -19.531	       3.653	      -7.342	    -142.484
	18.500000000	      -2.006	    -156.396	       6.793	      75.568	     -19.544	       3.019	      -7.287	    -142.983
	19.000000000	      -2.006	    -157.297	       6.569	      74.509	     -19.574	       2.372	      -7.240	    -143.440
	19.500000000	      -2.005	    -158.152	       6.353	      73.484	     -19.616	       1.866	      -7.199	    -143.976
	20.000000000	      -2.010	    -158.966	       6.142	      72.483	     -19.654	       1.427	      -7.160	    -144.419
	20.500000000	      -2.010	    -159.782	       5.941	      71.480	     -19.675	       1.113	      -7.108	    -144.824
	21.000000000	      -2.013	    -160.497	       5.737	      70.484	     -19.689	       0.669	      -7.052	    -145.254
	21.500000000	      -2.005	    -161.295	       5.538	      69.498	     -19.704	       0.167	      -7.001	    -145.630
	22.000000000	      -1.997	    -161.957	       5.345	      68.531	     -19.728	      -0.405	      -6.946	    -146.026
	22.500000000	      -1.995	    -162.662	       5.150	      67.550	     -19.746	      -0.942	      -6.901	    -146.428
	23.000000000	      -1.999	    -163.350	       4.958	      66.608	     -19.782	      -1.514	      -6.850	    -146.897
	23.500000000	      -2.001	    -164.049	       4.770	      65.692	     -19.848	      -2.087	      -6.805	    -147.384
	24.000000000	      -2.009	    -164.700	       4.587	      64.824	     -19.929	      -2.328	      -6.773	    -147.674
	24.500000000	      -2.002	    -165.167	       4.418	      63.944	     -19.942	      -2.491	      -6.726	    -147.834
	25.000000000	      -1.988	    -165.671	       4.247	      63.017	     -19.939	      -2.854	      -6.667	    -148.061
	25.500000000	      -1.990	    -166.318	       4.069	      62.132	     -19.975	      -3.171	      -6.612	    -148.424
	26.000000000	      -1.990	    -166.899	       3.900	      61.267	     -20.017	      -3.736	      -6.543	    -148.784
	26.500000000	      -1.985	    -167.435	       3.733	      60.381	     -20.039	      -4.128	      -6.484	    -149.127
	27.000000000	      -1.976	    -167.865	       3.568	      59.535	     -20.097	      -4.644	      -6.438	    -149.453
	27.500000000	      -1.979	    -168.282	       3.410	      58.788	     -20.198	      -4.869	      -6.413	    -149.586
	28.000000000	      -1.974	    -168.827	       3.261	      57.960	     -20.259	      -4.887	      -6.359	    -149.940
	28.500000000	      -1.955	    -169.331	       3.120	      57.034	     -20.222	      -4.777	      -6.282	    -150.191
	29.000000000	      -1.947	    -169.827	       2.962	      56.133	     -20.234	      -5.332	      -6.223	    -150.554
	29.500000000	      -1.944	    -170.309	       2.804	      55.305	     -20.273	      -5.760	      -6.178	    -150.866
	30.000000000	      -1.945	    -170.710	       2.652	      54.549	     -20.322	      -6.334	      -6.135	    -151.107
	30.500000000	      -1.943	    -171.183	       2.507	      53.725	     -20.360	      -6.581	      -6.084	    -151.398
	31.000000000	      -1.936	    -171.657	       2.361	      52.909	     -20.417	      -6.974	      -6.046	    -151.675
	31.500000000	      -1.921	    -172.051	       2.233	      52.170	     -20.483	      -6.833	      -6.000	    -151.969
	32.000000000	      -1.919	    -172.388	       2.094	      51.354	     -20.519	      -7.002	      -5.943	    -152.155
	32.500000000	      -1.925	    -172.887	       1.953	      50.496	     -20.517	      -7.302	      -5.879	    -152.399
	33.000000000	      -1.925	    -173.310	       1.814	      49.728	     -20.525	      -7.656	      -5.833	    -152.698
	33.500000000	      -1.913	    -173.721	       1.672	      48.968	     -20.594	      -7.971	      -5.781	    -153.007
	34.000000000	      -1.900	    -174.067	       1.534	      48.206	     -20.644	      -8.366	      -5.734	    -153.361
	34.500000000	      -1.901	    -174.480	       1.394	      47.396	     -20.669	      -8.614	      -5.670	    -153.589
	35.000000000	      -1.906	    -174.849	       1.258	      46.664	     -20.754	      -8.983	      -5.622	    -153.948
	35.500000000	      -1.901	    -175.231	       1.141	      45.978	     -20.810	      -8.891	      -5.584	    -154.135
	36.000000000	      -1.895	    -175.546	       1.020	      45.168	     -20.798	      -9.107	      -5.528	    -154.358
	36.500000000	      -1.880	    -175.775	       0.896	      44.410	     -20.831	      -9.356	      -5.468	    -154.648
	37.000000000	      -1.868	    -176.065	       0.770	      43.650	     -20.860	      -9.761	      -5.422	    -154.939
	37.500000000	      -1.868	    -176.456	       0.643	      42.909	     -20.911	     -10.010	      -5.380	    -155.202
	38.000000000	      -1.860	    -176.843	       0.518	      42.188	     -20.944	     -10.612	      -5.336	    -155.474
	38.500000000	      -1.849	    -177.211	       0.385	      41.499	     -21.059	     -10.979	      -5.280	    -155.847
	39.000000000	      -1.834	    -177.471	       0.273	      40.817	     -21.115	     -10.863	      -5.234	    -156.104
	39.500000000	      -1.831	    -177.720	       0.158	      40.129	     -21.139	     -10.946	      -5.179	    -156.409
	40.000000000	      -1.818	    -178.164	       0.052	      39.331	     -21.187	     -11.136	      -5.123	    -156.696
	40.500000000	      -1.815	    -178.631	      -0.072	      38.585	     -21.193	     -11.373	      -5.065	    -156.955
	41.000000000	      -1.799	    -178.991	      -0.187	      37.841	     -21.262	     -11.689	      -5.034	    -157.292
	41.500000000	      -1.792	    -179.206	      -0.308	      37.161	     -21.283	     -12.214	      -5.002	    -157.522
	42.000000000	      -1.799	    -179.518	      -0.420	      36.462	     -21.318	     -12.290	      -4.946	    -157.717
	42.500000000	      -1.817	    -179.870	      -0.533	      35.808	     -21.434	     -12.386	      -4.886	    -157.758
	43.000000000	      -1.811	     179.841	      -0.633	      35.233	     -21.517	     -12.442	      -4.838	    -158.072
	43.500000000	      -1.790	     179.654	      -0.745	      34.431	     -21.530	     -12.286	      -4.797	    -158.424
	44.000000000	      -1.792	     179.312	      -0.847	      33.691	     -21.492	     -12.258	      -4.742	    -158.759
	44.500000000	      -1.805	     178.916	      -0.969	      33.023	     -21.593	     -12.844	      -4.694	    -159.002
	45.000000000	      -1.815	     178.613	      -1.080	      32.342	     -21.589	     -12.951	      -4.640	    -159.381
	45.500000000	      -1.768	     178.118	      -1.350	      31.762	     -21.795	     -13.567	      -4.522	    -160.185
	46.000000000	      -1.744	     177.857	      -1.464	      31.130	     -21.857	     -14.028	      -4.485	    -160.482
	46.500000000	      -1.722	     177.460	      -1.561	      30.586	     -21.994	     -13.746	      -4.422	    -160.680
	47.000000000	      -1.723	     177.106	      -1.657	      29.868	     -21.986	     -13.656	      -4.361	    -160.928
	47.500000000	      -1.721	     176.848	      -1.763	      29.167	     -22.145	     -13.800	      -4.333	    -161.095
	48.000000000	      -1.700	     176.516	      -1.871	      28.487	     -22.089	     -14.050	      -4.304	    -161.359
	48.500000000	      -1.698	     176.183	      -1.982	      27.876	     -22.098	     -14.005	      -4.252	    -161.526
	49.000000000	      -1.712	     175.955	      -2.087	      27.230	     -22.167	     -14.478	      -4.181	    -161.763
	49.500000000	      -1.720	     175.674	      -2.194	      26.594	     -22.160	     -14.690	      -4.116	    -162.082
	50.000000000	      -1.703	     175.422	      -2.292	      26.042	     -22.370	     -15.318	      -4.076	    -162.491
	50.500000000	      -1.687	     175.094	      -2.374	      25.515	     -22.434	     -14.943	      -4.077	    -162.817
	51.000000000	      -1.687	     174.846	      -2.498	      24.809	     -22.529	     -15.066	      -4.058	    -163.271
	51.500000000	      -1.681	     174.608	      -2.588	      24.194	     -22.494	     -14.458	      -4.010	    -163.472
	52.000000000	      -1.655	     174.386	      -2.689	      23.501	     -22.409	     -15.254	      -3.991	    -163.770
	52.500000000	      -1.656	     173.981	      -2.792	      22.935	     -22.456	     -14.871	      -3.948	    -163.894
	53.000000000	      -1.650	     173.622	      -2.903	      22.341	     -22.532	     -15.275	      -3.909	    -164.060
	53.500000000	      -1.637	     173.415	      -2.986	      21.813	     -22.574	     -15.444	      -3.862	    -164.374
	54.000000000	      -1.626	     173.147	      -3.080	      21.262	     -22.560	     -15.631	      -3.815	    -164.588
	54.500000000	      -1.633	     172.746	      -3.149	      20.717	     -22.654	     -16.064	      -3.765	    -164.738
	55.000000000	      -1.635	     172.343	      -3.246	      20.064	     -22.652	     -15.936	      -3.727	    -164.951
	55.500000000	      -1.634	     172.032	      -3.318	      19.450	     -22.690	     -16.150	      -3.696	    -165.196
	56.000000000	      -1.615	     171.735	      -3.408	      18.734	     -22.637	     -16.448	      -3.675	    -165.739
	56.500000000	      -1.611	     171.542	      -3.492	      18.097	     -22.500	     -15.828	      -3.654	    -165.959
	57.000000000	      -1.628	     171.246	      -3.602	      17.468	     -22.750	     -17.151	      -3.599	    -166.292
	57.500000000	      -1.619	     171.048	      -3.705	      16.865	     -22.814	     -17.634	      -3.570	    -166.664
	58.000000000	      -1.590	     170.941	      -3.775	      16.234	     -22.904	     -17.949	      -3.545	    -166.868
	58.500000000	      -1.588	     170.674	      -3.857	      15.700	     -23.127	     -17.950	      -3.515	    -167.204
	59.000000000	      -1.586	     170.313	      -3.949	      14.960	     -22.946	     -18.653	      -3.458	    -167.394
	59.500000000	      -1.575	     170.115	      -4.014	      14.252	     -22.856	     -17.761	      -3.440	    -167.629
	60.000000000	      -1.574	     169.939	      -4.113	      13.715	     -23.048	     -18.170	      -3.441	    -167.935
	60.500000000	      -1.536	     169.629	      -4.213	      13.032	     -23.130	     -18.449	      -3.423	    -168.067
	61.000000000	      -1.508	     169.248	      -4.321	      12.519	     -23.304	     -18.761	      -3.393	    -168.192
	61.500000000	      -1.505	     169.013	      -4.402	      12.105	     -23.205	     -19.089	      -3.354	    -168.440
	62.000000000	      -1.484	     168.673	      -4.478	      11.308	     -23.256	     -20.041	      -3.339	    -168.654
	62.500000000	      -1.487	     168.334	      -4.559	      10.743	     -23.639	     -18.011	      -3.308	    -168.596
	63.000000000	      -1.481	     167.844	      -4.644	      10.099	     -23.359	     -18.409	      -3.278	    -168.621
	63.500000000	      -1.466	     167.756	      -4.705	       9.343	     -23.363	     -18.691	      -3.227	    -169.034
	64.000000000	      -1.463	     167.786	      -4.787	       8.706	     -23.315	     -19.585	      -3.154	    -169.087
	64.500000000	      -1.450	     167.629	      -4.848	       8.024	     -23.497	     -18.945	      -3.128	    -168.929
	65.000000000	      -1.440	     167.255	      -4.965	       6.858	     -23.441	     -19.881	      -3.091	    -169.286
	65.500000000	      -1.447	     166.732	      -5.049	       6.366	     -23.608	     -19.452	      -3.069	    -169.905
	66.000000000	      -1.426	     166.480	      -5.184	       5.676	     -23.717	     -19.696	      -3.050	    -170.454
	66.500000000	      -1.473	     166.167	      -5.337	       4.988	     -23.710	     -20.197	      -3.011	    -170.205
	67.000000000	      -1.515	     165.807	      -5.372	       4.326	     -23.613	     -22.023	      -3.008	    -170.433
	67.500000000	      -1.492	     165.164	      -5.563	       3.394	     -23.685	     -20.295	      -2.972	    -170.820
	68.000000000	      -1.530	     164.988	      -5.655	       2.743	     -23.709	     -20.337	      -3.004	    -171.158
	68.500000000	      -1.563	     164.721	      -5.735	       2.177	     -23.721	     -21.042	      -2.966	    -171.177
	69.000000000	      -1.586	     164.490	      -5.866	       1.571	     -23.742	     -21.250	      -2.909	    -171.448
	69.500000000	      -1.580	     164.256	      -5.981	       1.121	     -23.824	     -21.780	      -2.888	    -171.562
	70.000000000	      -1.559	     164.068	      -6.080	       0.622	     -23.912	     -21.626	      -2.863	    -171.699
	70.500000000	      -1.546	     163.841	      -6.167	       0.197	     -23.909	     -21.645	      -2.831	    -171.788
	71.000000000	      -1.535	     163.606	      -6.262	      -0.239	     -23.902	     -21.729	      -2.800	    -171.982
	71.500000000	      -1.487	     163.350	      -6.358	      -0.679	     -23.864	     -22.091	      -2.729	    -172.227
	72.000000000	      -1.491	     163.065	      -6.475	      -1.292	     -23.879	     -22.817	      -2.740	    -172.527
	72.500000000	      -1.510	     162.687	      -6.574	      -1.958	     -23.930	     -23.975	      -2.718	    -172.757
	73.000000000	      -1.536	     162.438	      -6.676	      -2.568	     -24.031	     -24.732	      -2.677	    -172.953
	73.500000000	      -1.556	     162.347	      -6.788	      -3.046	     -24.236	     -25.448	      -2.611	    -173.238
	74.000000000	      -1.559	     162.074	      -6.890	      -3.468	     -24.389	     -25.305	      -2.613	    -173.766
	74.500000000	      -1.588	     161.852	      -6.983	      -3.914	     -24.503	     -25.140	      -2.635	    -173.943
	75.000000000	      -1.617	     161.746	      -7.081	      -4.473	     -24.593	     -25.432	      -2.615	    -174.083
	75.500000000	      -1.647	     161.646	      -7.202	      -4.980	     -24.820	     -25.697	      -2.616	    -174.152
	76.000000000	      -1.650	     161.711	      -7.313	      -5.384	     -25.165	     -25.265	      -2.631	    -174.250
	76.500000000	      -1.633	     161.866	      -7.435	      -5.498	     -25.533	     -22.644	      -2.631	    -174.071
	77.000000000	      -1.614	     161.813	      -7.507	      -5.577	     -25.519	     -18.562	      -2.571	    -173.934
	77.500000000	      -1.540	     161.627	      -7.530	      -5.552	     -25.139	     -15.471	      -2.486	    -173.974
	78.000000000	      -1.463	     161.307	      -7.533	      -5.881	     -24.635	     -14.515	      -2.441	    -174.083
	78.500000000	      -1.426	     160.713	      -7.554	      -6.624	     -24.242	     -14.935	      -2.397	    -174.384
	79.000000000	      -1.449	     160.149	      -7.622	      -7.526	     -23.955	     -16.394	      -2.333	    -174.648
	79.500000000	      -1.479	     159.644	      -7.680	      -8.328	     -23.742	     -17.733	      -2.285	    -174.881
