!File name = EG0520U_1010_6x60_2SDBCB2EV_1915934D06_RC2952_3.5Vd_36mA.s2p
!Base file name = EG0520U_1010_6x60_2SDBCB2EV_1915934D06_RC2952
!Date = 8/23/2019
!Time = 1:16 PM
!Test duration(min) = 0.15
!Test = S-Parameters
!MPTS version = 8.91.5
!State File = C:\Data\PNA\20190821205423\S-Parameters_2019-08-23.sta
!Cal File = 
!ComputerName = CMPE-LAB-6
!Comments = 
!Attenuation = 0
!Z0 = 50
!Input Power(dBm) = -13.00
!Device ID = EG0520U_1010_6x60_2SDBCB2EV
!Row = 29
!Column = 52
!Technology = QPHT09
!Lot/Wafer = 1915934D06
!Gate Size = 360
!Mask = EG0520
!Cal Standards = GaAs BCB
!Cal Kit = EG2306
!Job Number = 20190821205423
!Device Type = FET
!set_Vg(v) = -1.500
!set_Vd(v) = 3.500
!set_Vd(mA) = 36.000
!file_name = EG0520U_1010_6x60_2SDBCB2EV_1915934D06_RC2952_3.5Vd_36mA.s2p
!Vd(V) = 3.500
!Vd(mA) = 36.092
!Vg(V) = -0.517
!Vg(mA) = -0.003
# GHz   S   DB   R   50
!%	Freq(GHz)	     s11(dB)	    s11(deg)	     s21(dB)	    s21(deg)	     s12(dB)	    s12(deg)	     s22(dB)	    s22(deg)
	0.500000000	      -0.055	     -14.621	      21.836	     171.065	     -38.823	      81.046	      -8.498	     -14.824
	1.000000000	      -0.143	     -28.907	      21.418	     162.529	     -33.055	      73.485	      -8.543	     -28.425
	1.500000000	      -0.183	     -42.396	      21.065	     155.156	     -29.903	      66.184	      -8.516	     -41.503
	2.000000000	      -0.330	     -54.623	      20.797	     147.759	     -27.896	      59.367	      -8.546	     -54.261
	2.500000000	      -0.429	     -66.005	      20.351	     141.305	     -26.518	      53.583	      -8.682	     -64.593
	3.000000000	      -0.822	     -73.672	      19.666	     136.097	     -25.709	      49.192	      -9.078	     -68.840
	3.500000000	      -0.941	     -82.512	      19.110	     130.986	     -24.955	      44.725	      -9.156	     -76.760
	4.000000000	      -1.038	     -90.306	      18.548	     126.470	     -24.384	      40.816	      -9.217	     -83.734
	4.500000000	      -1.147	     -97.218	      17.986	     122.274	     -23.949	      37.277	      -9.268	     -90.124
	5.000000000	      -1.220	    -103.379	      17.432	     118.611	     -23.610	      34.226	      -9.325	     -95.543
	5.500000000	      -1.291	    -108.930	      16.901	     115.192	     -23.346	      31.531	      -9.380	    -100.323
	6.000000000	      -1.351	    -113.884	      16.375	     112.119	     -23.127	      29.105	      -9.394	    -104.471
	6.500000000	      -1.399	    -118.293	      15.872	     109.326	     -22.959	      26.923	      -9.407	    -108.169
	7.000000000	      -1.443	    -122.271	      15.387	     106.714	     -22.814	      24.941	      -9.407	    -111.414
	7.500000000	      -1.474	    -125.880	      14.915	     104.301	     -22.705	      23.149	      -9.401	    -114.359
	8.000000000	      -1.488	    -128.908	      14.482	     102.195	     -22.589	      21.714	      -9.419	    -116.261
	8.500000000	      -1.516	    -131.943	      14.046	     100.098	     -22.511	      20.195	      -9.409	    -118.616
	9.000000000	      -1.546	    -134.668	      13.620	      98.134	     -22.444	      18.765	      -9.386	    -120.691
	9.500000000	      -1.564	    -137.223	      13.222	      96.218	     -22.395	      17.399	      -9.359	    -122.572
	10.000000000	      -1.580	    -139.591	      12.833	      94.423	     -22.372	      16.107	      -9.338	    -124.341
	10.500000000	      -1.604	    -141.788	      12.457	      92.687	     -22.357	      15.075	      -9.315	    -125.927
	11.000000000	      -1.615	    -143.780	      12.097	      91.082	     -22.331	      14.068	      -9.278	    -127.288
	11.500000000	      -1.632	    -145.672	      11.745	      89.510	     -22.324	      13.078	      -9.239	    -128.534
	12.000000000	      -1.644	    -147.438	      11.409	      88.017	     -22.319	      12.205	      -9.191	    -129.666
	12.500000000	      -1.649	    -149.091	      11.083	      86.564	     -22.315	      11.335	      -9.134	    -130.839
	13.000000000	      -1.657	    -150.634	      10.767	      85.142	     -22.320	      10.496	      -9.081	    -131.886
	13.500000000	      -1.666	    -152.123	      10.460	      83.781	     -22.340	       9.694	      -9.026	    -132.753
	14.000000000	      -1.678	    -153.520	      10.161	      82.471	     -22.365	       9.042	      -8.971	    -133.554
	14.500000000	      -1.681	    -154.793	       9.872	      81.183	     -22.390	       8.393	      -8.918	    -134.432
	15.000000000	      -1.685	    -155.937	       9.588	      79.943	     -22.410	       7.908	      -8.868	    -135.179
	15.500000000	      -1.690	    -157.061	       9.315	      78.722	     -22.416	       7.397	      -8.806	    -135.798
	16.000000000	      -1.692	    -158.192	       9.049	      77.524	     -22.424	       6.760	      -8.735	    -136.413
	16.500000000	      -1.693	    -159.293	       8.789	      76.343	     -22.453	       6.152	      -8.667	    -137.007
	17.000000000	      -1.692	    -160.314	       8.539	      75.198	     -22.492	       5.596	      -8.605	    -137.582
	17.500000000	      -1.698	    -161.245	       8.289	      74.067	     -22.512	       5.129	      -8.537	    -138.176
	18.000000000	      -1.706	    -162.168	       8.051	      72.958	     -22.566	       4.614	      -8.468	    -138.766
	18.500000000	      -1.705	    -163.060	       7.816	      71.874	     -22.584	       4.079	      -8.393	    -139.237
	19.000000000	      -1.705	    -163.931	       7.584	      70.795	     -22.641	       3.614	      -8.325	    -139.645
	19.500000000	      -1.703	    -164.751	       7.360	      69.755	     -22.705	       3.273	      -8.264	    -140.156
	20.000000000	      -1.708	    -165.505	       7.141	      68.736	     -22.755	       3.157	      -8.204	    -140.563
	20.500000000	      -1.710	    -166.233	       6.931	      67.714	     -22.768	       3.067	      -8.121	    -140.925
	21.000000000	      -1.710	    -166.957	       6.720	      66.694	     -22.783	       2.587	      -8.042	    -141.382
	21.500000000	      -1.702	    -167.709	       6.513	      65.684	     -22.820	       2.164	      -7.965	    -141.754
	22.000000000	      -1.699	    -168.312	       6.311	      64.714	     -22.873	       1.741	      -7.893	    -142.124
	22.500000000	      -1.691	    -168.955	       6.112	      63.705	     -22.901	       1.352	      -7.825	    -142.543
	23.000000000	      -1.688	    -169.632	       5.914	      62.725	     -22.946	       0.892	      -7.749	    -143.051
	23.500000000	      -1.693	    -170.289	       5.718	      61.802	     -23.066	       0.539	      -7.681	    -143.531
	24.000000000	      -1.696	    -170.900	       5.531	      60.900	     -23.152	       0.646	      -7.619	    -143.845
	24.500000000	      -1.687	    -171.374	       5.352	      59.961	     -23.174	       0.604	      -7.553	    -144.040
	25.000000000	      -1.671	    -171.885	       5.172	      59.003	     -23.188	       0.467	      -7.476	    -144.284
	25.500000000	      -1.664	    -172.475	       4.992	      58.085	     -23.220	       0.336	      -7.395	    -144.639
	26.000000000	      -1.669	    -173.097	       4.811	      57.175	     -23.266	      -0.023	      -7.300	    -145.091
	26.500000000	      -1.666	    -173.617	       4.634	      56.275	     -23.307	      -0.432	      -7.220	    -145.447
	27.000000000	      -1.661	    -174.019	       4.463	      55.404	     -23.390	      -0.826	      -7.153	    -145.739
	27.500000000	      -1.668	    -174.452	       4.292	      54.602	     -23.543	      -0.844	      -7.107	    -145.991
	28.000000000	      -1.669	    -174.947	       4.133	      53.772	     -23.621	      -0.555	      -7.035	    -146.352
	28.500000000	      -1.652	    -175.384	       3.984	      52.862	     -23.590	      -0.279	      -6.938	    -146.679
	29.000000000	      -1.642	    -175.818	       3.819	      51.940	     -23.617	      -0.253	      -6.866	    -147.035
	29.500000000	      -1.631	    -176.269	       3.659	      51.082	     -23.621	      -0.665	      -6.788	    -147.368
	30.000000000	      -1.628	    -176.656	       3.501	      50.282	     -23.725	      -0.937	      -6.727	    -147.629
	30.500000000	      -1.627	    -177.124	       3.350	      49.429	     -23.770	      -1.039	      -6.659	    -147.987
	31.000000000	      -1.618	    -177.579	       3.195	      48.611	     -23.869	      -1.382	      -6.601	    -148.332
	31.500000000	      -1.605	    -177.990	       3.054	      47.835	     -23.953	      -0.900	      -6.530	    -148.636
	32.000000000	      -1.605	    -178.291	       2.909	      46.980	     -23.984	      -0.384	      -6.460	    -148.865
	32.500000000	      -1.613	    -178.719	       2.761	      46.095	     -23.953	      -0.508	      -6.373	    -149.113
	33.000000000	      -1.611	    -179.177	       2.614	      45.294	     -23.962	      -0.717	      -6.303	    -149.507
	33.500000000	      -1.600	    -179.560	       2.463	      44.518	     -24.007	      -1.095	      -6.242	    -149.892
	34.000000000	      -1.588	    -179.855	       2.320	      43.736	     -24.070	      -1.143	      -6.171	    -150.345
	34.500000000	      -1.587	     179.775	       2.171	      42.873	     -24.147	      -1.397	      -6.086	    -150.594
	35.000000000	      -1.586	     179.424	       2.029	      42.140	     -24.261	      -1.466	      -6.017	    -151.073
	35.500000000	      -1.577	     179.066	       1.909	      41.393	     -24.332	      -0.759	      -5.973	    -151.267
	36.000000000	      -1.562	     178.722	       1.779	      40.501	     -24.254	      -0.766	      -5.892	    -151.586
	36.500000000	      -1.547	     178.460	       1.639	      39.686	     -24.314	      -0.737	      -5.817	    -151.941
	37.000000000	      -1.545	     178.147	       1.502	      38.909	     -24.339	      -1.617	      -5.753	    -152.275
	37.500000000	      -1.548	     177.732	       1.359	      38.147	     -24.429	      -1.732	      -5.712	    -152.587
	38.000000000	      -1.551	     177.374	       1.220	      37.434	     -24.501	      -1.362	      -5.644	    -152.868
	38.500000000	      -1.546	     177.077	       1.080	      36.786	     -24.634	      -1.652	      -5.583	    -153.267
	39.000000000	      -1.537	     176.891	       0.961	      36.103	     -24.743	      -1.159	      -5.513	    -153.609
	39.500000000	      -1.528	     176.692	       0.846	      35.421	     -24.815	      -0.531	      -5.443	    -153.937
	40.000000000	      -1.517	     176.287	       0.730	      34.596	     -24.766	      -0.777	      -5.372	    -154.234
	40.500000000	      -1.512	     175.897	       0.603	      33.860	     -24.811	      -0.574	      -5.299	    -154.568
	41.000000000	      -1.492	     175.608	       0.481	      33.068	     -24.834	      -0.508	      -5.245	    -155.053
	41.500000000	      -1.479	     175.410	       0.365	      32.349	     -24.848	      -0.891	      -5.203	    -155.296
	42.000000000	      -1.484	     175.117	       0.241	      31.603	     -24.938	      -1.092	      -5.129	    -155.495
	42.500000000	      -1.497	     174.747	       0.113	      30.917	     -25.021	      -1.160	      -5.070	    -155.596
	43.000000000	      -1.495	     174.511	       0.004	      30.292	     -25.129	      -0.253	      -5.007	    -155.908
	43.500000000	      -1.470	     174.263	      -0.111	      29.458	     -25.057	       0.356	      -4.949	    -156.342
	44.000000000	      -1.482	     173.971	      -0.241	      28.684	     -25.165	      -0.469	      -4.875	    -156.787
	44.500000000	      -1.494	     173.553	      -0.371	      27.980	     -25.161	      -0.043	      -4.808	    -157.133
	45.000000000	      -1.503	     173.275	      -0.488	      27.322	     -25.249	      -0.269	      -4.754	    -157.554
	45.500000000	      -1.456	     172.980	      -0.772	      26.789	     -25.410	      -0.093	      -4.616	    -158.535
	46.000000000	      -1.436	     172.757	      -0.897	      26.201	     -25.679	      -0.600	      -4.580	    -158.913
	46.500000000	      -1.425	     172.414	      -1.001	      25.564	     -25.695	       0.604	      -4.504	    -159.033
	47.000000000	      -1.424	     172.113	      -1.101	      24.849	     -25.688	       1.290	      -4.441	    -159.310
	47.500000000	      -1.414	     171.837	      -1.224	      24.163	     -25.610	       1.717	      -4.406	    -159.551
	48.000000000	      -1.396	     171.576	      -1.342	      23.522	     -25.674	       2.266	      -4.354	    -159.884
	48.500000000	      -1.397	     171.268	      -1.458	      22.947	     -25.740	       1.238	      -4.298	    -160.114
	49.000000000	      -1.410	     171.079	      -1.563	      22.362	     -25.792	       0.759	      -4.228	    -160.379
	49.500000000	      -1.414	     170.867	      -1.670	      21.784	     -25.830	       1.286	      -4.175	    -160.556
	50.000000000	      -1.398	     170.558	      -1.757	      21.249	     -25.846	       1.883	      -4.119	    -160.778
	50.500000000	      -1.394	     170.338	      -1.853	      20.493	     -25.937	       0.812	      -4.059	    -161.516
	51.000000000	      -1.377	     170.083	      -1.968	      19.793	     -25.921	       2.813	      -4.046	    -161.836
	51.500000000	      -1.373	     169.925	      -2.073	      19.113	     -25.789	       2.532	      -3.995	    -162.138
	52.000000000	      -1.353	     169.703	      -2.183	      18.402	     -25.741	       3.077	      -3.953	    -162.381
	52.500000000	      -1.350	     169.385	      -2.290	      17.737	     -25.878	       2.470	      -3.900	    -162.491
	53.000000000	      -1.353	     169.048	      -2.409	      17.027	     -25.945	       2.464	      -3.844	    -162.751
	53.500000000	      -1.351	     168.903	      -2.511	      16.538	     -26.016	       2.148	      -3.772	    -163.033
	54.000000000	      -1.336	     168.689	      -2.615	      16.012	     -25.970	       2.804	      -3.718	    -163.418
	54.500000000	      -1.331	     168.262	      -2.714	      15.401	     -25.998	       3.229	      -3.676	    -163.720
	55.000000000	      -1.346	     167.894	      -2.813	      14.715	     -26.029	       3.178	      -3.635	    -163.917
	55.500000000	      -1.336	     167.656	      -2.900	      14.023	     -26.007	       2.569	      -3.584	    -164.238
	56.000000000	      -1.316	     167.341	      -2.994	      13.482	     -26.040	       2.349	      -3.546	    -164.807
	56.500000000	      -1.333	     167.184	      -3.084	      12.853	     -26.284	       3.076	      -3.520	    -165.481
	57.000000000	      -1.335	     166.966	      -3.225	      12.175	     -26.288	       0.770	      -3.503	    -165.495
	57.500000000	      -1.334	     166.885	      -3.339	      11.677	     -26.433	       1.706	      -3.481	    -165.806
	58.000000000	      -1.319	     166.821	      -3.430	      10.973	     -26.364	       3.545	      -3.422	    -166.107
	58.500000000	      -1.278	     166.581	      -3.514	      10.599	     -26.624	       4.019	      -3.371	    -166.364
	59.000000000	      -1.289	     166.313	      -3.604	       9.884	     -26.296	       4.024	      -3.334	    -166.656
	59.500000000	      -1.290	     166.133	      -3.721	       9.242	     -26.471	       1.369	      -3.276	    -166.952
	60.000000000	      -1.295	     165.969	      -3.799	       8.672	     -26.443	       3.520	      -3.300	    -167.333
	60.500000000	      -1.252	     165.749	      -3.908	       8.133	     -26.669	       4.060	      -3.298	    -167.466
	61.000000000	      -1.223	     165.497	      -4.013	       7.643	     -26.709	       5.122	      -3.244	    -167.628
	61.500000000	      -1.216	     165.228	      -4.082	       7.180	     -26.596	       3.970	      -3.211	    -167.905
	62.000000000	      -1.193	     164.976	      -4.157	       6.512	     -26.844	       5.836	      -3.203	    -167.812
	62.500000000	      -1.206	     164.725	      -4.269	       5.918	     -26.446	       7.479	      -3.173	    -168.076
	63.000000000	      -1.183	     164.330	      -4.303	       5.464	     -26.809	       5.870	      -3.128	    -168.163
	63.500000000	      -1.178	     164.081	      -4.389	       4.681	     -26.760	       8.070	      -3.059	    -168.577
	64.000000000	      -1.174	     164.299	      -4.443	       3.880	     -26.391	       4.936	      -3.005	    -168.478
	64.500000000	      -1.161	     164.236	      -4.548	       3.103	     -26.626	       6.809	      -2.956	    -168.259
	65.000000000	      -1.166	     163.815	      -4.645	       2.139	     -26.685	       7.284	      -2.899	    -168.773
	65.500000000	      -1.154	     163.155	      -4.740	       1.379	     -26.464	       6.836	      -2.851	    -169.635
	66.000000000	      -1.150	     162.915	      -4.890	       0.723	     -26.444	       5.050	      -2.853	    -170.001
	66.500000000	      -1.194	     162.750	      -4.968	      -0.352	     -26.091	       4.580	      -2.794	    -169.700
	67.000000000	      -1.235	     162.473	      -5.106	      -0.899	     -26.186	       6.904	      -2.798	    -169.766
	67.500000000	      -1.218	     161.765	      -5.267	      -1.781	     -26.409	       6.170	      -2.787	    -170.359
	68.000000000	      -1.270	     161.556	      -5.374	      -2.303	     -26.330	       6.101	      -2.817	    -170.729
	68.500000000	      -1.315	     161.309	      -5.460	      -2.793	     -26.340	       5.744	      -2.775	    -170.977
	69.000000000	      -1.344	     161.177	      -5.596	      -3.373	     -26.360	       5.202	      -2.703	    -171.199
	69.500000000	      -1.339	     161.011	      -5.717	      -3.802	     -26.469	       4.915	      -2.687	    -171.319
	70.000000000	      -1.319	     160.852	      -5.817	      -4.283	     -26.523	       5.533	      -2.655	    -171.406
	70.500000000	      -1.299	     160.711	      -5.916	      -4.729	     -26.479	       5.630	      -2.615	    -171.524
	71.000000000	      -1.279	     160.615	      -5.999	      -5.075	     -26.502	       5.386	      -2.579	    -171.781
	71.500000000	      -1.229	     160.478	      -6.108	      -5.592	     -26.459	       5.160	      -2.509	    -171.988
	72.000000000	      -1.228	     160.120	      -6.227	      -6.172	     -26.495	       4.372	      -2.510	    -172.240
	72.500000000	      -1.257	     159.735	      -6.332	      -6.860	     -26.534	       3.750	      -2.490	    -172.540
	73.000000000	      -1.295	     159.565	      -6.441	      -7.434	     -26.640	       3.120	      -2.449	    -172.739
	73.500000000	      -1.315	     159.481	      -6.555	      -7.948	     -26.851	       3.254	      -2.379	    -173.003
	74.000000000	      -1.324	     159.199	      -6.661	      -8.333	     -26.963	       3.875	      -2.376	    -173.625
	74.500000000	      -1.362	     158.946	      -6.754	      -8.726	     -27.053	       4.344	      -2.396	    -173.877
	75.000000000	      -1.403	     158.891	      -6.855	      -9.275	     -27.137	       4.778	      -2.380	    -173.987
	75.500000000	      -1.445	     158.961	      -6.978	      -9.748	     -27.324	       5.593	      -2.387	    -174.091
	76.000000000	      -1.455	     159.091	      -7.105	     -10.128	     -27.583	       7.649	      -2.392	    -174.200
	76.500000000	      -1.441	     159.306	      -7.233	     -10.183	     -27.599	      11.736	      -2.368	    -174.059
	77.000000000	      -1.411	     159.342	      -7.306	     -10.235	     -27.150	      15.431	      -2.305	    -174.056
	77.500000000	      -1.327	     159.195	      -7.328	     -10.237	     -26.457	      16.547	      -2.227	    -174.203
	78.000000000	      -1.247	     158.894	      -7.326	     -10.596	     -25.802	      15.697	      -2.184	    -174.290
	78.500000000	      -1.202	     158.492	      -7.353	     -11.322	     -25.409	      13.492	      -2.146	    -174.608
	79.000000000	      -1.229	     157.903	      -7.424	     -12.169	     -25.220	      10.884	      -2.094	    -174.903
	79.500000000	      -1.257	     157.398	      -7.490	     -13.029	     -25.075	       8.558	      -2.046	    -175.138
