!File name = EG0520U_1010_6x60_2SDBCB2EV_1915934D06_RC4034_3Vd_36mA.s2p
!Base file name = EG0520U_1010_6x60_2SDBCB2EV_1915934D06_RC4034
!Date = 8/23/2019
!Time = 12:57 PM
!Test duration(min) = 0.15
!Test = S-Parameters
!MPTS version = 8.91.5
!State File = C:\Data\PNA\20190821205423\S-Parameters_2019-08-23.sta
!Cal File = 
!ComputerName = CMPE-LAB-6
!Comments = 
!Attenuation = 0
!Z0 = 50
!Input Power(dBm) = -13.00
!Device ID = EG0520U_1010_6x60_2SDBCB2EV
!Row = 40
!Column = 34
!Technology = QPHT09
!Lot/Wafer = 1915934D06
!Gate Size = 360
!Mask = EG0520
!Cal Standards = GaAs BCB
!Cal Kit = EG2306
!Job Number = 20190821205423
!Device Type = FET
!set_Vg(v) = -1.500
!set_Vd(v) = 3.000
!set_Vd(mA) = 36.000
!file_name = EG0520U_1010_6x60_2SDBCB2EV_1915934D06_RC4034_3Vd_36mA.s2p
!Vd(V) = 3.000
!Vd(mA) = 35.939
!Vg(V) = -0.526
!Vg(mA) = -0.002
# GHz   S   DB   R   50
!%	Freq(GHz)	     s11(dB)	    s11(deg)	     s21(dB)	    s21(deg)	     s12(dB)	    s12(deg)	     s22(dB)	    s22(deg)
	0.500000000	      -0.046	     -14.340	      21.673	     171.257	     -38.761	      81.368	      -9.467	     -16.365
	1.000000000	      -0.130	     -28.368	      21.278	     162.784	     -32.990	      73.878	      -9.420	     -31.296
	1.500000000	      -0.170	     -41.629	      20.940	     155.647	     -29.819	      66.599	      -9.249	     -45.455
	2.000000000	      -0.316	     -53.744	      20.669	     148.247	     -27.798	      59.802	      -9.105	     -59.087
	2.500000000	      -0.412	     -64.991	      20.246	     141.888	     -26.411	      54.062	      -9.094	     -69.998
	3.000000000	      -0.806	     -72.622	      19.565	     136.759	     -25.590	      49.723	      -9.427	     -74.609
	3.500000000	      -0.926	     -81.404	      19.026	     131.682	     -24.821	      45.330	      -9.370	     -82.779
	4.000000000	      -1.026	     -89.169	      18.472	     127.234	     -24.238	      41.408	      -9.314	     -89.896
	4.500000000	      -1.136	     -96.068	      17.916	     123.046	     -23.799	      37.853	      -9.259	     -96.357
	5.000000000	      -1.210	    -102.193	      17.372	     119.446	     -23.452	      34.798	      -9.224	    -101.772
	5.500000000	      -1.284	    -107.758	      16.844	     116.052	     -23.183	      32.113	      -9.204	    -106.553
	6.000000000	      -1.346	    -112.700	      16.328	     113.002	     -22.958	      29.670	      -9.155	    -110.632
	6.500000000	      -1.396	    -117.109	      15.828	     110.258	     -22.780	      27.482	      -9.114	    -114.244
	7.000000000	      -1.441	    -121.106	      15.347	     107.657	     -22.637	      25.541	      -9.071	    -117.405
	7.500000000	      -1.473	    -124.691	      14.879	     105.294	     -22.523	      23.758	      -9.027	    -120.268
	8.000000000	      -1.486	    -127.737	      14.451	     103.204	     -22.398	      22.287	      -9.020	    -122.148
	8.500000000	      -1.516	    -130.774	      14.018	     101.141	     -22.318	      20.782	      -8.986	    -124.410
	9.000000000	      -1.547	    -133.502	      13.593	      99.207	     -22.250	      19.335	      -8.944	    -126.398
	9.500000000	      -1.567	    -136.041	      13.197	      97.332	     -22.196	      18.015	      -8.901	    -128.171
	10.000000000	      -1.583	    -138.394	      12.812	      95.580	     -22.163	      16.763	      -8.859	    -129.882
	10.500000000	      -1.604	    -140.597	      12.441	      93.870	     -22.139	      15.658	      -8.822	    -131.366
	11.000000000	      -1.616	    -142.600	      12.083	      92.289	     -22.116	      14.637	      -8.779	    -132.694
	11.500000000	      -1.635	    -144.498	      11.733	      90.752	     -22.110	      13.668	      -8.738	    -133.872
	12.000000000	      -1.648	    -146.259	      11.399	      89.285	     -22.103	      12.783	      -8.688	    -134.939
	12.500000000	      -1.656	    -147.898	      11.075	      87.882	     -22.092	      11.949	      -8.635	    -136.040
	13.000000000	      -1.664	    -149.431	      10.761	      86.493	     -22.093	      11.173	      -8.584	    -137.003
	13.500000000	      -1.671	    -150.909	      10.457	      85.174	     -22.095	      10.345	      -8.527	    -137.816
	14.000000000	      -1.683	    -152.318	      10.160	      83.887	     -22.122	       9.652	      -8.474	    -138.584
	14.500000000	      -1.688	    -153.579	       9.874	      82.636	     -22.136	       9.022	      -8.424	    -139.388
	15.000000000	      -1.692	    -154.717	       9.593	      81.435	     -22.154	       8.427	      -8.378	    -140.097
	15.500000000	      -1.696	    -155.864	       9.321	      80.235	     -22.165	       7.896	      -8.323	    -140.698
	16.000000000	      -1.702	    -156.992	       9.056	      79.073	     -22.172	       7.269	      -8.262	    -141.273
	16.500000000	      -1.706	    -158.073	       8.797	      77.929	     -22.198	       6.679	      -8.203	    -141.815
	17.000000000	      -1.706	    -159.088	       8.548	      76.816	     -22.240	       6.157	      -8.151	    -142.359
	17.500000000	      -1.714	    -160.009	       8.299	      75.722	     -22.254	       5.730	      -8.093	    -142.884
	18.000000000	      -1.721	    -160.909	       8.062	      74.659	     -22.290	       5.162	      -8.034	    -143.413
	18.500000000	      -1.722	    -161.790	       7.829	      73.614	     -22.315	       4.703	      -7.968	    -143.833
	19.000000000	      -1.721	    -162.633	       7.600	      72.580	     -22.355	       4.187	      -7.908	    -144.248
	19.500000000	      -1.718	    -163.437	       7.379	      71.576	     -22.413	       3.793	      -7.854	    -144.665
	20.000000000	      -1.725	    -164.213	       7.161	      70.587	     -22.478	       3.612	      -7.808	    -145.049
	20.500000000	      -1.729	    -164.931	       6.952	      69.606	     -22.512	       3.471	      -7.743	    -145.354
	21.000000000	      -1.728	    -165.618	       6.745	      68.636	     -22.525	       3.243	      -7.677	    -145.719
	21.500000000	      -1.719	    -166.361	       6.542	      67.657	     -22.543	       2.878	      -7.607	    -146.038
	22.000000000	      -1.712	    -166.977	       6.343	      66.710	     -22.568	       2.443	      -7.540	    -146.369
	22.500000000	      -1.709	    -167.640	       6.144	      65.740	     -22.590	       1.972	      -7.481	    -146.727
	23.000000000	      -1.711	    -168.251	       5.947	      64.813	     -22.645	       1.621	      -7.421	    -147.143
	23.500000000	      -1.710	    -168.937	       5.755	      63.917	     -22.733	       1.217	      -7.364	    -147.604
	24.000000000	      -1.718	    -169.552	       5.568	      63.054	     -22.828	       1.251	      -7.321	    -147.837
	24.500000000	      -1.711	    -170.002	       5.393	      62.168	     -22.857	       1.377	      -7.260	    -147.939
	25.000000000	      -1.698	    -170.511	       5.216	      61.241	     -22.834	       1.105	      -7.191	    -148.151
	25.500000000	      -1.696	    -171.072	       5.037	      60.362	     -22.864	       0.730	      -7.123	    -148.484
	26.000000000	      -1.701	    -171.680	       4.860	      59.508	     -22.911	       0.445	      -7.041	    -148.830
	26.500000000	      -1.699	    -172.183	       4.687	      58.641	     -22.968	       0.196	      -6.970	    -149.131
	27.000000000	      -1.691	    -172.599	       4.519	      57.804	     -23.016	      -0.218	      -6.913	    -149.442
	27.500000000	      -1.696	    -173.004	       4.355	      57.042	     -23.166	      -0.140	      -6.875	    -149.569
	28.000000000	      -1.697	    -173.493	       4.199	      56.244	     -23.250	       0.238	      -6.816	    -149.856
	28.500000000	      -1.674	    -173.943	       4.056	      55.324	     -23.190	       0.438	      -6.720	    -150.094
	29.000000000	      -1.668	    -174.436	       3.890	      54.423	     -23.173	       0.087	      -6.654	    -150.461
	29.500000000	      -1.664	    -174.884	       3.730	      53.602	     -23.248	      -0.277	      -6.594	    -150.783
	30.000000000	      -1.665	    -175.297	       3.573	      52.858	     -23.319	      -0.612	      -6.539	    -150.973
	30.500000000	      -1.663	    -175.714	       3.423	      52.043	     -23.375	      -0.741	      -6.479	    -151.285
	31.000000000	      -1.653	    -176.124	       3.273	      51.283	     -23.431	      -0.994	      -6.425	    -151.556
	31.500000000	      -1.642	    -176.511	       3.142	      50.537	     -23.505	      -0.458	      -6.366	    -151.798
	32.000000000	      -1.636	    -176.890	       3.000	      49.682	     -23.508	      -0.445	      -6.301	    -152.024
	32.500000000	      -1.641	    -177.279	       2.854	      48.800	     -23.519	      -0.491	      -6.226	    -152.249
	33.000000000	      -1.638	    -177.738	       2.711	      48.028	     -23.532	      -0.596	      -6.169	    -152.531
	33.500000000	      -1.626	    -178.117	       2.563	      47.277	     -23.603	      -0.868	      -6.113	    -152.875
	34.000000000	      -1.618	    -178.509	       2.419	      46.506	     -23.674	      -1.175	      -6.049	    -153.234
	34.500000000	      -1.622	    -178.905	       2.271	      45.710	     -23.699	      -1.487	      -5.976	    -153.445
	35.000000000	      -1.626	    -179.215	       2.131	      45.020	     -23.795	      -1.614	      -5.920	    -153.794
	35.500000000	      -1.617	    -179.560	       2.014	      44.253	     -23.833	      -0.786	      -5.874	    -153.959
	36.000000000	      -1.610	    -179.912	       1.885	      43.471	     -23.852	      -0.845	      -5.806	    -154.225
	36.500000000	      -1.602	     179.811	       1.755	      42.711	     -23.822	      -1.279	      -5.735	    -154.518
	37.000000000	      -1.598	     179.569	       1.619	      41.961	     -23.879	      -1.469	      -5.680	    -154.811
	37.500000000	      -1.603	     179.208	       1.483	      41.246	     -23.987	      -1.483	      -5.638	    -155.105
	38.000000000	      -1.590	     178.855	       1.356	      40.548	     -24.033	      -1.362	      -5.578	    -155.303
	38.500000000	      -1.585	     178.511	       1.221	      39.834	     -24.142	      -1.969	      -5.517	    -155.752
	39.000000000	      -1.580	     178.273	       1.104	      39.176	     -24.145	      -1.508	      -5.457	    -156.031
	39.500000000	      -1.573	     178.048	       0.985	      38.516	     -24.253	      -1.726	      -5.399	    -156.324
	40.000000000	      -1.557	     177.697	       0.877	      37.713	     -24.219	      -1.331	      -5.339	    -156.596
	40.500000000	      -1.553	     177.270	       0.752	      36.953	     -24.266	      -1.426	      -5.274	    -156.891
	41.000000000	      -1.539	     176.894	       0.627	      36.214	     -24.362	      -1.475	      -5.226	    -157.326
	41.500000000	      -1.536	     176.707	       0.509	      35.518	     -24.342	      -1.511	      -5.185	    -157.453
	42.000000000	      -1.533	     176.428	       0.389	      34.846	     -24.430	      -1.801	      -5.119	    -157.656
	42.500000000	      -1.549	     176.040	       0.268	      34.184	     -24.487	      -1.906	      -5.065	    -157.701
	43.000000000	      -1.541	     175.803	       0.167	      33.543	     -24.584	      -1.152	      -5.005	    -158.022
	43.500000000	      -1.516	     175.530	       0.053	      32.762	     -24.564	      -0.482	      -4.954	    -158.429
	44.000000000	      -1.529	     175.316	      -0.071	      32.020	     -24.570	      -0.658	      -4.889	    -158.783
	44.500000000	      -1.538	     174.872	      -0.193	      31.318	     -24.608	      -1.235	      -4.826	    -159.029
	45.000000000	      -1.544	     174.576	      -0.311	      30.672	     -24.647	      -1.007	      -4.764	    -159.415
	45.500000000	      -1.504	     174.249	      -0.588	      30.145	     -24.906	      -1.328	      -4.639	    -160.264
	46.000000000	      -1.490	     174.015	      -0.706	      29.579	     -24.962	      -1.366	      -4.587	    -160.630
	46.500000000	      -1.472	     173.662	      -0.813	      28.957	     -25.112	      -0.899	      -4.506	    -160.771
	47.000000000	      -1.474	     173.332	      -0.911	      28.263	     -25.115	      -0.130	      -4.479	    -160.977
	47.500000000	      -1.469	     173.048	      -1.018	      27.580	     -25.153	       0.957	      -4.414	    -161.210
	48.000000000	      -1.452	     172.781	      -1.133	      26.866	     -24.988	       0.879	      -4.382	    -161.504
	48.500000000	      -1.452	     172.450	      -1.250	      26.244	     -25.125	      -1.008	      -4.326	    -161.754
	49.000000000	      -1.468	     172.232	      -1.362	      25.650	     -25.095	      -0.602	      -4.271	    -161.975
	49.500000000	      -1.462	     171.959	      -1.463	      25.070	     -25.357	      -1.136	      -4.208	    -162.373
	50.000000000	      -1.450	     171.707	      -1.576	      24.403	     -25.313	      -1.020	      -4.160	    -162.613
	50.500000000	      -1.436	     171.454	      -1.673	      23.879	     -25.327	      -0.051	      -4.132	    -163.093
	51.000000000	      -1.432	     171.186	      -1.779	      23.323	     -25.442	       0.645	      -4.126	    -163.469
	51.500000000	      -1.429	     171.065	      -1.895	      22.703	     -25.416	       0.220	      -4.081	    -163.808
	52.000000000	      -1.407	     170.772	      -1.996	      21.997	     -25.253	       0.247	      -4.042	    -164.009
	52.500000000	      -1.409	     170.478	      -2.107	      21.426	     -25.399	       0.146	      -4.002	    -164.159
	53.000000000	      -1.408	     170.109	      -2.204	      20.935	     -25.398	       0.497	      -3.959	    -164.225
	53.500000000	      -1.399	     169.984	      -2.305	      20.375	     -25.506	       0.599	      -3.915	    -164.480
	54.000000000	      -1.389	     169.711	      -2.380	      19.871	     -25.432	       0.472	      -3.846	    -164.791
	54.500000000	      -1.379	     169.313	      -2.476	      19.242	     -25.439	       0.423	      -3.812	    -164.960
	55.000000000	      -1.395	     168.929	      -2.567	      18.619	     -25.551	       0.759	      -3.758	    -165.185
	55.500000000	      -1.389	     168.681	      -2.656	      17.953	     -25.473	       0.535	      -3.724	    -165.414
	56.000000000	      -1.384	     168.377	      -2.745	      17.301	     -25.536	       0.314	      -3.681	    -165.893
	56.500000000	      -1.376	     168.121	      -2.840	      16.705	     -25.688	       0.129	      -3.648	    -166.341
	57.000000000	      -1.390	     168.049	      -2.952	      16.058	     -25.564	       0.704	      -3.633	    -166.536
	57.500000000	      -1.384	     167.732	      -3.060	      15.501	     -25.810	       0.190	      -3.585	    -166.852
	58.000000000	      -1.360	     167.626	      -3.136	      14.880	     -25.728	       0.675	      -3.557	    -167.151
	58.500000000	      -1.346	     167.496	      -3.217	      14.342	     -25.627	       0.929	      -3.515	    -167.322
	59.000000000	      -1.350	     167.064	      -3.308	      13.629	     -25.855	       0.502	      -3.462	    -167.539
	59.500000000	      -1.352	     167.006	      -3.404	      12.984	     -25.975	       0.965	      -3.410	    -167.814
	60.000000000	      -1.341	     166.726	      -3.492	      12.345	     -25.779	      -1.301	      -3.436	    -168.143
	60.500000000	      -1.317	     166.505	      -3.598	      11.714	     -26.000	       0.510	      -3.418	    -168.274
	61.000000000	      -1.294	     166.206	      -3.678	      11.297	     -25.947	       0.869	      -3.395	    -168.376
	61.500000000	      -1.294	     165.903	      -3.783	      10.757	     -25.947	       1.162	      -3.341	    -168.668
	62.000000000	      -1.268	     165.668	      -3.842	      10.138	     -26.139	       0.173	      -3.335	    -168.838
	62.500000000	      -1.260	     165.346	      -3.934	       9.670	     -25.954	       2.698	      -3.318	    -168.836
	63.000000000	      -1.271	     164.871	      -4.023	       8.993	     -26.116	       1.032	      -3.271	    -169.051
	63.500000000	      -1.259	     164.698	      -4.102	       8.187	     -25.907	       2.483	      -3.203	    -169.257
	64.000000000	      -1.250	     164.793	      -4.167	       7.500	     -25.985	       3.405	      -3.137	    -169.291
	64.500000000	      -1.213	     164.509	      -4.228	       6.636	     -25.841	       1.781	      -3.111	    -169.172
	65.000000000	      -1.238	     164.027	      -4.350	       5.865	     -25.884	       0.799	      -3.050	    -169.567
	65.500000000	      -1.255	     163.717	      -4.467	       5.082	     -25.911	       1.819	      -3.012	    -170.251
	66.000000000	      -1.227	     163.441	      -4.585	       4.304	     -25.911	       2.432	      -3.006	    -170.590
	66.500000000	      -1.254	     163.214	      -4.688	       3.601	     -25.850	       3.271	      -2.945	    -170.733
	67.000000000	      -1.282	     162.929	      -4.819	       3.068	     -25.867	       1.920	      -2.961	    -170.553
	67.500000000	      -1.285	     162.323	      -4.959	       2.289	     -26.030	       1.343	      -2.945	    -171.025
	68.000000000	      -1.315	     162.150	      -5.056	       1.669	     -26.032	       1.442	      -2.963	    -171.365
	68.500000000	      -1.340	     161.948	      -5.158	       1.192	     -26.037	       1.084	      -2.924	    -171.490
	69.000000000	      -1.365	     161.728	      -5.288	       0.648	     -26.014	       0.228	      -2.867	    -171.648
	69.500000000	      -1.361	     161.487	      -5.394	       0.240	     -26.189	       0.178	      -2.839	    -171.830
	70.000000000	      -1.349	     161.310	      -5.486	      -0.232	     -26.189	       0.766	      -2.817	    -171.943
	70.500000000	      -1.339	     161.101	      -5.583	      -0.762	     -26.138	       0.972	      -2.779	    -172.098
	71.000000000	      -1.338	     160.803	      -5.685	      -1.150	     -26.131	       0.664	      -2.754	    -172.262
	71.500000000	      -1.324	     160.641	      -5.794	      -1.624	     -26.098	       0.165	      -2.679	    -172.330
	72.000000000	      -1.322	     160.347	      -5.879	      -2.220	     -26.113	      -0.647	      -2.670	    -172.644
	72.500000000	      -1.340	     160.028	      -5.974	      -2.879	     -26.157	      -1.274	      -2.653	    -172.946
	73.000000000	      -1.364	     159.870	      -6.085	      -3.418	     -26.319	      -2.074	      -2.613	    -173.088
	73.500000000	      -1.379	     159.744	      -6.191	      -3.916	     -26.515	      -1.807	      -2.549	    -173.410
	74.000000000	      -1.386	     159.543	      -6.300	      -4.417	     -26.593	      -1.382	      -2.544	    -173.934
	74.500000000	      -1.410	     159.323	      -6.388	      -4.859	     -26.672	      -1.040	      -2.565	    -174.156
	75.000000000	      -1.440	     159.216	      -6.492	      -5.410	     -26.777	      -0.948	      -2.552	    -174.242
	75.500000000	      -1.468	     159.198	      -6.619	      -5.943	     -26.987	      -0.554	      -2.546	    -174.401
	76.000000000	      -1.479	     159.252	      -6.742	      -6.367	     -27.281	       1.178	      -2.557	    -174.446
	76.500000000	      -1.475	     159.440	      -6.878	      -6.519	     -27.399	       4.919	      -2.540	    -174.321
	77.000000000	      -1.449	     159.474	      -6.965	      -6.607	     -27.061	       8.801	      -2.479	    -174.152
	77.500000000	      -1.386	     159.376	      -7.004	      -6.641	     -26.424	      10.204	      -2.397	    -174.254
	78.000000000	      -1.298	     159.104	      -7.030	      -6.880	     -25.886	       9.464	      -2.342	    -174.369
	78.500000000	      -1.248	     158.683	      -7.079	      -7.444	     -25.575	       7.862	      -2.312	    -174.697
	79.000000000	      -1.249	     158.016	      -7.132	      -7.999	     -25.372	       6.380	      -2.254	    -174.997
	79.500000000	      -1.273	     157.519	      -7.169	      -8.700	     -25.127	       4.630	      -2.212	    -175.283
