!File name = EG0520U_1010_6x60_2SDBCB2EV_1915934D06_RC7325_2.5Vd_27mA.s2p
!Base file name = EG0520U_1010_6x60_2SDBCB2EV_1915934D06_RC7325
!Date = 8/23/2019
!Time = 1:07 PM
!Test duration(min) = 0.15
!Test = S-Parameters
!MPTS version = 8.91.5
!State File = C:\Data\PNA\20190821205423\S-Parameters_2019-08-23.sta
!Cal File = 
!ComputerName = CMPE-LAB-6
!Comments = 
!Attenuation = 0
!Z0 = 50
!Input Power(dBm) = -13.00
!Device ID = EG0520U_1010_6x60_2SDBCB2EV
!Row = 73
!Column = 25
!Technology = QPHT09
!Lot/Wafer = 1915934D06
!Gate Size = 360
!Mask = EG0520
!Cal Standards = GaAs BCB
!Cal Kit = EG2306
!Job Number = 20190821205423
!Device Type = FET
!set_Vg(v) = -1.500
!set_Vd(v) = 2.500
!set_Vd(mA) = 27.000
!file_name = EG0520U_1010_6x60_2SDBCB2EV_1915934D06_RC7325_2.5Vd_27mA.s2p
!Vd(V) = 2.500
!Vd(mA) = 26.913
!Vg(V) = -0.577
!Vg(mA) = -0.002
# GHz   S   DB   R   50
!%	Freq(GHz)	     s11(dB)	    s11(deg)	     s21(dB)	    s21(deg)	     s12(dB)	    s12(deg)	     s22(dB)	    s22(deg)
	0.500000000	      -0.038	     -13.418	      20.728	     171.849	     -38.013	      81.723	      -9.998	     -17.188
	1.000000000	      -0.118	     -26.578	      20.401	     163.592	     -32.203	      74.620	      -9.851	     -32.876
	1.500000000	      -0.158	     -39.101	      20.104	     157.030	     -29.000	      67.576	      -9.537	     -47.557
	2.000000000	      -0.306	     -50.747	      19.842	     149.668	     -26.945	      60.905	      -9.226	     -61.562
	2.500000000	      -0.400	     -61.566	      19.463	     143.554	     -25.527	      55.311	      -9.087	     -72.745
	3.000000000	      -0.795	     -69.037	      18.809	     138.495	     -24.666	      51.058	      -9.341	     -77.615
	3.500000000	      -0.917	     -77.684	      18.319	     133.492	     -23.863	      46.657	      -9.166	     -85.872
	4.000000000	      -1.026	     -85.367	      17.797	     129.142	     -23.250	      42.721	      -9.007	     -93.015
	4.500000000	      -1.151	     -92.229	      17.261	     124.913	     -22.785	      39.123	      -8.860	     -99.499
	5.000000000	      -1.230	     -98.362	      16.746	     121.369	     -22.415	      36.023	      -8.756	    -104.947
	5.500000000	      -1.314	    -103.984	      16.236	     117.977	     -22.127	      33.295	      -8.683	    -109.756
	6.000000000	      -1.385	    -109.002	      15.744	     114.899	     -21.885	      30.801	      -8.587	    -113.830
	6.500000000	      -1.441	    -113.485	      15.259	     112.176	     -21.691	      28.572	      -8.508	    -117.432
	7.000000000	      -1.495	    -117.555	      14.792	     109.558	     -21.532	      26.531	      -8.433	    -120.583
	7.500000000	      -1.533	    -121.206	      14.337	     107.197	     -21.404	      24.696	      -8.363	    -123.446
	8.000000000	      -1.553	    -124.334	      13.919	     105.104	     -21.274	      23.183	      -8.340	    -125.384
	8.500000000	      -1.589	    -127.438	      13.495	     103.046	     -21.183	      21.586	      -8.292	    -127.629
	9.000000000	      -1.625	    -130.220	      13.079	     101.119	     -21.106	      20.095	      -8.240	    -129.659
	9.500000000	      -1.652	    -132.833	      12.691	      99.237	     -21.042	      18.725	      -8.189	    -131.445
	10.000000000	      -1.670	    -135.240	      12.313	      97.502	     -20.999	      17.403	      -8.145	    -133.114
	10.500000000	      -1.695	    -137.502	      11.948	      95.798	     -20.969	      16.268	      -8.101	    -134.651
	11.000000000	      -1.710	    -139.553	      11.596	      94.238	     -20.934	      15.203	      -8.060	    -135.969
	11.500000000	      -1.732	    -141.509	      11.251	      92.704	     -20.918	      14.178	      -8.019	    -137.198
	12.000000000	      -1.748	    -143.313	      10.924	      91.255	     -20.901	      13.271	      -7.971	    -138.266
	12.500000000	      -1.757	    -144.994	      10.604	      89.875	     -20.888	      12.362	      -7.921	    -139.381
	13.000000000	      -1.769	    -146.584	      10.294	      88.501	     -20.880	      11.515	      -7.876	    -140.362
	13.500000000	      -1.781	    -148.080	       9.994	      87.212	     -20.884	      10.665	      -7.827	    -141.169
	14.000000000	      -1.792	    -149.517	       9.703	      85.955	     -20.890	       9.944	      -7.781	    -141.932
	14.500000000	      -1.796	    -150.815	       9.421	      84.724	     -20.898	       9.267	      -7.736	    -142.719
	15.000000000	      -1.802	    -151.978	       9.144	      83.553	     -20.902	       8.643	      -7.700	    -143.478
	15.500000000	      -1.808	    -153.140	       8.876	      82.381	     -20.910	       8.057	      -7.656	    -144.081
	16.000000000	      -1.813	    -154.294	       8.616	      81.240	     -20.911	       7.383	      -7.605	    -144.651
	16.500000000	      -1.819	    -155.396	       8.362	      80.125	     -20.930	       6.730	      -7.558	    -145.159
	17.000000000	      -1.820	    -156.433	       8.116	      79.038	     -20.955	       6.126	      -7.519	    -145.698
	17.500000000	      -1.829	    -157.365	       7.871	      77.975	     -20.967	       5.618	      -7.469	    -146.256
	18.000000000	      -1.838	    -158.285	       7.638	      76.940	     -20.997	       5.051	      -7.421	    -146.785
	18.500000000	      -1.840	    -159.178	       7.409	      75.929	     -21.009	       4.520	      -7.368	    -147.190
	19.000000000	      -1.839	    -160.040	       7.183	      74.922	     -21.048	       3.984	      -7.320	    -147.553
	19.500000000	      -1.837	    -160.857	       6.965	      73.943	     -21.092	       3.548	      -7.280	    -148.018
	20.000000000	      -1.843	    -161.636	       6.753	      72.988	     -21.142	       3.267	      -7.242	    -148.397
	20.500000000	      -1.846	    -162.367	       6.549	      72.031	     -21.158	       3.055	      -7.191	    -148.712
	21.000000000	      -1.846	    -163.079	       6.345	      71.089	     -21.168	       2.672	      -7.136	    -149.061
	21.500000000	      -1.838	    -163.837	       6.144	      70.150	     -21.186	       2.280	      -7.085	    -149.373
	22.000000000	      -1.830	    -164.471	       5.949	      69.223	     -21.210	       1.788	      -7.032	    -149.692
	22.500000000	      -1.829	    -165.147	       5.753	      68.278	     -21.227	       1.300	      -6.987	    -150.038
	23.000000000	      -1.834	    -165.772	       5.560	      67.385	     -21.265	       0.854	      -6.936	    -150.442
	23.500000000	      -1.834	    -166.478	       5.370	      66.508	     -21.341	       0.361	      -6.890	    -150.883
	24.000000000	      -1.844	    -167.093	       5.187	      65.687	     -21.430	       0.237	      -6.863	    -151.117
	24.500000000	      -1.836	    -167.578	       5.016	      64.845	     -21.450	       0.371	      -6.819	    -151.212
	25.000000000	      -1.827	    -168.023	       4.842	      63.952	     -21.422	       0.019	      -6.761	    -151.390
	25.500000000	      -1.825	    -168.638	       4.667	      63.109	     -21.465	      -0.180	      -6.705	    -151.672
	26.000000000	      -1.829	    -169.210	       4.495	      62.285	     -21.507	      -0.696	      -6.639	    -151.999
	26.500000000	      -1.822	    -169.708	       4.329	      61.443	     -21.534	      -1.165	      -6.582	    -152.268
	27.000000000	      -1.815	    -170.114	       4.164	      60.639	     -21.599	      -1.561	      -6.538	    -152.547
	27.500000000	      -1.817	    -170.504	       4.006	      59.920	     -21.715	      -1.442	      -6.514	    -152.686
	28.000000000	      -1.816	    -171.055	       3.855	      59.122	     -21.770	      -1.317	      -6.459	    -152.921
	28.500000000	      -1.798	    -171.528	       3.712	      58.244	     -21.714	      -1.228	      -6.385	    -153.110
	29.000000000	      -1.791	    -171.980	       3.552	      57.382	     -21.728	      -1.700	      -6.334	    -153.422
	29.500000000	      -1.786	    -172.407	       3.397	      56.576	     -21.769	      -2.049	      -6.279	    -153.713
	30.000000000	      -1.785	    -172.846	       3.244	      55.847	     -21.827	      -2.404	      -6.241	    -153.922
	30.500000000	      -1.788	    -173.293	       3.098	      55.062	     -21.840	      -2.730	      -6.192	    -154.168
	31.000000000	      -1.781	    -173.746	       2.951	      54.329	     -21.922	      -3.035	      -6.156	    -154.424
	31.500000000	      -1.767	    -174.142	       2.822	      53.574	     -22.016	      -2.840	      -6.110	    -154.614
	32.000000000	      -1.766	    -174.506	       2.682	      52.795	     -22.012	      -2.746	      -6.055	    -154.805
	32.500000000	      -1.774	    -174.896	       2.541	      51.962	     -21.999	      -2.905	      -5.994	    -154.959
	33.000000000	      -1.773	    -175.350	       2.400	      51.232	     -22.025	      -3.178	      -5.942	    -155.225
	33.500000000	      -1.763	    -175.750	       2.259	      50.503	     -22.078	      -3.695	      -5.901	    -155.523
	34.000000000	      -1.753	    -176.097	       2.120	      49.774	     -22.127	      -3.864	      -5.846	    -155.854
	34.500000000	      -1.755	    -176.481	       1.978	      48.989	     -22.132	      -4.081	      -5.788	    -156.022
	35.000000000	      -1.756	    -176.822	       1.844	      48.281	     -22.249	      -4.363	      -5.738	    -156.332
	35.500000000	      -1.757	    -177.213	       1.727	      47.633	     -22.278	      -4.004	      -5.704	    -156.507
	36.000000000	      -1.747	    -177.513	       1.603	      46.854	     -22.273	      -4.309	      -5.651	    -156.686
	36.500000000	      -1.732	    -177.740	       1.480	      46.118	     -22.274	      -4.665	      -5.594	    -156.943
	37.000000000	      -1.726	    -178.004	       1.354	      45.411	     -22.296	      -4.560	      -5.541	    -157.190
	37.500000000	      -1.723	    -178.393	       1.228	      44.674	     -22.399	      -4.689	      -5.502	    -157.422
	38.000000000	      -1.720	    -178.743	       1.099	      44.006	     -22.404	      -5.274	      -5.450	    -157.628
	38.500000000	      -1.709	    -179.130	       0.969	      43.324	     -22.499	      -5.652	      -5.399	    -157.964
	39.000000000	      -1.695	    -179.372	       0.854	      42.658	     -22.599	      -5.285	      -5.353	    -158.246
	39.500000000	      -1.690	    -179.614	       0.740	      42.003	     -22.605	      -5.386	      -5.303	    -158.500
	40.000000000	      -1.681	     179.953	       0.634	      41.235	     -22.621	      -5.224	      -5.245	    -158.731
	40.500000000	      -1.681	     179.487	       0.512	      40.500	     -22.606	      -5.669	      -5.195	    -158.988
	41.000000000	      -1.666	     179.153	       0.388	      39.784	     -22.666	      -5.832	      -5.161	    -159.349
	41.500000000	      -1.658	     178.946	       0.279	      39.123	     -22.790	      -5.661	      -5.128	    -159.464
	42.000000000	      -1.669	     178.637	       0.161	      38.483	     -22.816	      -6.363	      -5.071	    -159.643
	42.500000000	      -1.681	     178.302	       0.045	      37.871	     -22.889	      -6.205	      -5.022	    -159.614
	43.000000000	      -1.683	     178.043	      -0.046	      37.276	     -22.928	      -6.304	      -4.968	    -159.895
	43.500000000	      -1.663	     177.819	      -0.159	      36.512	     -22.890	      -5.684	      -4.929	    -160.286
	44.000000000	      -1.666	     177.528	      -0.276	      35.823	     -22.944	      -5.935	      -4.878	    -160.624
	44.500000000	      -1.670	     177.100	      -0.393	      35.124	     -22.987	      -6.160	      -4.816	    -160.835
	45.000000000	      -1.684	     176.802	      -0.502	      34.465	     -22.989	      -6.713	      -4.769	    -161.141
	45.500000000	      -1.639	     176.364	      -0.775	      33.959	     -23.211	      -7.008	      -4.637	    -161.958
	46.000000000	      -1.619	     176.136	      -0.884	      33.343	     -23.284	      -7.289	      -4.605	    -162.256
	46.500000000	      -1.606	     175.779	      -0.990	      32.809	     -23.450	      -6.745	      -4.539	    -162.271
	47.000000000	      -1.604	     175.372	      -1.080	      32.107	     -23.387	      -6.548	      -4.493	    -162.525
	47.500000000	      -1.603	     175.131	      -1.189	      31.447	     -23.454	      -6.023	      -4.468	    -162.754
	48.000000000	      -1.582	     174.806	      -1.302	      30.804	     -23.443	      -6.283	      -4.424	    -162.951
	48.500000000	      -1.581	     174.462	      -1.404	      30.157	     -23.486	      -6.785	      -4.371	    -163.092
	49.000000000	      -1.590	     174.258	      -1.518	      29.583	     -23.555	      -7.188	      -4.312	    -163.312
	49.500000000	      -1.604	     174.049	      -1.606	      28.955	     -23.647	      -7.455	      -4.254	    -163.748
	50.000000000	      -1.583	     173.748	      -1.724	      28.447	     -23.608	      -7.790	      -4.202	    -163.952
	50.500000000	      -1.572	     173.479	      -1.812	      27.818	     -23.774	      -6.848	      -4.209	    -164.512
	51.000000000	      -1.562	     173.159	      -1.922	      27.307	     -23.738	      -6.201	      -4.191	    -164.771
	51.500000000	      -1.566	     172.958	      -2.011	      26.613	     -23.702	      -6.314	      -4.132	    -164.931
	52.000000000	      -1.541	     172.762	      -2.112	      25.998	     -23.758	      -7.153	      -4.099	    -165.180
	52.500000000	      -1.540	     172.336	      -2.216	      25.402	     -23.836	      -7.153	      -4.072	    -165.305
	53.000000000	      -1.539	     172.003	      -2.313	      24.847	     -23.841	      -6.807	      -4.038	    -165.480
	53.500000000	      -1.531	     171.837	      -2.407	      24.327	     -23.764	      -7.283	      -3.990	    -165.768
	54.000000000	      -1.523	     171.559	      -2.502	      23.859	     -23.825	      -7.679	      -3.929	    -165.827
	54.500000000	      -1.521	     171.172	      -2.577	      23.234	     -23.983	      -8.056	      -3.896	    -166.025
	55.000000000	      -1.531	     170.717	      -2.663	      22.584	     -23.890	      -7.043	      -3.864	    -166.239
	55.500000000	      -1.532	     170.379	      -2.740	      22.048	     -23.919	      -7.632	      -3.812	    -166.551
	56.000000000	      -1.516	     170.097	      -2.829	      21.420	     -24.039	      -8.732	      -3.789	    -166.988
	56.500000000	      -1.531	     169.907	      -2.924	      20.629	     -23.950	      -8.571	      -3.767	    -167.371
	57.000000000	      -1.526	     169.639	      -3.033	      20.148	     -23.930	      -8.917	      -3.760	    -167.415
	57.500000000	      -1.521	     169.521	      -3.140	      19.562	     -24.187	      -8.571	      -3.709	    -167.800
	58.000000000	      -1.494	     169.439	      -3.210	      19.019	     -24.298	      -8.509	      -3.662	    -168.058
	58.500000000	      -1.473	     169.061	      -3.295	      18.240	     -24.208	      -9.602	      -3.633	    -168.363
	59.000000000	      -1.472	     168.687	      -3.367	      17.712	     -24.091	      -9.436	      -3.604	    -168.549
	59.500000000	      -1.481	     168.497	      -3.463	      17.076	     -24.177	      -9.003	      -3.551	    -168.815
	60.000000000	      -1.475	     168.342	      -3.549	      16.427	     -24.269	      -9.806	      -3.588	    -169.016
	60.500000000	      -1.442	     168.141	      -3.634	      15.696	     -24.480	      -8.354	      -3.557	    -169.097
	61.000000000	      -1.414	     167.756	      -3.733	      15.343	     -24.350	      -9.567	      -3.525	    -169.328
	61.500000000	      -1.409	     167.474	      -3.841	      14.751	     -24.502	      -8.834	      -3.482	    -169.567
	62.000000000	      -1.395	     167.204	      -3.899	      14.176	     -24.413	      -9.066	      -3.466	    -169.662
	62.500000000	      -1.396	     166.806	      -3.976	      13.597	     -24.823	     -10.582	      -3.470	    -169.735
	63.000000000	      -1.389	     166.422	      -4.063	      12.956	     -24.615	      -7.885	      -3.427	    -169.786
	63.500000000	      -1.377	     166.247	      -4.135	      12.307	     -24.739	      -8.451	      -3.351	    -170.037
	64.000000000	      -1.365	     166.255	      -4.203	      11.630	     -24.318	      -8.786	      -3.300	    -169.931
	64.500000000	      -1.346	     166.170	      -4.289	      10.779	     -24.694	     -10.506	      -3.272	    -169.802
	65.000000000	      -1.348	     165.624	      -4.385	       9.914	     -24.925	      -8.800	      -3.192	    -170.254
	65.500000000	      -1.354	     165.199	      -4.489	       9.436	     -24.655	     -10.332	      -3.176	    -170.950
	66.000000000	      -1.341	     164.907	      -4.602	       8.644	     -24.683	      -8.742	      -3.161	    -171.331
	66.500000000	      -1.366	     164.662	      -4.725	       7.782	     -24.924	      -8.960	      -3.144	    -171.204
	67.000000000	      -1.411	     164.300	      -4.835	       7.327	     -25.095	     -10.205	      -3.119	    -171.257
	67.500000000	      -1.407	     163.657	      -4.972	       6.390	     -24.701	     -10.039	      -3.105	    -171.672
	68.000000000	      -1.444	     163.455	      -5.075	       5.721	     -24.664	     -10.569	      -3.137	    -171.876
	68.500000000	      -1.477	     163.195	      -5.158	       5.263	     -24.688	     -10.928	      -3.087	    -171.913
	69.000000000	      -1.504	     162.964	      -5.285	       4.686	     -24.711	     -11.601	      -3.022	    -172.204
	69.500000000	      -1.500	     162.712	      -5.400	       4.251	     -24.830	     -11.931	      -3.014	    -172.363
	70.000000000	      -1.484	     162.520	      -5.486	       3.730	     -24.913	     -11.725	      -2.991	    -172.442
	70.500000000	      -1.469	     162.325	      -5.586	       3.256	     -24.878	     -11.592	      -2.949	    -172.555
	71.000000000	      -1.465	     162.129	      -5.678	       2.853	     -24.874	     -11.803	      -2.910	    -172.750
	71.500000000	      -1.441	     161.921	      -5.779	       2.319	     -24.848	     -12.286	      -2.854	    -172.959
	72.000000000	      -1.427	     161.591	      -5.888	       1.763	     -24.843	     -13.160	      -2.859	    -173.165
	72.500000000	      -1.442	     161.206	      -5.991	       1.147	     -24.911	     -14.194	      -2.833	    -173.474
	73.000000000	      -1.468	     160.964	      -6.086	       0.565	     -25.030	     -15.019	      -2.794	    -173.636
	73.500000000	      -1.491	     160.870	      -6.199	       0.068	     -25.247	     -15.476	      -2.726	    -173.880
	74.000000000	      -1.500	     160.618	      -6.304	      -0.356	     -25.414	     -15.391	      -2.726	    -174.418
	74.500000000	      -1.527	     160.391	      -6.390	      -0.763	     -25.497	     -15.005	      -2.745	    -174.615
	75.000000000	      -1.559	     160.303	      -6.485	      -1.305	     -25.609	     -14.994	      -2.738	    -174.657
	75.500000000	      -1.585	     160.244	      -6.607	      -1.842	     -25.841	     -14.976	      -2.735	    -174.805
	76.000000000	      -1.598	     160.315	      -6.721	      -2.187	     -26.193	     -14.047	      -2.745	    -174.872
	76.500000000	      -1.592	     160.470	      -6.843	      -2.341	     -26.462	     -10.789	      -2.747	    -174.705
	77.000000000	      -1.562	     160.458	      -6.914	      -2.450	     -26.297	      -6.499	      -2.686	    -174.509
	77.500000000	      -1.493	     160.356	      -6.949	      -2.480	     -25.774	      -4.015	      -2.595	    -174.541
	78.000000000	      -1.400	     159.965	      -6.952	      -2.786	     -25.231	      -3.540	      -2.547	    -174.690
	78.500000000	      -1.357	     159.436	      -6.984	      -3.563	     -24.814	      -4.637	      -2.508	    -174.900
	79.000000000	      -1.399	     158.821	      -7.053	      -4.458	     -24.522	      -6.574	      -2.450	    -175.169
	79.500000000	      -1.419	     158.319	      -7.115	      -5.196	     -24.326	      -8.271	      -2.386	    -175.474
