!File name = EG0520U_1010_6x60_2SDBCB2EV_1915934D06_RC7325_3.5Vd_45mA.s2p
!Base file name = EG0520U_1010_6x60_2SDBCB2EV_1915934D06_RC7325
!Date = 8/23/2019
!Time = 1:10 PM
!Test duration(min) = 0.15
!Test = S-Parameters
!MPTS version = 8.91.5
!State File = C:\Data\PNA\20190821205423\S-Parameters_2019-08-23.sta
!Cal File = 
!ComputerName = CMPE-LAB-6
!Comments = 
!Attenuation = 0
!Z0 = 50
!Input Power(dBm) = -13.00
!Device ID = EG0520U_1010_6x60_2SDBCB2EV
!Row = 73
!Column = 25
!Technology = QPHT09
!Lot/Wafer = 1915934D06
!Gate Size = 360
!Mask = EG0520
!Cal Standards = GaAs BCB
!Cal Kit = EG2306
!Job Number = 20190821205423
!Device Type = FET
!set_Vg(v) = -1.500
!set_Vd(v) = 3.500
!set_Vd(mA) = 45.000
!file_name = EG0520U_1010_6x60_2SDBCB2EV_1915934D06_RC7325_3.5Vd_45mA.s2p
!Vd(V) = 3.500
!Vd(mA) = 45.212
!Vg(V) = -0.510
!Vg(mA) = -0.002
# GHz   S   DB   R   50
!%	Freq(GHz)	     s11(dB)	    s11(deg)	     s21(dB)	    s21(deg)	     s12(dB)	    s12(deg)	     s22(dB)	    s22(deg)
	0.500000000	      -0.049	     -14.681	      22.145	     171.033	     -39.285	      81.301	      -9.088	     -15.561
	1.000000000	      -0.133	     -29.014	      21.706	     162.581	     -33.514	      73.689	      -9.102	     -29.710
	1.500000000	      -0.173	     -42.521	      21.347	     155.188	     -30.358	      66.333	      -9.020	     -43.225
	2.000000000	      -0.314	     -54.756	      21.085	     147.893	     -28.352	      59.576	      -8.981	     -56.312
	2.500000000	      -0.410	     -66.108	      20.637	     141.478	     -26.972	      53.784	      -9.052	     -66.873
	3.000000000	      -0.798	     -73.757	      19.954	     136.333	     -26.160	      49.459	      -9.423	     -71.164
	3.500000000	      -0.915	     -82.526	      19.392	     131.280	     -25.404	      45.051	      -9.445	     -79.149
	4.000000000	      -1.011	     -90.270	      18.827	     126.813	     -24.833	      41.148	      -9.458	     -86.136
	4.500000000	      -1.113	     -97.134	      18.266	     122.689	     -24.403	      37.670	      -9.464	     -92.469
	5.000000000	      -1.185	    -103.223	      17.709	     119.076	     -24.064	      34.649	      -9.479	     -97.794
	5.500000000	      -1.254	    -108.709	      17.176	     115.723	     -23.797	      31.990	      -9.497	    -102.523
	6.000000000	      -1.312	    -113.587	      16.650	     112.713	     -23.580	      29.591	      -9.484	    -106.544
	6.500000000	      -1.358	    -117.926	      16.146	     109.981	     -23.407	      27.478	      -9.470	    -110.109
	7.000000000	      -1.399	    -121.843	      15.661	     107.432	     -23.267	      25.546	      -9.449	    -113.263
	7.500000000	      -1.430	    -125.369	      15.189	     105.089	     -23.152	      23.857	      -9.422	    -116.037
	8.000000000	      -1.440	    -128.348	      14.757	     103.035	     -23.031	      22.407	      -9.427	    -117.838
	8.500000000	      -1.469	    -131.324	      14.320	     100.992	     -22.953	      20.930	      -9.403	    -120.068
	9.000000000	      -1.498	    -133.997	      13.895	      99.087	     -22.891	      19.522	      -9.370	    -122.020
	9.500000000	      -1.515	    -136.481	      13.497	      97.240	     -22.839	      18.223	      -9.332	    -123.765
	10.000000000	      -1.529	    -138.782	      13.111	      95.503	     -22.807	      17.010	      -9.297	    -125.448
	10.500000000	      -1.550	    -140.929	      12.738	      93.824	     -22.792	      15.959	      -9.262	    -126.894
	11.000000000	      -1.560	    -142.880	      12.379	      92.263	     -22.768	      14.958	      -9.224	    -128.144
	11.500000000	      -1.578	    -144.738	      12.029	      90.736	     -22.762	      14.040	      -9.180	    -129.323
	12.000000000	      -1.591	    -146.446	      11.694	      89.297	     -22.759	      13.222	      -9.127	    -130.346
	12.500000000	      -1.598	    -148.038	      11.368	      87.901	     -22.751	      12.383	      -9.070	    -131.425
	13.000000000	      -1.606	    -149.533	      11.052	      86.533	     -22.751	      11.639	      -9.018	    -132.369
	13.500000000	      -1.616	    -150.963	      10.746	      85.233	     -22.763	      10.857	      -8.960	    -133.127
	14.000000000	      -1.625	    -152.309	      10.450	      83.969	     -22.779	      10.218	      -8.899	    -133.845
	14.500000000	      -1.629	    -153.540	      10.162	      82.728	     -22.800	       9.596	      -8.846	    -134.615
	15.000000000	      -1.633	    -154.635	       9.880	      81.547	     -22.812	       9.103	      -8.797	    -135.296
	15.500000000	      -1.637	    -155.733	       9.609	      80.368	     -22.826	       8.603	      -8.736	    -135.859
	16.000000000	      -1.641	    -156.822	       9.345	      79.219	     -22.831	       8.001	      -8.666	    -136.393
	16.500000000	      -1.645	    -157.878	       9.086	      78.088	     -22.869	       7.453	      -8.605	    -136.862
	17.000000000	      -1.644	    -158.861	       8.837	      76.989	     -22.904	       6.961	      -8.547	    -137.360
	17.500000000	      -1.652	    -159.746	       8.588	      75.910	     -22.918	       6.560	      -8.480	    -137.904
	18.000000000	      -1.660	    -160.616	       8.351	      74.860	     -22.964	       6.045	      -8.414	    -138.417
	18.500000000	      -1.662	    -161.465	       8.118	      73.834	     -22.981	       5.598	      -8.340	    -138.805
	19.000000000	      -1.660	    -162.290	       7.889	      72.810	     -23.030	       5.125	      -8.274	    -139.193
	19.500000000	      -1.657	    -163.065	       7.668	      71.816	     -23.090	       4.787	      -8.217	    -139.580
	20.000000000	      -1.663	    -163.801	       7.451	      70.836	     -23.158	       4.625	      -8.163	    -139.928
	20.500000000	      -1.665	    -164.486	       7.244	      69.867	     -23.179	       4.547	      -8.089	    -140.225
	21.000000000	      -1.665	    -165.163	       7.036	      68.904	     -23.188	       4.318	      -8.012	    -140.562
	21.500000000	      -1.656	    -165.888	       6.832	      67.940	     -23.213	       4.006	      -7.940	    -140.844
	22.000000000	      -1.647	    -166.490	       6.633	      66.992	     -23.239	       3.549	      -7.866	    -141.156
	22.500000000	      -1.647	    -167.136	       6.434	      66.031	     -23.267	       3.076	      -7.804	    -141.501
	23.000000000	      -1.651	    -167.725	       6.237	      65.114	     -23.316	       2.791	      -7.734	    -141.939
	23.500000000	      -1.650	    -168.409	       6.045	      64.214	     -23.413	       2.305	      -7.670	    -142.391
	24.000000000	      -1.659	    -168.997	       5.857	      63.372	     -23.528	       2.379	      -7.623	    -142.596
	24.500000000	      -1.654	    -169.418	       5.682	      62.507	     -23.542	       2.536	      -7.555	    -142.651
	25.000000000	      -1.641	    -169.865	       5.507	      61.590	     -23.527	       2.377	      -7.477	    -142.830
	25.500000000	      -1.641	    -170.424	       5.327	      60.727	     -23.573	       2.200	      -7.399	    -143.149
	26.000000000	      -1.643	    -171.008	       5.151	      59.878	     -23.608	       1.789	      -7.310	    -143.522
	26.500000000	      -1.635	    -171.496	       4.982	      59.008	     -23.657	       1.563	      -7.232	    -143.828
	27.000000000	      -1.630	    -171.893	       4.814	      58.180	     -23.730	       1.098	      -7.171	    -144.127
	27.500000000	      -1.632	    -172.264	       4.651	      57.437	     -23.892	       1.492	      -7.129	    -144.172
	28.000000000	      -1.630	    -172.774	       4.496	      56.610	     -23.950	       1.779	      -7.056	    -144.513
	28.500000000	      -1.611	    -173.231	       4.350	      55.700	     -23.912	       2.143	      -6.958	    -144.773
	29.000000000	      -1.605	    -173.698	       4.187	      54.815	     -23.904	       1.805	      -6.885	    -145.124
	29.500000000	      -1.601	    -174.069	       4.027	      53.992	     -23.929	       1.370	      -6.816	    -145.412
	30.000000000	      -1.601	    -174.523	       3.872	      53.236	     -24.016	       1.222	      -6.760	    -145.645
	30.500000000	      -1.603	    -174.949	       3.722	      52.427	     -24.037	       0.834	      -6.700	    -145.954
	31.000000000	      -1.594	    -175.398	       3.571	      51.662	     -24.136	       0.917	      -6.641	    -146.217
	31.500000000	      -1.581	    -175.756	       3.436	      50.920	     -24.276	       1.666	      -6.578	    -146.469
	32.000000000	      -1.578	    -176.121	       3.294	      50.078	     -24.255	       1.670	      -6.507	    -146.662
	32.500000000	      -1.584	    -176.540	       3.151	      49.216	     -24.235	       1.442	      -6.429	    -146.866
	33.000000000	      -1.587	    -176.951	       3.006	      48.471	     -24.243	       1.354	      -6.366	    -147.177
	33.500000000	      -1.577	    -177.322	       2.859	      47.696	     -24.299	       1.097	      -6.309	    -147.525
	34.000000000	      -1.566	    -177.667	       2.718	      46.948	     -24.384	       1.031	      -6.232	    -147.898
	34.500000000	      -1.569	    -178.067	       2.574	      46.136	     -24.412	       0.796	      -6.159	    -148.136
	35.000000000	      -1.572	    -178.394	       2.431	      45.426	     -24.505	       0.703	      -6.096	    -148.499
	35.500000000	      -1.569	    -178.742	       2.310	      44.724	     -24.563	       1.445	      -6.052	    -148.687
	36.000000000	      -1.563	    -179.054	       2.186	      43.943	     -24.514	       1.280	      -5.976	    -148.897
	36.500000000	      -1.546	    -179.274	       2.057	      43.151	     -24.561	       1.214	      -5.906	    -149.223
	37.000000000	      -1.539	    -179.539	       1.927	      42.407	     -24.634	       0.984	      -5.840	    -149.494
	37.500000000	      -1.541	    -179.917	       1.798	      41.659	     -24.684	       1.068	      -5.793	    -149.809
	38.000000000	      -1.528	     179.738	       1.668	      40.922	     -24.706	       0.770	      -5.729	    -150.077
	38.500000000	      -1.524	     179.365	       1.529	      40.230	     -24.825	       0.517	      -5.668	    -150.469
	39.000000000	      -1.515	     179.145	       1.412	      39.548	     -24.926	       1.034	      -5.606	    -150.789
	39.500000000	      -1.512	     178.924	       1.294	      38.875	     -24.981	       1.108	      -5.537	    -151.083
	40.000000000	      -1.501	     178.463	       1.183	      38.072	     -24.995	       1.264	      -5.470	    -151.381
	40.500000000	      -1.496	     178.010	       1.054	      37.296	     -24.956	       1.332	      -5.412	    -151.729
	41.000000000	      -1.482	     177.685	       0.932	      36.557	     -25.006	       1.197	      -5.364	    -152.079
	41.500000000	      -1.478	     177.480	       0.812	      35.855	     -25.160	       1.249	      -5.313	    -152.261
	42.000000000	      -1.481	     177.182	       0.690	      35.181	     -25.176	       0.932	      -5.248	    -152.446
	42.500000000	      -1.501	     176.825	       0.573	      34.563	     -25.279	       1.073	      -5.192	    -152.529
	43.000000000	      -1.500	     176.550	       0.467	      33.929	     -25.314	       2.086	      -5.130	    -152.838
	43.500000000	      -1.476	     176.375	       0.358	      33.135	     -25.330	       2.615	      -5.075	    -153.247
	44.000000000	      -1.486	     176.075	       0.237	      32.409	     -25.220	       2.046	      -5.007	    -153.635
	44.500000000	      -1.498	     175.684	       0.114	      31.675	     -25.427	       2.034	      -4.935	    -153.929
	45.000000000	      -1.506	     175.346	       0.002	      31.015	     -25.323	       1.750	      -4.887	    -154.283
	45.500000000	      -1.459	     174.956	      -0.278	      30.422	     -25.570	       1.371	      -4.757	    -155.337
	46.000000000	      -1.443	     174.695	      -0.394	      29.810	     -25.682	       1.450	      -4.719	    -155.721
	46.500000000	      -1.429	     174.354	      -0.496	      29.221	     -25.861	       2.151	      -4.639	    -155.884
	47.000000000	      -1.428	     173.960	      -0.599	      28.470	     -25.826	       2.265	      -4.577	    -156.103
	47.500000000	      -1.425	     173.712	      -0.714	      27.786	     -25.882	       3.272	      -4.537	    -156.322
	48.000000000	      -1.408	     173.421	      -0.836	      27.116	     -25.844	       3.171	      -4.489	    -156.559
	48.500000000	      -1.403	     173.089	      -0.938	      26.501	     -25.798	       3.650	      -4.433	    -156.924
	49.000000000	      -1.418	     172.866	      -1.056	      25.820	     -25.835	       2.051	      -4.354	    -157.153
	49.500000000	      -1.429	     172.644	      -1.152	      25.237	     -25.986	       2.720	      -4.296	    -157.490
	50.000000000	      -1.416	     172.335	      -1.261	      24.541	     -26.003	       3.127	      -4.256	    -157.880
	50.500000000	      -1.408	     172.073	      -1.359	      23.983	     -26.188	       3.344	      -4.249	    -158.287
	51.000000000	      -1.394	     171.784	      -1.473	      23.441	     -26.243	       4.185	      -4.214	    -158.681
	51.500000000	      -1.389	     171.589	      -1.581	      22.730	     -26.102	       3.593	      -4.159	    -159.041
	52.000000000	      -1.369	     171.342	      -1.683	      22.085	     -26.027	       4.488	      -4.112	    -159.249
	52.500000000	      -1.366	     170.945	      -1.792	      21.482	     -25.965	       4.948	      -4.079	    -159.367
	53.000000000	      -1.365	     170.602	      -1.900	      20.866	     -26.160	       3.968	      -4.046	    -159.564
	53.500000000	      -1.364	     170.461	      -1.992	      20.365	     -26.184	       4.764	      -3.981	    -159.872
	54.000000000	      -1.360	     170.167	      -2.093	      19.840	     -26.107	       4.129	      -3.917	    -160.171
	54.500000000	      -1.355	     169.768	      -2.179	      19.238	     -26.271	       3.931	      -3.878	    -160.370
	55.000000000	      -1.359	     169.357	      -2.270	      18.525	     -26.170	       5.180	      -3.825	    -160.532
	55.500000000	      -1.352	     169.033	      -2.357	      17.880	     -26.265	       4.740	      -3.783	    -160.906
	56.000000000	      -1.336	     168.761	      -2.435	      17.293	     -26.078	       5.168	      -3.746	    -161.403
	56.500000000	      -1.353	     168.599	      -2.544	      16.586	     -25.946	       5.480	      -3.710	    -161.868
	57.000000000	      -1.355	     168.314	      -2.663	      16.070	     -26.381	       4.042	      -3.706	    -161.893
	57.500000000	      -1.340	     168.079	      -2.768	      15.341	     -26.513	       3.782	      -3.643	    -162.470
	58.000000000	      -1.323	     168.007	      -2.846	      14.700	     -26.410	       4.632	      -3.612	    -162.715
	58.500000000	      -1.305	     167.728	      -2.940	      14.122	     -26.608	       3.572	      -3.564	    -162.983
	59.000000000	      -1.296	     167.311	      -3.024	      13.500	     -26.437	       4.489	      -3.528	    -163.247
	59.500000000	      -1.311	     167.170	      -3.091	      12.690	     -26.478	       2.988	      -3.469	    -163.444
	60.000000000	      -1.307	     166.970	      -3.200	      12.094	     -26.597	       4.456	      -3.473	    -163.880
	60.500000000	      -1.279	     166.616	      -3.304	      11.542	     -26.581	       4.304	      -3.461	    -164.046
	61.000000000	      -1.245	     166.386	      -3.416	      11.021	     -26.835	       5.316	      -3.418	    -164.188
	61.500000000	      -1.240	     166.126	      -3.503	      10.318	     -26.911	       6.108	      -3.378	    -164.371
	62.000000000	      -1.232	     165.735	      -3.580	       9.837	     -26.889	       4.456	      -3.376	    -164.434
	62.500000000	      -1.237	     165.432	      -3.673	       9.131	     -26.893	       6.844	      -3.348	    -164.371
	63.000000000	      -1.230	     165.012	      -3.748	       8.602	     -26.888	       5.569	      -3.284	    -164.656
	63.500000000	      -1.215	     164.791	      -3.828	       7.690	     -26.656	       7.455	      -3.218	    -165.100
	64.000000000	      -1.218	     164.960	      -3.888	       6.950	     -26.474	       7.602	      -3.149	    -165.032
	64.500000000	      -1.188	     164.720	      -3.947	       6.086	     -26.297	       7.167	      -3.095	    -164.967
	65.000000000	      -1.209	     164.251	      -4.079	       5.262	     -26.512	       5.687	      -3.045	    -165.519
	65.500000000	      -1.202	     163.773	      -4.198	       4.523	     -26.892	       4.311	      -3.003	    -166.400
	66.000000000	      -1.185	     163.446	      -4.317	       3.763	     -26.839	       6.510	      -3.002	    -166.690
	66.500000000	      -1.219	     163.254	      -4.433	       2.939	     -26.305	       5.748	      -2.959	    -166.758
	67.000000000	      -1.246	     163.014	      -4.565	       2.287	     -26.545	       4.386	      -2.925	    -166.626
	67.500000000	      -1.250	     162.228	      -4.705	       1.508	     -26.434	       5.436	      -2.931	    -167.291
	68.000000000	      -1.293	     161.982	      -4.806	       0.836	     -26.471	       5.025	      -2.961	    -167.615
	68.500000000	      -1.329	     161.694	      -4.910	       0.229	     -26.460	       4.631	      -2.916	    -167.796
	69.000000000	      -1.358	     161.465	      -5.040	      -0.316	     -26.457	       3.829	      -2.852	    -168.098
	69.500000000	      -1.352	     161.276	      -5.164	      -0.816	     -26.576	       3.494	      -2.839	    -168.269
	70.000000000	      -1.338	     161.038	      -5.269	      -1.337	     -26.642	       3.947	      -2.809	    -168.389
	70.500000000	      -1.323	     160.851	      -5.376	      -1.848	     -26.563	       4.063	      -2.772	    -168.515
	71.000000000	      -1.318	     160.636	      -5.475	      -2.232	     -26.547	       3.525	      -2.734	    -168.817
	71.500000000	      -1.280	     160.565	      -5.596	      -2.910	     -26.526	       2.681	      -2.654	    -168.973
	72.000000000	      -1.277	     160.185	      -5.712	      -3.411	     -26.566	       2.027	      -2.671	    -169.277
	72.500000000	      -1.296	     159.753	      -5.821	      -4.071	     -26.601	       0.656	      -2.646	    -169.572
	73.000000000	      -1.329	     159.534	      -5.939	      -4.645	     -26.866	      -0.002	      -2.604	    -169.806
	73.500000000	      -1.355	     159.417	      -6.069	      -5.120	     -27.139	       0.070	      -2.530	    -170.135
	74.000000000	      -1.367	     159.155	      -6.187	      -5.510	     -27.284	       0.785	      -2.537	    -170.735
	74.500000000	      -1.397	     158.903	      -6.282	      -5.863	     -27.402	       1.695	      -2.557	    -170.986
	75.000000000	      -1.433	     158.797	      -6.393	      -6.370	     -27.500	       1.995	      -2.543	    -171.094
	75.500000000	      -1.463	     158.805	      -6.512	      -6.871	     -27.756	       2.567	      -2.540	    -171.209
	76.000000000	      -1.480	     158.894	      -6.638	      -7.210	     -28.060	       4.867	      -2.542	    -171.280
	76.500000000	      -1.472	     159.031	      -6.757	      -7.325	     -28.124	       9.413	      -2.529	    -171.179
	77.000000000	      -1.442	     159.012	      -6.827	      -7.447	     -27.642	      13.721	      -2.474	    -171.092
	77.500000000	      -1.362	     158.982	      -6.861	      -7.445	     -26.891	      15.251	      -2.381	    -171.223
	78.000000000	      -1.268	     158.671	      -6.862	      -7.748	     -26.246	      14.304	      -2.333	    -171.382
	78.500000000	      -1.235	     158.072	      -6.885	      -8.594	     -25.807	      12.178	      -2.293	    -171.717
	79.000000000	      -1.269	     157.423	      -6.955	      -9.533	     -25.535	       9.513	      -2.233	    -172.023
	79.500000000	      -1.293	     156.912	      -7.021	     -10.375	     -25.356	       7.349	      -2.185	    -172.309
