!File name = EG0520U_1010_6x60_2SDBCB2EV_1915934D06_RC7325_4Vd_27mA.s2p
!Base file name = EG0520U_1010_6x60_2SDBCB2EV_1915934D06_RC7325
!Date = 8/23/2019
!Time = 1:11 PM
!Test duration(min) = 0.15
!Test = S-Parameters
!MPTS version = 8.91.5
!State File = C:\Data\PNA\20190821205423\S-Parameters_2019-08-23.sta
!Cal File = 
!ComputerName = CMPE-LAB-6
!Comments = 
!Attenuation = 0
!Z0 = 50
!Input Power(dBm) = -13.00
!Device ID = EG0520U_1010_6x60_2SDBCB2EV
!Row = 73
!Column = 25
!Technology = QPHT09
!Lot/Wafer = 1915934D06
!Gate Size = 360
!Mask = EG0520
!Cal Standards = GaAs BCB
!Cal Kit = EG2306
!Job Number = 20190821205423
!Device Type = FET
!set_Vg(v) = -1.500
!set_Vd(v) = 4.000
!set_Vd(mA) = 27.000
!file_name = EG0520U_1010_6x60_2SDBCB2EV_1915934D06_RC7325_4Vd_27mA.s2p
!Vd(V) = 4.000
!Vd(mA) = 26.963
!Vg(V) = -0.619
!Vg(mA) = -0.007
# GHz   S   DB   R   50
!%	Freq(GHz)	     s11(dB)	    s11(deg)	     s21(dB)	    s21(deg)	     s12(dB)	    s12(deg)	     s22(dB)	    s22(deg)
	0.500000000	      -0.087	     -13.491	      20.877	     171.621	     -38.564	      80.690	      -7.549	     -12.750
	1.000000000	      -0.170	     -26.693	      20.524	     163.581	     -32.761	      74.129	      -7.630	     -24.477
	1.500000000	      -0.206	     -39.270	      20.212	     156.670	     -29.555	      67.340	      -7.676	     -35.912
	2.000000000	      -0.340	     -50.793	      19.961	     149.534	     -27.491	      60.863	      -7.782	     -47.196
	2.500000000	      -0.434	     -61.658	      19.558	     143.297	     -26.058	      55.295	      -7.982	     -56.586
	3.000000000	      -0.812	     -69.017	      18.903	     138.073	     -25.209	      50.934	      -8.360	     -60.405
	3.500000000	      -0.929	     -77.651	      18.403	     133.058	     -24.407	      46.554	      -8.508	     -67.763
	4.000000000	      -1.032	     -85.315	      17.884	     128.550	     -23.790	      42.626	      -8.641	     -74.366
	4.500000000	      -1.148	     -92.146	      17.354	     124.323	     -23.321	      39.061	      -8.761	     -80.496
	5.000000000	      -1.226	     -98.307	      16.833	     120.634	     -22.949	      35.946	      -8.877	     -85.759
	5.500000000	      -1.303	    -103.862	      16.327	     117.181	     -22.659	      33.188	      -8.992	     -90.473
	6.000000000	      -1.372	    -108.889	      15.829	     114.035	     -22.417	      30.681	      -9.056	     -94.634
	6.500000000	      -1.424	    -113.347	      15.346	     111.200	     -22.222	      28.431	      -9.113	     -98.353
	7.000000000	      -1.474	    -117.401	      14.879	     108.523	     -22.066	      26.376	      -9.152	    -101.694
	7.500000000	      -1.510	    -121.057	      14.424	     106.064	     -21.933	      24.526	      -9.178	    -104.673
	8.000000000	      -1.527	    -124.160	      14.003	     103.898	     -21.806	      22.996	      -9.210	    -106.674
	8.500000000	      -1.562	    -127.275	      13.579	     101.740	     -21.714	      21.382	      -9.228	    -109.109
	9.000000000	      -1.596	    -130.052	      13.163	      99.725	     -21.640	      19.855	      -9.230	    -111.263
	9.500000000	      -1.620	    -132.659	      12.774	      97.765	     -21.578	      18.493	      -9.220	    -113.207
	10.000000000	      -1.637	    -135.073	      12.396	      95.931	     -21.535	      17.133	      -9.209	    -115.074
	10.500000000	      -1.662	    -137.327	      12.029	      94.144	     -21.509	      15.989	      -9.195	    -116.719
	11.000000000	      -1.676	    -139.387	      11.676	      92.485	     -21.478	      14.880	      -9.171	    -118.190
	11.500000000	      -1.696	    -141.335	      11.330	      90.866	     -21.462	      13.801	      -9.145	    -119.511
	12.000000000	      -1.711	    -143.141	      11.002	      89.336	     -21.454	      12.881	      -9.103	    -120.716
	12.500000000	      -1.719	    -144.826	      10.680	      87.856	     -21.442	      11.972	      -9.055	    -121.976
	13.000000000	      -1.729	    -146.401	      10.369	      86.395	     -21.437	      11.087	      -9.011	    -123.084
	13.500000000	      -1.741	    -147.909	      10.067	      85.014	     -21.447	      10.237	      -8.956	    -124.011
	14.000000000	      -1.752	    -149.335	       9.774	      83.669	     -21.460	       9.462	      -8.899	    -124.899
	14.500000000	      -1.756	    -150.636	       9.490	      82.346	     -21.469	       8.770	      -8.851	    -125.826
	15.000000000	      -1.760	    -151.794	       9.210	      81.091	     -21.484	       8.117	      -8.801	    -126.636
	15.500000000	      -1.765	    -152.956	       8.941	      79.835	     -21.494	       7.525	      -8.740	    -127.335
	16.000000000	      -1.770	    -154.108	       8.679	      78.608	     -21.500	       6.837	      -8.670	    -128.016
	16.500000000	      -1.774	    -155.216	       8.422	      77.403	     -21.523	       6.189	      -8.604	    -128.661
	17.000000000	      -1.775	    -156.255	       8.174	      76.237	     -21.555	       5.574	      -8.543	    -129.281
	17.500000000	      -1.783	    -157.196	       7.926	      75.083	     -21.578	       5.077	      -8.476	    -129.915
	18.000000000	      -1.792	    -158.113	       7.691	      73.969	     -21.611	       4.477	      -8.410	    -130.543
	18.500000000	      -1.793	    -159.020	       7.460	      72.868	     -21.629	       3.923	      -8.331	    -131.058
	19.000000000	      -1.792	    -159.880	       7.231	      71.781	     -21.673	       3.368	      -8.259	    -131.561
	19.500000000	      -1.789	    -160.692	       7.011	      70.724	     -21.726	       2.951	      -8.197	    -132.050
	20.000000000	      -1.794	    -161.468	       6.795	      69.682	     -21.785	       2.638	      -8.139	    -132.498
	20.500000000	      -1.796	    -162.201	       6.589	      68.648	     -21.811	       2.430	      -8.059	    -132.914
	21.000000000	      -1.796	    -162.917	       6.381	      67.621	     -21.822	       2.076	      -7.977	    -133.365
	21.500000000	      -1.787	    -163.679	       6.178	      66.594	     -21.854	       1.679	      -7.898	    -133.758
	22.000000000	      -1.779	    -164.309	       5.980	      65.591	     -21.873	       1.169	      -7.820	    -134.170
	22.500000000	      -1.777	    -164.981	       5.781	      64.569	     -21.905	       0.712	      -7.756	    -134.615
	23.000000000	      -1.781	    -165.607	       5.585	      63.593	     -21.948	       0.166	      -7.679	    -135.146
	23.500000000	      -1.780	    -166.320	       5.392	      62.635	     -22.031	      -0.356	      -7.611	    -135.690
	24.000000000	      -1.789	    -166.936	       5.205	      61.742	     -22.141	      -0.473	      -7.556	    -135.987
	24.500000000	      -1.782	    -167.377	       5.031	      60.820	     -22.170	      -0.452	      -7.481	    -136.176
	25.000000000	      -1.768	    -167.868	       4.856	      59.843	     -22.153	      -0.608	      -7.394	    -136.435
	25.500000000	      -1.769	    -168.444	       4.675	      58.935	     -22.198	      -0.966	      -7.312	    -136.861
	26.000000000	      -1.770	    -169.057	       4.500	      58.029	     -22.244	      -1.383	      -7.221	    -137.337
	26.500000000	      -1.765	    -169.558	       4.330	      57.114	     -22.285	      -1.803	      -7.138	    -137.723
	27.000000000	      -1.754	    -169.978	       4.162	      56.228	     -22.351	      -2.285	      -7.071	    -138.100
	27.500000000	      -1.756	    -170.359	       3.998	      55.438	     -22.492	      -2.269	      -7.020	    -138.211
	28.000000000	      -1.753	    -170.897	       3.845	      54.572	     -22.572	      -2.111	      -6.945	    -138.626
	28.500000000	      -1.733	    -171.393	       3.699	      53.608	     -22.550	      -1.799	      -6.844	    -139.004
	29.000000000	      -1.726	    -171.870	       3.534	      52.670	     -22.555	      -2.235	      -6.765	    -139.435
	29.500000000	      -1.722	    -172.285	       3.376	      51.795	     -22.592	      -2.813	      -6.693	    -139.800
	30.000000000	      -1.726	    -172.664	       3.220	      50.999	     -22.680	      -2.958	      -6.631	    -140.115
	30.500000000	      -1.724	    -173.189	       3.069	      50.138	     -22.694	      -3.231	      -6.568	    -140.484
	31.000000000	      -1.716	    -173.637	       2.917	      49.282	     -22.791	      -3.411	      -6.507	    -140.804
	31.500000000	      -1.702	    -174.043	       2.780	      48.542	     -22.874	      -3.053	      -6.437	    -141.166
	32.000000000	      -1.700	    -174.360	       2.639	      47.655	     -22.902	      -3.053	      -6.361	    -141.431
	32.500000000	      -1.706	    -174.842	       2.493	      46.757	     -22.882	      -3.195	      -6.276	    -141.715
	33.000000000	      -1.706	    -175.251	       2.352	      45.943	     -22.906	      -3.358	      -6.213	    -142.090
	33.500000000	      -1.695	    -175.664	       2.204	      45.144	     -22.968	      -3.751	      -6.149	    -142.505
	34.000000000	      -1.684	    -176.021	       2.061	      44.339	     -23.015	      -3.848	      -6.080	    -142.976
	34.500000000	      -1.682	    -176.409	       1.914	      43.502	     -23.083	      -4.160	      -5.996	    -143.265
	35.000000000	      -1.687	    -176.773	       1.775	      42.707	     -23.175	      -4.356	      -5.932	    -143.751
	35.500000000	      -1.685	    -177.145	       1.655	      41.996	     -23.267	      -3.906	      -5.883	    -143.974
	36.000000000	      -1.678	    -177.463	       1.525	      41.154	     -23.236	      -4.241	      -5.806	    -144.291
	36.500000000	      -1.662	    -177.695	       1.398	      40.348	     -23.267	      -4.212	      -5.734	    -144.633
	37.000000000	      -1.653	    -177.953	       1.268	      39.558	     -23.296	      -4.524	      -5.665	    -144.987
	37.500000000	      -1.647	    -178.380	       1.136	      38.765	     -23.367	      -5.095	      -5.617	    -145.309
	38.000000000	      -1.643	    -178.742	       1.004	      37.993	     -23.405	      -5.126	      -5.548	    -145.661
	38.500000000	      -1.631	    -179.093	       0.867	      37.252	     -23.497	      -5.006	      -5.485	    -146.136
	39.000000000	      -1.623	    -179.346	       0.748	      36.549	     -23.623	      -5.226	      -5.419	    -146.495
	39.500000000	      -1.621	    -179.597	       0.627	      35.837	     -23.662	      -4.797	      -5.355	    -146.910
	40.000000000	      -1.607	     179.966	       0.522	      34.992	     -23.670	      -4.653	      -5.281	    -147.263
	40.500000000	      -1.603	     179.485	       0.388	      34.190	     -23.707	      -5.194	      -5.217	    -147.626
	41.000000000	      -1.591	     179.171	       0.264	      33.396	     -23.766	      -4.925	      -5.168	    -148.087
	41.500000000	      -1.583	     178.964	       0.147	      32.677	     -23.806	      -5.785	      -5.122	    -148.241
	42.000000000	      -1.591	     178.636	       0.024	      31.956	     -23.878	      -5.538	      -5.053	    -148.566
	42.500000000	      -1.606	     178.276	      -0.099	      31.278	     -23.996	      -5.453	      -4.984	    -148.624
	43.000000000	      -1.601	     178.011	      -0.200	      30.643	     -24.026	      -4.771	      -4.916	    -149.026
	43.500000000	      -1.580	     177.769	      -0.313	      29.811	     -24.094	      -4.354	      -4.869	    -149.478
	44.000000000	      -1.590	     177.479	      -0.426	      29.016	     -24.072	      -4.983	      -4.800	    -149.959
	44.500000000	      -1.598	     177.084	      -0.553	      28.308	     -24.105	      -4.876	      -4.746	    -150.294
	45.000000000	      -1.609	     176.750	      -0.672	      27.594	     -24.130	      -5.576	      -4.682	    -150.718
	45.500000000	      -1.562	     176.334	      -0.947	      26.919	     -24.414	      -5.826	      -4.565	    -151.879
	46.000000000	      -1.540	     176.042	      -1.071	      26.290	     -24.491	      -6.674	      -4.513	    -152.237
	46.500000000	      -1.527	     175.674	      -1.174	      25.622	     -24.689	      -5.416	      -4.436	    -152.476
	47.000000000	      -1.529	     175.340	      -1.280	      24.876	     -24.607	      -4.513	      -4.381	    -152.716
	47.500000000	      -1.526	     175.018	      -1.394	      24.135	     -24.708	      -4.694	      -4.329	    -152.978
	48.000000000	      -1.510	     174.734	      -1.502	      23.426	     -24.729	      -4.620	      -4.287	    -153.430
	48.500000000	      -1.505	     174.397	      -1.621	      22.777	     -24.627	      -5.138	      -4.229	    -153.655
	49.000000000	      -1.513	     174.187	      -1.722	      22.129	     -24.850	      -4.774	      -4.128	    -153.975
	49.500000000	      -1.526	     173.902	      -1.851	      21.491	     -24.806	      -5.254	      -4.113	    -154.375
	50.000000000	      -1.507	     173.538	      -1.959	      20.883	     -24.961	      -5.659	      -4.054	    -154.841
	50.500000000	      -1.506	     173.374	      -2.046	      20.187	     -25.027	      -5.604	      -4.038	    -155.279
	51.000000000	      -1.481	     173.011	      -2.157	      19.483	     -25.045	      -4.646	      -4.009	    -155.689
	51.500000000	      -1.488	     172.848	      -2.258	      18.912	     -25.068	      -4.046	      -3.957	    -156.036
	52.000000000	      -1.463	     172.605	      -2.376	      18.170	     -24.974	      -4.398	      -3.910	    -156.376
	52.500000000	      -1.464	     172.191	      -2.480	      17.527	     -25.043	      -4.482	      -3.869	    -156.604
	53.000000000	      -1.457	     171.870	      -2.588	      16.842	     -25.153	      -4.483	      -3.816	    -156.634
	53.500000000	      -1.451	     171.666	      -2.688	      16.348	     -25.126	      -4.831	      -3.759	    -157.053
	54.000000000	      -1.445	     171.430	      -2.787	      15.742	     -25.159	      -4.917	      -3.709	    -157.457
	54.500000000	      -1.444	     170.972	      -2.878	      15.159	     -25.216	      -5.396	      -3.663	    -157.653
	55.000000000	      -1.450	     170.571	      -2.970	      14.454	     -25.212	      -3.935	      -3.609	    -157.853
	55.500000000	      -1.449	     170.239	      -3.059	      13.807	     -25.142	      -4.983	      -3.573	    -158.141
	56.000000000	      -1.436	     169.933	      -3.155	      13.177	     -25.277	      -4.541	      -3.539	    -158.901
	56.500000000	      -1.453	     169.769	      -3.256	      12.538	     -25.431	      -6.479	      -3.501	    -159.536
	57.000000000	      -1.443	     169.465	      -3.346	      11.819	     -25.122	      -6.331	      -3.470	    -159.336
	57.500000000	      -1.433	     169.277	      -3.475	      11.054	     -25.570	      -5.093	      -3.436	    -159.902
	58.000000000	      -1.417	     169.145	      -3.556	      10.522	     -25.697	      -6.348	      -3.407	    -160.219
	58.500000000	      -1.394	     168.894	      -3.637	       9.777	     -25.657	      -4.444	      -3.356	    -160.413
	59.000000000	      -1.374	     168.483	      -3.704	       9.223	     -25.549	      -4.957	      -3.292	    -160.804
	59.500000000	      -1.403	     168.380	      -3.811	       8.421	     -25.677	      -6.004	      -3.234	    -161.047
	60.000000000	      -1.392	     168.105	      -3.913	       7.734	     -25.563	      -4.199	      -3.265	    -161.530
	60.500000000	      -1.355	     167.907	      -4.027	       7.013	     -25.785	      -5.003	      -3.250	    -161.667
	61.000000000	      -1.341	     167.504	      -4.129	       6.595	     -25.761	      -4.969	      -3.201	    -161.916
	61.500000000	      -1.331	     167.236	      -4.212	       5.995	     -26.052	      -5.701	      -3.163	    -162.159
	62.000000000	      -1.308	     166.908	      -4.285	       5.365	     -26.092	      -4.858	      -3.135	    -162.380
	62.500000000	      -1.336	     166.721	      -4.371	       4.671	     -25.957	      -4.197	      -3.132	    -162.460
	63.000000000	      -1.303	     166.148	      -4.461	       4.015	     -25.831	      -2.787	      -3.055	    -162.647
	63.500000000	      -1.312	     165.970	      -4.537	       3.259	     -25.822	      -1.296	      -3.001	    -162.932
	64.000000000	      -1.306	     165.990	      -4.622	       2.415	     -25.816	      -4.149	      -2.913	    -163.038
	64.500000000	      -1.261	     165.727	      -4.695	       1.465	     -25.677	      -3.863	      -2.874	    -162.980
	65.000000000	      -1.297	     165.455	      -4.795	       0.648	     -26.149	      -5.051	      -2.814	    -163.404
	65.500000000	      -1.291	     164.861	      -4.906	      -0.071	     -25.834	      -3.400	      -2.770	    -164.482
	66.000000000	      -1.281	     164.601	      -5.077	      -0.964	     -26.210	      -3.117	      -2.742	    -165.160
	66.500000000	      -1.298	     164.355	      -5.133	      -1.730	     -26.118	      -4.918	      -2.715	    -164.930
	67.000000000	      -1.349	     163.968	      -5.289	      -2.437	     -25.521	      -1.608	      -2.719	    -164.987
	67.500000000	      -1.331	     163.320	      -5.440	      -3.224	     -25.865	      -4.098	      -2.708	    -165.515
	68.000000000	      -1.378	     163.099	      -5.537	      -3.909	     -25.836	      -4.481	      -2.746	    -165.864
	68.500000000	      -1.414	     162.810	      -5.642	      -4.571	     -25.851	      -4.634	      -2.698	    -166.113
	69.000000000	      -1.444	     162.595	      -5.775	      -5.182	     -25.850	      -5.437	      -2.633	    -166.412
	69.500000000	      -1.439	     162.367	      -5.907	      -5.683	     -25.957	      -5.876	      -2.624	    -166.677
	70.000000000	      -1.421	     162.151	      -6.020	      -6.214	     -26.041	      -5.488	      -2.606	    -166.805
	70.500000000	      -1.403	     161.961	      -6.125	      -6.729	     -25.990	      -5.101	      -2.565	    -166.987
	71.000000000	      -1.392	     161.769	      -6.232	      -7.246	     -26.001	      -5.567	      -2.523	    -167.254
	71.500000000	      -1.343	     161.586	      -6.347	      -7.778	     -25.961	      -6.300	      -2.465	    -167.515
	72.000000000	      -1.340	     161.274	      -6.466	      -8.272	     -25.961	      -7.303	      -2.463	    -167.800
	72.500000000	      -1.364	     160.835	      -6.588	      -8.963	     -26.026	      -8.386	      -2.443	    -168.155
	73.000000000	      -1.401	     160.625	      -6.711	      -9.567	     -26.249	      -9.243	      -2.404	    -168.386
	73.500000000	      -1.422	     160.489	      -6.837	     -10.055	     -26.512	      -9.552	      -2.338	    -168.755
	74.000000000	      -1.430	     160.195	      -6.956	     -10.455	     -26.687	      -8.959	      -2.344	    -169.320
	74.500000000	      -1.464	     159.953	      -7.060	     -10.821	     -26.805	      -8.254	      -2.358	    -169.604
	75.000000000	      -1.502	     159.858	      -7.165	     -11.303	     -26.899	      -7.817	      -2.349	    -169.707
	75.500000000	      -1.530	     159.841	      -7.292	     -11.808	     -27.158	      -7.451	      -2.348	    -169.865
	76.000000000	      -1.545	     159.918	      -7.418	     -12.147	     -27.524	      -5.692	      -2.340	    -169.987
	76.500000000	      -1.534	     159.968	      -7.540	     -12.256	     -27.742	      -1.411	      -2.340	    -169.944
	77.000000000	      -1.502	     160.039	      -7.610	     -12.278	     -27.407	       3.344	      -2.279	    -169.868
	77.500000000	      -1.427	     159.997	      -7.641	     -12.261	     -26.712	       5.722	      -2.194	    -170.039
	78.000000000	      -1.332	     159.625	      -7.631	     -12.546	     -26.048	       5.599	      -2.157	    -170.239
	78.500000000	      -1.294	     158.997	      -7.646	     -13.379	     -25.570	       3.906	      -2.111	    -170.573
	79.000000000	      -1.334	     158.260	      -7.703	     -14.363	     -25.250	       1.627	      -2.053	    -170.897
	79.500000000	      -1.357	     157.822	      -7.770	     -15.272	     -25.058	      -0.307	      -1.999	    -171.128
