!File name = EG0520U_1010_6x60_2SDBCB2EV_1915934D06_RC7325_4Vd_36mA.s2p
!Base file name = EG0520U_1010_6x60_2SDBCB2EV_1915934D06_RC7325
!Date = 8/23/2019
!Time = 1:11 PM
!Test duration(min) = 0.15
!Test = S-Parameters
!MPTS version = 8.91.5
!State File = C:\Data\PNA\20190821205423\S-Parameters_2019-08-23.sta
!Cal File = 
!ComputerName = CMPE-LAB-6
!Comments = 
!Attenuation = 0
!Z0 = 50
!Input Power(dBm) = -13.00
!Device ID = EG0520U_1010_6x60_2SDBCB2EV
!Row = 73
!Column = 25
!Technology = QPHT09
!Lot/Wafer = 1915934D06
!Gate Size = 360
!Mask = EG0520
!Cal Standards = GaAs BCB
!Cal Kit = EG2306
!Job Number = 20190821205423
!Device Type = FET
!set_Vg(v) = -1.500
!set_Vd(v) = 4.000
!set_Vd(mA) = 36.000
!file_name = EG0520U_1010_6x60_2SDBCB2EV_1915934D06_RC7325_4Vd_36mA.s2p
!Vd(V) = 4.000
!Vd(mA) = 35.873
!Vg(V) = -0.570
!Vg(mA) = -0.005
# GHz   S   DB   R   50
!%	Freq(GHz)	     s11(dB)	    s11(deg)	     s21(dB)	    s21(deg)	     s12(dB)	    s12(deg)	     s22(dB)	    s22(deg)
	0.500000000	      -0.078	     -14.224	      21.621	     171.241	     -39.030	      80.796	      -8.144	     -13.855
	1.000000000	      -0.162	     -28.124	      21.218	     162.969	     -33.233	      73.736	      -8.215	     -26.481
	1.500000000	      -0.200	     -41.280	      20.875	     155.723	     -30.060	      66.674	      -8.235	     -38.714
	2.000000000	      -0.335	     -53.231	      20.616	     148.496	     -28.027	      60.042	      -8.313	     -50.692
	2.500000000	      -0.431	     -64.406	      20.181	     142.129	     -26.622	      54.336	      -8.483	     -60.535
	3.000000000	      -0.813	     -71.936	      19.507	     136.929	     -25.800	      49.983	      -8.873	     -64.494
	3.500000000	      -0.929	     -80.663	      18.968	     131.878	     -25.024	      45.569	      -8.991	     -72.113
	4.000000000	      -1.026	     -88.380	      18.420	     127.375	     -24.438	      41.676	      -9.093	     -78.863
	4.500000000	      -1.133	     -95.232	      17.870	     123.209	     -23.992	      38.140	      -9.183	     -85.065
	5.000000000	      -1.207	    -101.363	      17.327	     119.541	     -23.640	      35.085	      -9.270	     -90.345
	5.500000000	      -1.278	    -106.864	      16.805	     116.145	     -23.364	      32.381	      -9.353	     -95.048
	6.000000000	      -1.339	    -111.806	      16.288	     113.069	     -23.137	      29.952	      -9.392	     -99.157
	6.500000000	      -1.387	    -116.182	      15.792	     110.288	     -22.956	      27.773	      -9.423	    -102.804
	7.000000000	      -1.432	    -120.163	      15.313	     107.672	     -22.808	      25.773	      -9.443	    -106.055
	7.500000000	      -1.463	    -123.738	      14.848	     105.270	     -22.689	      24.047	      -9.448	    -108.933
	8.000000000	      -1.476	    -126.769	      14.419	     103.158	     -22.570	      22.546	      -9.468	    -110.824
	8.500000000	      -1.506	    -129.791	      13.987	     101.065	     -22.484	      21.009	      -9.470	    -113.152
	9.000000000	      -1.537	    -132.508	      13.565	      99.097	     -22.415	      19.552	      -9.458	    -115.208
	9.500000000	      -1.557	    -135.037	      13.170	      97.200	     -22.360	      18.224	      -9.437	    -117.062
	10.000000000	      -1.572	    -137.380	      12.787	      95.415	     -22.326	      16.948	      -9.414	    -118.829
	10.500000000	      -1.593	    -139.568	      12.417	      93.682	     -22.304	      15.826	      -9.392	    -120.368
	11.000000000	      -1.605	    -141.557	      12.059	      92.071	     -22.281	      14.826	      -9.357	    -121.753
	11.500000000	      -1.624	    -143.448	      11.710	      90.497	     -22.271	      13.819	      -9.323	    -122.975
	12.000000000	      -1.638	    -145.196	      11.377	      89.010	     -22.261	      12.943	      -9.273	    -124.112
	12.500000000	      -1.645	    -146.824	      11.052	      87.568	     -22.258	      12.099	      -9.220	    -125.266
	13.000000000	      -1.654	    -148.347	      10.739	      86.153	     -22.257	      11.320	      -9.170	    -126.300
	13.500000000	      -1.664	    -149.808	      10.434	      84.805	     -22.268	      10.470	      -9.111	    -127.184
	14.000000000	      -1.675	    -151.183	      10.138	      83.501	     -22.281	       9.819	      -9.051	    -127.972
	14.500000000	      -1.677	    -152.433	       9.852	      82.222	     -22.299	       9.151	      -8.995	    -128.791
	15.000000000	      -1.681	    -153.559	       9.571	      80.992	     -22.317	       8.567	      -8.942	    -129.532
	15.500000000	      -1.686	    -154.681	       9.300	      79.775	     -22.329	       8.045	      -8.878	    -130.159
	16.000000000	      -1.690	    -155.796	       9.035	      78.583	     -22.338	       7.405	      -8.805	    -130.769
	16.500000000	      -1.693	    -156.869	       8.777	      77.415	     -22.365	       6.752	      -8.737	    -131.348
	17.000000000	      -1.694	    -157.869	       8.528	      76.277	     -22.401	       6.237	      -8.678	    -131.876
	17.500000000	      -1.701	    -158.774	       8.280	      75.158	     -22.422	       5.800	      -8.606	    -132.476
	18.000000000	      -1.709	    -159.664	       8.043	      74.069	     -22.460	       5.254	      -8.536	    -133.046
	18.500000000	      -1.710	    -160.539	       7.810	      73.003	     -22.479	       4.773	      -8.456	    -133.503
	19.000000000	      -1.709	    -161.374	       7.581	      71.942	     -22.527	       4.267	      -8.384	    -133.949
	19.500000000	      -1.705	    -162.165	       7.360	      70.913	     -22.590	       3.874	      -8.320	    -134.392
	20.000000000	      -1.712	    -162.916	       7.143	      69.898	     -22.642	       3.672	      -8.260	    -134.792
	20.500000000	      -1.714	    -163.617	       6.936	      68.892	     -22.669	       3.520	      -8.181	    -135.157
	21.000000000	      -1.711	    -164.339	       6.729	      67.891	     -22.687	       3.275	      -8.097	    -135.554
	21.500000000	      -1.704	    -165.049	       6.524	      66.895	     -22.710	       2.869	      -8.017	    -135.898
	22.000000000	      -1.696	    -165.660	       6.325	      65.917	     -22.738	       2.405	      -7.939	    -136.262
	22.500000000	      -1.693	    -166.317	       6.125	      64.916	     -22.765	       1.951	      -7.872	    -136.662
	23.000000000	      -1.697	    -166.955	       5.928	      63.962	     -22.815	       1.543	      -7.796	    -137.153
	23.500000000	      -1.698	    -167.613	       5.735	      63.032	     -22.905	       1.076	      -7.727	    -137.664
	24.000000000	      -1.706	    -168.216	       5.548	      62.161	     -23.024	       1.047	      -7.670	    -137.918
	24.500000000	      -1.700	    -168.638	       5.372	      61.258	     -23.037	       1.148	      -7.596	    -138.040
	25.000000000	      -1.686	    -169.098	       5.196	      60.313	     -23.035	       1.046	      -7.510	    -138.264
	25.500000000	      -1.686	    -169.709	       5.015	      59.424	     -23.090	       0.812	      -7.425	    -138.620
	26.000000000	      -1.688	    -170.264	       4.841	      58.538	     -23.118	       0.331	      -7.333	    -139.090
	26.500000000	      -1.680	    -170.770	       4.670	      57.643	     -23.173	       0.072	      -7.252	    -139.448
	27.000000000	      -1.674	    -171.148	       4.502	      56.777	     -23.250	      -0.359	      -7.184	    -139.782
	27.500000000	      -1.678	    -171.533	       4.337	      56.007	     -23.380	      -0.311	      -7.135	    -139.852
	28.000000000	      -1.674	    -172.067	       4.183	      55.152	     -23.476	      -0.000	      -7.058	    -140.264
	28.500000000	      -1.654	    -172.536	       4.037	      54.218	     -23.406	       0.284	      -6.957	    -140.600
	29.000000000	      -1.648	    -173.003	       3.873	      53.290	     -23.427	      -0.038	      -6.876	    -140.991
	29.500000000	      -1.644	    -173.394	       3.713	      52.444	     -23.480	      -0.431	      -6.803	    -141.327
	30.000000000	      -1.647	    -173.778	       3.556	      51.663	     -23.538	      -0.738	      -6.739	    -141.608
	30.500000000	      -1.645	    -174.288	       3.404	      50.815	     -23.560	      -0.867	      -6.680	    -141.939
	31.000000000	      -1.635	    -174.742	       3.253	      50.025	     -23.660	      -0.999	      -6.619	    -142.278
	31.500000000	      -1.623	    -175.098	       3.120	      49.248	     -23.791	      -0.597	      -6.546	    -142.570
	32.000000000	      -1.620	    -175.430	       2.977	      48.393	     -23.787	      -0.315	      -6.468	    -142.803
	32.500000000	      -1.628	    -175.860	       2.830	      47.496	     -23.743	      -0.613	      -6.387	    -143.075
	33.000000000	      -1.628	    -176.315	       2.685	      46.716	     -23.787	      -0.722	      -6.324	    -143.401
	33.500000000	      -1.616	    -176.700	       2.538	      45.926	     -23.863	      -0.873	      -6.261	    -143.791
	34.000000000	      -1.608	    -177.046	       2.397	      45.148	     -23.924	      -1.139	      -6.182	    -144.252
	34.500000000	      -1.611	    -177.422	       2.248	      44.298	     -23.994	      -1.443	      -6.102	    -144.511
	35.000000000	      -1.610	    -177.778	       2.109	      43.532	     -24.094	      -1.539	      -6.039	    -144.949
	35.500000000	      -1.608	    -178.144	       1.989	      42.814	     -24.123	      -0.991	      -5.990	    -145.124
	36.000000000	      -1.602	    -178.457	       1.861	      42.012	     -24.098	      -1.113	      -5.909	    -145.416
	36.500000000	      -1.584	    -178.671	       1.732	      41.223	     -24.121	      -0.987	      -5.835	    -145.807
	37.000000000	      -1.578	    -178.934	       1.601	      40.457	     -24.134	      -1.453	      -5.770	    -146.120
	37.500000000	      -1.579	    -179.322	       1.469	      39.690	     -24.245	      -1.412	      -5.717	    -146.424
	38.000000000	      -1.571	    -179.724	       1.336	      38.912	     -24.357	      -1.486	      -5.650	    -146.710
	38.500000000	      -1.562	     179.938	       1.199	      38.207	     -24.461	      -1.981	      -5.586	    -147.226
	39.000000000	      -1.550	     179.712	       1.081	      37.504	     -24.458	      -1.503	      -5.524	    -147.579
	39.500000000	      -1.549	     179.467	       0.960	      36.794	     -24.548	      -1.175	      -5.453	    -147.905
	40.000000000	      -1.533	     179.042	       0.851	      35.964	     -24.534	      -1.119	      -5.381	    -148.259
	40.500000000	      -1.533	     178.566	       0.718	      35.193	     -24.548	      -1.382	      -5.317	    -148.586
	41.000000000	      -1.518	     178.229	       0.596	      34.423	     -24.550	      -1.186	      -5.265	    -149.060
	41.500000000	      -1.512	     178.035	       0.475	      33.698	     -24.697	      -1.462	      -5.223	    -149.251
	42.000000000	      -1.518	     177.719	       0.354	      32.996	     -24.715	      -1.364	      -5.153	    -149.438
	42.500000000	      -1.536	     177.357	       0.234	      32.347	     -24.785	      -1.686	      -5.086	    -149.574
	43.000000000	      -1.532	     177.117	       0.131	      31.688	     -24.897	      -1.107	      -5.019	    -149.908
	43.500000000	      -1.513	     176.807	       0.016	      30.864	     -24.860	      -0.774	      -4.965	    -150.396
	44.000000000	      -1.522	     176.581	      -0.102	      30.135	     -24.874	      -0.991	      -4.897	    -150.786
	44.500000000	      -1.532	     176.156	      -0.224	      29.389	     -24.902	      -0.925	      -4.834	    -151.184
	45.000000000	      -1.545	     175.843	      -0.342	      28.702	     -24.983	      -0.978	      -4.781	    -151.586
	45.500000000	      -1.492	     175.454	      -0.622	      28.033	     -25.237	      -1.604	      -4.651	    -152.675
	46.000000000	      -1.474	     175.192	      -0.745	      27.427	     -25.289	      -1.632	      -4.610	    -153.065
	46.500000000	      -1.455	     174.862	      -0.844	      26.818	     -25.493	      -0.954	      -4.521	    -153.280
	47.000000000	      -1.462	     174.493	      -0.949	      26.019	     -25.439	      -0.014	      -4.475	    -153.559
	47.500000000	      -1.456	     174.205	      -1.061	      25.300	     -25.445	       0.405	      -4.430	    -153.726
	48.000000000	      -1.441	     173.882	      -1.181	      24.616	     -25.505	      -0.510	      -4.377	    -154.173
	48.500000000	      -1.435	     173.572	      -1.293	      24.000	     -25.511	       0.438	      -4.314	    -154.479
	49.000000000	      -1.453	     173.345	      -1.406	      23.320	     -25.645	      -1.026	      -4.235	    -154.624
	49.500000000	      -1.458	     173.119	      -1.513	      22.736	     -25.617	      -0.594	      -4.184	    -154.890
	50.000000000	      -1.445	     172.812	      -1.629	      22.009	     -25.689	      -0.157	      -4.117	    -155.522
	50.500000000	      -1.434	     172.504	      -1.715	      21.463	     -25.751	       0.646	      -4.130	    -156.041
	51.000000000	      -1.424	     172.243	      -1.831	      20.791	     -25.827	       1.311	      -4.092	    -156.280
	51.500000000	      -1.431	     172.060	      -1.935	      20.204	     -25.754	       1.206	      -4.055	    -156.709
	52.000000000	      -1.406	     171.795	      -2.044	      19.437	     -25.706	       1.334	      -3.995	    -157.031
	52.500000000	      -1.400	     171.426	      -2.156	      18.808	     -25.695	       0.565	      -3.952	    -157.174
	53.000000000	      -1.398	     171.050	      -2.257	      18.139	     -25.772	       0.430	      -3.908	    -157.251
	53.500000000	      -1.392	     170.904	      -2.358	      17.661	     -25.817	       0.382	      -3.849	    -157.721
	54.000000000	      -1.380	     170.623	      -2.459	      17.079	     -25.962	       0.285	      -3.787	    -158.029
	54.500000000	      -1.382	     170.188	      -2.543	      16.429	     -25.985	       0.696	      -3.743	    -158.282
	55.000000000	      -1.394	     169.784	      -2.630	      15.799	     -26.036	       1.164	      -3.691	    -158.406
	55.500000000	      -1.388	     169.474	      -2.731	      15.160	     -26.112	       1.245	      -3.651	    -158.769
	56.000000000	      -1.366	     169.158	      -2.824	      14.493	     -26.009	      -0.255	      -3.598	    -159.336
	56.500000000	      -1.391	     168.974	      -2.935	      13.795	     -25.841	      -0.968	      -3.589	    -159.915
	57.000000000	      -1.383	     168.711	      -3.039	      13.125	     -26.247	      -0.879	      -3.552	    -159.952
	57.500000000	      -1.380	     168.512	      -3.131	      12.543	     -26.195	       0.345	      -3.533	    -160.357
	58.000000000	      -1.357	     168.304	      -3.229	      11.827	     -26.254	       0.819	      -3.477	    -160.712
	58.500000000	      -1.334	     168.140	      -3.310	      11.292	     -26.176	       1.098	      -3.440	    -160.981
	59.000000000	      -1.338	     167.780	      -3.400	      10.482	     -26.116	       1.537	      -3.366	    -161.285
	59.500000000	      -1.351	     167.502	      -3.490	       9.755	     -26.172	       1.614	      -3.307	    -161.546
	60.000000000	      -1.333	     167.351	      -3.599	       9.274	     -26.316	       0.931	      -3.345	    -161.999
	60.500000000	      -1.312	     167.131	      -3.697	       8.512	     -26.321	       0.967	      -3.322	    -162.234
	61.000000000	      -1.267	     166.735	      -3.810	       8.042	     -26.394	       1.868	      -3.266	    -162.383
	61.500000000	      -1.266	     166.499	      -3.888	       7.410	     -26.303	       2.039	      -3.257	    -162.640
	62.000000000	      -1.261	     166.232	      -3.963	       6.822	     -26.388	       2.503	      -3.224	    -162.704
	62.500000000	      -1.266	     165.847	      -4.048	       6.135	     -26.851	       4.835	      -3.214	    -162.839
	63.000000000	      -1.244	     165.458	      -4.137	       5.490	     -26.460	       2.968	      -3.146	    -163.043
	63.500000000	      -1.246	     165.213	      -4.226	       4.639	     -26.563	       1.917	      -3.049	    -163.424
	64.000000000	      -1.235	     165.329	      -4.289	       3.851	     -26.569	       3.691	      -2.983	    -163.439
	64.500000000	      -1.211	     165.132	      -4.368	       2.879	     -26.406	       2.025	      -2.942	    -163.360
	65.000000000	      -1.250	     164.866	      -4.483	       2.052	     -26.271	       3.022	      -2.885	    -163.764
	65.500000000	      -1.217	     164.180	      -4.606	       1.237	     -26.591	       2.882	      -2.863	    -164.755
	66.000000000	      -1.228	     163.832	      -4.750	       0.509	     -26.397	       2.705	      -2.828	    -165.303
	66.500000000	      -1.246	     163.638	      -4.872	      -0.153	     -26.600	       4.093	      -2.804	    -165.164
	67.000000000	      -1.293	     163.251	      -4.958	      -0.987	     -26.683	       2.001	      -2.791	    -165.200
	67.500000000	      -1.280	     162.599	      -5.118	      -1.761	     -26.342	       2.405	      -2.781	    -165.839
	68.000000000	      -1.322	     162.341	      -5.222	      -2.396	     -26.346	       2.103	      -2.805	    -166.227
	68.500000000	      -1.361	     162.055	      -5.318	      -3.039	     -26.327	       1.633	      -2.764	    -166.443
	69.000000000	      -1.390	     161.842	      -5.453	      -3.656	     -26.286	       0.725	      -2.702	    -166.729
	69.500000000	      -1.385	     161.628	      -5.584	      -4.184	     -26.424	       0.545	      -2.689	    -166.940
	70.000000000	      -1.368	     161.416	      -5.688	      -4.699	     -26.491	       1.152	      -2.666	    -167.074
	70.500000000	      -1.353	     161.212	      -5.801	      -5.235	     -26.472	       1.295	      -2.629	    -167.284
	71.000000000	      -1.344	     160.969	      -5.877	      -5.667	     -26.424	       0.706	      -2.599	    -167.478
	71.500000000	      -1.307	     160.774	      -5.996	      -6.241	     -26.415	      -0.161	      -2.526	    -167.828
	72.000000000	      -1.294	     160.575	      -6.146	      -6.795	     -26.427	      -1.084	      -2.529	    -168.076
	72.500000000	      -1.324	     160.099	      -6.262	      -7.457	     -26.496	      -2.379	      -2.501	    -168.392
	73.000000000	      -1.352	     159.869	      -6.381	      -8.020	     -26.711	      -2.982	      -2.462	    -168.623
	73.500000000	      -1.380	     159.765	      -6.513	      -8.542	     -26.988	      -3.076	      -2.398	    -168.978
	74.000000000	      -1.385	     159.506	      -6.636	      -8.897	     -27.172	      -2.261	      -2.400	    -169.557
	74.500000000	      -1.421	     159.241	      -6.735	      -9.296	     -27.287	      -1.687	      -2.420	    -169.812
	75.000000000	      -1.457	     159.152	      -6.844	      -9.758	     -27.389	      -1.100	      -2.404	    -169.970
	75.500000000	      -1.487	     159.154	      -6.968	     -10.256	     -27.631	      -0.512	      -2.401	    -170.101
	76.000000000	      -1.501	     159.187	      -7.093	     -10.616	     -27.958	       1.582	      -2.408	    -170.220
	76.500000000	      -1.486	     159.364	      -7.215	     -10.700	     -28.085	       6.331	      -2.398	    -170.104
	77.000000000	      -1.472	     159.355	      -7.290	     -10.777	     -27.632	      10.760	      -2.332	    -170.063
	77.500000000	      -1.392	     159.251	      -7.317	     -10.811	     -26.884	      12.609	      -2.249	    -170.211
	78.000000000	      -1.279	     158.887	      -7.305	     -11.068	     -26.202	      11.963	      -2.204	    -170.405
	78.500000000	      -1.259	     158.352	      -7.331	     -11.925	     -25.748	       9.991	      -2.169	    -170.751
	79.000000000	      -1.292	     157.646	      -7.395	     -12.893	     -25.451	       7.366	      -2.103	    -171.062
	79.500000000	      -1.321	     157.186	      -7.469	     -13.795	     -25.270	       5.135	      -2.050	    -171.281
