!File name = EG0520U_1010_6x60_2SDBCB2EV_1915934D06_RC4034_Vg_N1.0V_Vd_0v.s2p
!Base file name = EG0520U_1010_6x60_2SDBCB2EV_1915934D06_RC4034
!Date = 8/23/2019
!Time = 12:55 PM
!Test duration(min) = 0.15
!Test = S-Parameters
!MPTS version = 8.91.5
!State File = C:\Data\PNA\20190821205423\S-Parameters_2019-08-23.sta
!Cal File = 
!ComputerName = CMPE-LAB-6
!Comments = 
!Attenuation = 0
!Z0 = 50
!Input Power(dBm) = -13.00
!Device ID = EG0520U_1010_6x60_2SDBCB2EV
!Row = 40
!Column = 34
!Technology = QPHT09
!Lot/Wafer = 1915934D06
!Gate Size = 360
!Mask = EG0520
!Cal Standards = GaAs BCB
!Cal Kit = EG2306
!Job Number = 20190821205423
!Device Type = FET
!set_Vg(v) = -1.000
!set_Vd(v) = 0.000
!file_name = EG0520U_1010_6x60_2SDBCB2EV_1915934D06_RC4034_Vg_N1.0V_Vd_0v.s2p
!Vd(V) = 0.000
!Vd(mA) = 0.002
!Vg(V) = -1.000
!Vg(mA) = -0.000
# GHz   S   DB   R   50
!%	Freq(GHz)	     s11(dB)	    s11(deg)	     s21(dB)	    s21(deg)	     s12(dB)	    s12(deg)	     s22(dB)	    s22(deg)
	0.500000000	      -0.005	      -4.594	     -28.239	      85.533	     -28.238	      85.647	      -0.012	      -3.976
	1.000000000	      -0.023	      -9.183	     -22.270	      81.454	     -22.266	      81.458	      -0.030	      -7.920
	1.500000000	      -0.047	     -13.729	     -18.816	      77.303	     -18.817	      77.304	      -0.054	     -11.828
	2.000000000	      -0.084	     -18.205	     -16.411	      73.277	     -16.406	      73.228	      -0.089	     -15.689
	2.500000000	      -0.130	     -22.609	     -14.590	      69.272	     -14.587	      69.220	      -0.134	     -19.484
	3.000000000	      -0.277	     -26.053	     -13.485	      64.547	     -13.487	      64.561	      -0.260	     -22.442
	3.500000000	      -0.348	     -30.107	     -12.316	      60.911	     -12.326	      60.831	      -0.330	     -25.929
	4.000000000	      -0.428	     -34.051	     -11.348	      57.260	     -11.357	      57.258	      -0.402	     -29.328
	4.500000000	      -0.513	     -37.878	     -10.527	      53.691	     -10.537	      53.699	      -0.479	     -32.642
	5.000000000	      -0.599	     -41.581	      -9.831	      50.260	      -9.840	      50.265	      -0.559	     -35.860
	5.500000000	      -0.685	     -45.185	      -9.231	      46.899	      -9.240	      46.923	      -0.638	     -38.974
	6.000000000	      -0.772	     -48.660	      -8.714	      43.689	      -8.720	      43.680	      -0.717	     -42.009
	6.500000000	      -0.858	     -51.998	      -8.269	      40.566	      -8.274	      40.547	      -0.796	     -44.938
	7.000000000	      -0.941	     -55.217	      -7.878	      37.560	      -7.886	      37.535	      -0.873	     -47.761
	7.500000000	      -1.018	     -58.350	      -7.540	      34.655	      -7.547	      34.629	      -0.945	     -50.506
	8.000000000	      -1.082	     -61.152	      -7.260	      32.045	      -7.269	      32.033	      -1.014	     -52.960
	8.500000000	      -1.160	     -64.048	      -7.002	      29.309	      -7.012	      29.286	      -1.084	     -55.530
	9.000000000	      -1.233	     -66.824	      -6.780	      26.651	      -6.788	      26.631	      -1.149	     -58.024
	9.500000000	      -1.299	     -69.490	      -6.582	      24.124	      -6.593	      24.093	      -1.210	     -60.424
	10.000000000	      -1.359	     -72.088	      -6.414	      21.668	      -6.422	      21.639	      -1.267	     -62.738
	10.500000000	      -1.414	     -74.597	      -6.262	      19.283	      -6.273	      19.267	      -1.317	     -64.983
	11.000000000	      -1.466	     -76.997	      -6.133	      17.007	      -6.142	      16.980	      -1.361	     -67.179
	11.500000000	      -1.515	     -79.313	      -6.022	      14.764	      -6.029	      14.701	      -1.401	     -69.312
	12.000000000	      -1.557	     -81.585	      -5.928	      12.624	      -5.937	      12.546	      -1.437	     -71.378
	12.500000000	      -1.595	     -83.766	      -5.848	      10.525	      -5.858	      10.481	      -1.472	     -73.436
	13.000000000	      -1.626	     -85.854	      -5.778	       8.488	      -5.789	       8.412	      -1.502	     -75.434
	13.500000000	      -1.654	     -87.906	      -5.721	       6.520	      -5.733	       6.472	      -1.526	     -77.325
	14.000000000	      -1.680	     -89.922	      -5.677	       4.599	      -5.689	       4.571	      -1.544	     -79.166
	14.500000000	      -1.700	     -91.845	      -5.640	       2.741	      -5.653	       2.698	      -1.561	     -81.013
	15.000000000	      -1.714	     -93.656	      -5.616	       0.932	      -5.626	       0.899	      -1.577	     -82.819
	15.500000000	      -1.725	     -95.436	      -5.594	      -0.810	      -5.605	      -0.900	      -1.588	     -84.561
	16.000000000	      -1.738	     -97.213	      -5.581	      -2.529	      -5.591	      -2.635	      -1.593	     -86.248
	16.500000000	      -1.749	     -98.940	      -5.573	      -4.260	      -5.588	      -4.267	      -1.597	     -87.903
	17.000000000	      -1.753	    -100.603	      -5.574	      -5.852	      -5.588	      -5.915	      -1.599	     -89.525
	17.500000000	      -1.757	    -102.192	      -5.584	      -7.455	      -5.595	      -7.555	      -1.603	     -91.155
	18.000000000	      -1.763	    -103.729	      -5.594	      -9.014	      -5.609	      -9.069	      -1.602	     -92.714
	18.500000000	      -1.762	    -105.265	      -5.609	     -10.513	      -5.624	     -10.580	      -1.596	     -94.234
	19.000000000	      -1.757	    -106.749	      -5.628	     -11.997	      -5.644	     -12.061	      -1.589	     -95.710
	19.500000000	      -1.747	    -108.195	      -5.653	     -13.457	      -5.668	     -13.523	      -1.580	     -97.162
	20.000000000	      -1.736	    -109.600	      -5.686	     -14.898	      -5.700	     -15.003	      -1.573	     -98.571
	20.500000000	      -1.729	    -110.996	      -5.719	     -16.316	      -5.735	     -16.374	      -1.554	     -99.994
	21.000000000	      -1.719	    -112.333	      -5.754	     -17.642	      -5.771	     -17.710	      -1.540	    -101.415
	21.500000000	      -1.707	    -113.686	      -5.791	     -18.970	      -5.809	     -19.039	      -1.525	    -102.785
	22.000000000	      -1.687	    -114.968	      -5.827	     -20.262	      -5.844	     -20.336	      -1.510	    -104.104
	22.500000000	      -1.673	    -116.235	      -5.869	     -21.560	      -5.885	     -21.635	      -1.502	    -105.416
	23.000000000	      -1.661	    -117.450	      -5.915	     -22.848	      -5.933	     -22.927	      -1.487	    -106.766
	23.500000000	      -1.647	    -118.658	      -5.967	     -24.159	      -5.983	     -24.232	      -1.472	    -108.095
	24.000000000	      -1.630	    -119.895	      -6.033	     -25.404	      -6.049	     -25.475	      -1.460	    -109.308
	24.500000000	      -1.604	    -121.017	      -6.088	     -26.504	      -6.107	     -26.602	      -1.440	    -110.460
	25.000000000	      -1.581	    -122.139	      -6.141	     -27.637	      -6.158	     -27.697	      -1.420	    -111.671
	25.500000000	      -1.571	    -123.316	      -6.199	     -28.789	      -6.217	     -28.867	      -1.401	    -112.925
	26.000000000	      -1.562	    -124.399	      -6.257	     -29.906	      -6.271	     -29.988	      -1.379	    -114.119
	26.500000000	      -1.543	    -125.450	      -6.318	     -31.027	      -6.336	     -31.108	      -1.359	    -115.290
	27.000000000	      -1.521	    -126.420	      -6.377	     -32.131	      -6.392	     -32.218	      -1.341	    -116.388
	27.500000000	      -1.496	    -127.348	      -6.456	     -33.221	      -6.472	     -33.316	      -1.328	    -117.432
	28.000000000	      -1.474	    -128.384	      -6.531	     -34.287	      -6.546	     -34.357	      -1.304	    -118.566
	28.500000000	      -1.435	    -129.433	      -6.589	     -35.195	      -6.605	     -35.244	      -1.281	    -119.695
	29.000000000	      -1.420	    -130.455	      -6.655	     -36.245	      -6.674	     -36.287	      -1.268	    -120.820
	29.500000000	      -1.405	    -131.423	      -6.726	     -37.278	      -6.741	     -37.345	      -1.249	    -121.811
	30.000000000	      -1.393	    -132.292	      -6.796	     -38.237	      -6.812	     -38.303	      -1.229	    -122.781
	30.500000000	      -1.374	    -133.231	      -6.861	     -39.192	      -6.881	     -39.267	      -1.216	    -123.852
	31.000000000	      -1.353	    -134.134	      -6.939	     -40.145	      -6.956	     -40.202	      -1.204	    -124.819
	31.500000000	      -1.324	    -135.025	      -7.023	     -41.041	      -7.040	     -41.163	      -1.183	    -125.826
	32.000000000	      -1.297	    -135.902	      -7.090	     -41.958	      -7.109	     -42.032	      -1.158	    -126.785
	32.500000000	      -1.287	    -136.778	      -7.160	     -42.863	      -7.175	     -42.926	      -1.133	    -127.733
	33.000000000	      -1.277	    -137.685	      -7.237	     -43.672	      -7.254	     -43.770	      -1.119	    -128.674
	33.500000000	      -1.252	    -138.549	      -7.315	     -44.626	      -7.327	     -44.724	      -1.108	    -129.601
	34.000000000	      -1.234	    -139.381	      -7.385	     -45.511	      -7.402	     -45.644	      -1.093	    -130.564
	34.500000000	      -1.219	    -140.227	      -7.465	     -46.439	      -7.485	     -46.548	      -1.065	    -131.430
	35.000000000	      -1.210	    -140.987	      -7.551	     -47.298	      -7.563	     -47.447	      -1.049	    -132.378
	35.500000000	      -1.186	    -141.770	      -7.647	     -48.067	      -7.660	     -48.212	      -1.035	    -133.204
	36.000000000	      -1.174	    -142.557	      -7.722	     -48.809	      -7.736	     -48.952	      -1.013	    -134.126
	36.500000000	      -1.152	    -143.262	      -7.793	     -49.564	      -7.807	     -49.730	      -0.999	    -134.963
	37.000000000	      -1.134	    -143.929	      -7.864	     -50.368	      -7.885	     -50.570	      -0.983	    -135.822
	37.500000000	      -1.119	    -144.659	      -7.949	     -51.262	      -7.967	     -51.434	      -0.971	    -136.641
	38.000000000	      -1.101	    -145.425	      -8.031	     -52.002	      -8.052	     -52.164	      -0.961	    -137.463
	38.500000000	      -1.084	    -146.194	      -8.119	     -52.847	      -8.138	     -53.052	      -0.944	    -138.305
	39.000000000	      -1.073	    -146.872	      -8.210	     -53.557	      -8.239	     -53.673	      -0.925	    -139.115
	39.500000000	      -1.055	    -147.396	      -8.297	     -54.226	      -8.313	     -54.369	      -0.910	    -139.941
	40.000000000	      -1.027	    -148.145	      -8.367	     -54.862	      -8.391	     -55.102	      -0.891	    -140.736
	40.500000000	      -1.014	    -148.967	      -8.447	     -55.725	      -8.464	     -55.851	      -0.876	    -141.448
	41.000000000	      -0.998	    -149.710	      -8.526	     -56.439	      -8.553	     -56.574	      -0.867	    -142.258
	41.500000000	      -0.979	    -150.268	      -8.601	     -57.138	      -8.629	     -57.278	      -0.852	    -142.978
	42.000000000	      -0.965	    -150.914	      -8.684	     -57.840	      -8.713	     -58.010	      -0.841	    -143.635
	42.500000000	      -0.964	    -151.608	      -8.770	     -58.619	      -8.789	     -58.686	      -0.810	    -144.182
	43.000000000	      -0.955	    -152.220	      -8.870	     -59.308	      -8.898	     -59.410	      -0.788	    -144.990
	43.500000000	      -0.932	    -152.782	      -8.952	     -59.888	      -8.970	     -60.077	      -0.784	    -145.823
	44.000000000	      -0.936	    -153.432	      -9.039	     -60.517	      -9.068	     -60.636	      -0.768	    -146.570
	44.500000000	      -0.939	    -154.124	      -9.126	     -61.196	      -9.139	     -61.335	      -0.752	    -147.217
	45.000000000	      -0.941	    -154.655	      -9.206	     -61.726	      -9.208	     -61.898	      -0.734	    -147.921
	45.500000000	      -0.911	    -155.961	      -9.466	     -62.816	      -9.485	     -62.951	      -0.723	    -149.152
	46.000000000	      -0.887	    -156.571	      -9.553	     -63.590	      -9.576	     -63.566	      -0.715	    -149.791
	46.500000000	      -0.867	    -157.236	      -9.652	     -64.246	      -9.681	     -64.380	      -0.682	    -150.383
	47.000000000	      -0.848	    -157.928	      -9.767	     -64.770	      -9.778	     -64.904	      -0.663	    -150.997
	47.500000000	      -0.851	    -158.478	      -9.861	     -65.348	      -9.873	     -65.455	      -0.656	    -151.641
	48.000000000	      -0.834	    -159.059	      -9.945	     -65.768	      -9.963	     -65.808	      -0.667	    -152.185
	48.500000000	      -0.822	    -159.688	     -10.009	     -66.252	     -10.042	     -66.452	      -0.643	    -152.737
	49.000000000	      -0.821	    -160.189	     -10.079	     -66.833	     -10.100	     -67.147	      -0.622	    -153.308
	49.500000000	      -0.825	    -160.605	     -10.181	     -67.664	     -10.179	     -67.859	      -0.600	    -154.049
	50.000000000	      -0.809	    -161.231	     -10.240	     -68.252	     -10.289	     -68.415	      -0.602	    -154.631
	50.500000000	      -0.799	    -161.760	     -10.376	     -68.607	     -10.380	     -68.896	      -0.615	    -155.279
	51.000000000	      -0.792	    -162.364	     -10.454	     -69.102	     -10.500	     -69.359	      -0.606	    -155.863
	51.500000000	      -0.790	    -162.696	     -10.547	     -69.338	     -10.580	     -69.627	      -0.623	    -156.544
	52.000000000	      -0.768	    -163.194	     -10.616	     -69.846	     -10.646	     -70.036	      -0.611	    -157.015
	52.500000000	      -0.767	    -163.790	     -10.701	     -70.483	     -10.705	     -70.591	      -0.593	    -157.366
	53.000000000	      -0.754	    -164.448	     -10.762	     -71.061	     -10.806	     -71.274	      -0.580	    -157.815
	53.500000000	      -0.756	    -164.787	     -10.844	     -71.425	     -10.878	     -71.661	      -0.554	    -158.407
	54.000000000	      -0.746	    -165.277	     -10.928	     -72.053	     -10.928	     -72.354	      -0.536	    -158.927
	54.500000000	      -0.741	    -165.899	     -11.013	     -72.479	     -11.033	     -72.612	      -0.522	    -159.405
	55.000000000	      -0.754	    -166.399	     -11.090	     -72.998	     -11.109	     -73.119	      -0.503	    -159.803
	55.500000000	      -0.753	    -166.867	     -11.122	     -73.390	     -11.164	     -73.656	      -0.489	    -160.415
	56.000000000	      -0.740	    -167.321	     -11.175	     -73.930	     -11.224	     -74.044	      -0.480	    -161.057
	56.500000000	      -0.720	    -167.755	     -11.289	     -74.379	     -11.339	     -74.866	      -0.488	    -161.722
	57.000000000	      -0.732	    -168.118	     -11.291	     -75.113	     -11.391	     -75.502	      -0.474	    -161.956
	57.500000000	      -0.715	    -168.566	     -11.425	     -75.687	     -11.473	     -76.151	      -0.476	    -162.648
	58.000000000	      -0.692	    -168.915	     -11.496	     -76.301	     -11.562	     -76.419	      -0.464	    -163.118
	58.500000000	      -0.675	    -169.327	     -11.584	     -76.802	     -11.614	     -77.097	      -0.461	    -163.642
	59.000000000	      -0.676	    -169.840	     -11.678	     -77.185	     -11.714	     -77.519	      -0.443	    -164.153
	59.500000000	      -0.660	    -170.262	     -11.754	     -77.699	     -11.719	     -77.878	      -0.447	    -164.596
	60.000000000	      -0.632	    -170.604	     -11.804	     -78.529	     -11.861	     -78.641	      -0.451	    -165.148
	60.500000000	      -0.599	    -171.146	     -11.897	     -78.911	     -11.875	     -79.358	      -0.466	    -165.358
	61.000000000	      -0.587	    -171.681	     -11.975	     -79.462	     -12.003	     -79.715	      -0.445	    -165.772
	61.500000000	      -0.582	    -172.212	     -12.057	     -80.016	     -12.068	     -80.459	      -0.416	    -166.172
	62.000000000	      -0.560	    -172.771	     -12.166	     -81.073	     -12.178	     -81.127	      -0.407	    -166.664
	62.500000000	      -0.564	    -173.218	     -12.279	     -81.536	     -12.304	     -81.921	      -0.420	    -167.145
	63.000000000	      -0.566	    -173.864	     -12.401	     -81.851	     -12.384	     -82.077	      -0.409	    -167.451
	63.500000000	      -0.561	    -174.215	     -12.419	     -82.167	     -12.488	     -82.724	      -0.397	    -168.087
	64.000000000	      -0.548	    -174.397	     -12.560	     -82.760	     -12.576	     -83.163	      -0.377	    -168.495
	64.500000000	      -0.511	    -174.848	     -12.687	     -83.259	     -12.669	     -83.555	      -0.376	    -168.672
	65.000000000	      -0.526	    -175.261	     -12.785	     -83.987	     -12.813	     -84.327	      -0.377	    -169.312
	65.500000000	      -0.543	    -175.838	     -12.871	     -84.585	     -12.903	     -84.667	      -0.387	    -170.085
	66.000000000	      -0.521	    -176.225	     -12.991	     -85.353	     -13.054	     -85.068	      -0.418	    -170.777
	66.500000000	      -0.532	    -176.662	     -13.151	     -85.246	     -13.142	     -85.044	      -0.434	    -171.082
	67.000000000	      -0.555	    -177.175	     -13.211	     -85.339	     -13.300	     -85.682	      -0.440	    -171.259
	67.500000000	      -0.582	    -177.964	     -13.389	     -85.848	     -13.380	     -85.966	      -0.478	    -171.574
	68.000000000	      -0.594	    -178.203	     -13.471	     -86.157	     -13.480	     -86.102	      -0.520	    -171.936
	68.500000000	      -0.610	    -178.501	     -13.554	     -86.327	     -13.571	     -86.415	      -0.530	    -172.187
	69.000000000	      -0.628	    -178.912	     -13.643	     -86.693	     -13.671	     -86.707	      -0.523	    -172.479
	69.500000000	      -0.628	    -179.325	     -13.744	     -86.920	     -13.773	     -86.901	      -0.530	    -172.717
	70.000000000	      -0.608	    -179.678	     -13.852	     -87.065	     -13.877	     -87.105	      -0.537	    -172.884
	70.500000000	      -0.595	     179.908	     -13.942	     -87.184	     -13.971	     -87.144	      -0.528	    -173.073
	71.000000000	      -0.590	     179.363	     -14.055	     -87.096	     -14.045	     -87.277	      -0.521	    -173.269
	71.500000000	      -0.580	     178.813	     -14.069	     -87.518	     -14.106	     -87.413	      -0.485	    -173.475
	72.000000000	      -0.586	     178.417	     -14.148	     -87.466	     -14.167	     -87.662	      -0.501	    -173.777
	72.500000000	      -0.601	     178.007	     -14.199	     -87.892	     -14.219	     -87.997	      -0.497	    -174.153
	73.000000000	      -0.610	     177.673	     -14.255	     -88.252	     -14.283	     -88.332	      -0.492	    -174.406
	73.500000000	      -0.623	     177.364	     -14.356	     -88.678	     -14.371	     -88.852	      -0.455	    -174.750
	74.000000000	      -0.635	     176.953	     -14.427	     -88.905	     -14.445	     -89.065	      -0.471	    -175.283
	74.500000000	      -0.669	     176.612	     -14.489	     -89.097	     -14.503	     -89.237	      -0.494	    -175.587
	75.000000000	      -0.703	     176.360	     -14.520	     -89.472	     -14.540	     -89.631	      -0.495	    -175.812
	75.500000000	      -0.740	     176.142	     -14.583	     -90.243	     -14.593	     -90.294	      -0.503	    -176.081
	76.000000000	      -0.759	     176.066	     -14.696	     -91.216	     -14.698	     -91.325	      -0.521	    -176.360
	76.500000000	      -0.759	     176.130	     -14.899	     -92.095	     -14.924	     -92.115	      -0.537	    -176.553
	77.000000000	      -0.738	     176.030	     -15.164	     -92.265	     -15.182	     -92.107	      -0.521	    -176.637
	77.500000000	      -0.692	     175.730	     -15.352	     -91.493	     -15.373	     -91.456	      -0.479	    -176.863
	78.000000000	      -0.640	     175.331	     -15.450	     -90.627	     -15.472	     -90.614	      -0.476	    -177.090
	78.500000000	      -0.600	     174.832	     -15.498	     -90.134	     -15.524	     -90.168	      -0.477	    -177.413
	79.000000000	      -0.613	     174.329	     -15.536	     -89.895	     -15.558	     -89.927	      -0.472	    -177.707
	79.500000000	      -0.613	     173.796	     -15.564	     -89.626	     -15.578	     -89.657	      -0.452	    -177.896
