!File name = EG0520U_1010_6x60_2SDBCB2EV_1915934D06_RC2943_Vg_N1.0V_Vd_0v.s2p
!Base file name = EG0520U_1010_6x60_2SDBCB2EV_1915934D06_RC2943
!Date = 8/23/2019
!Time = 1:01 PM
!Test duration(min) = 0.15
!Test = S-Parameters
!MPTS version = 8.91.5
!State File = C:\Data\PNA\20190821205423\S-Parameters_2019-08-23.sta
!Cal File = 
!ComputerName = CMPE-LAB-6
!Comments = 
!Attenuation = 0
!Z0 = 50
!Input Power(dBm) = -13.00
!Device ID = EG0520U_1010_6x60_2SDBCB2EV
!Row = 29
!Column = 43
!Technology = QPHT09
!Lot/Wafer = 1915934D06
!Gate Size = 360
!Mask = EG0520
!Cal Standards = GaAs BCB
!Cal Kit = EG2306
!Job Number = 20190821205423
!Device Type = FET
!set_Vg(v) = -1.000
!set_Vd(v) = 0.000
!file_name = EG0520U_1010_6x60_2SDBCB2EV_1915934D06_RC2943_Vg_N1.0V_Vd_0v.s2p
!Vd(V) = 0.000
!Vd(mA) = 0.002
!Vg(V) = -1.000
!Vg(mA) = -0.000
# GHz   S   DB   R   50
!%	Freq(GHz)	     s11(dB)	    s11(deg)	     s21(dB)	    s21(deg)	     s12(dB)	    s12(deg)	     s22(dB)	    s22(deg)
	0.500000000	      -0.005	      -4.576	     -28.269	      85.541	     -28.268	      85.637	      -0.011	      -3.975
	1.000000000	      -0.023	      -9.145	     -22.299	      81.449	     -22.294	      81.450	      -0.028	      -7.926
	1.500000000	      -0.048	     -13.674	     -18.847	      77.354	     -18.846	      77.308	      -0.053	     -11.846
	2.000000000	      -0.084	     -18.131	     -16.439	      73.249	     -16.436	      73.267	      -0.088	     -15.716
	2.500000000	      -0.129	     -22.516	     -14.617	      69.281	     -14.616	      69.222	      -0.132	     -19.520
	3.000000000	      -0.277	     -25.948	     -13.514	      64.556	     -13.516	      64.611	      -0.260	     -22.490
	3.500000000	      -0.348	     -29.989	     -12.344	      60.928	     -12.353	      60.876	      -0.328	     -25.984
	4.000000000	      -0.427	     -33.920	     -11.375	      57.274	     -11.382	      57.259	      -0.401	     -29.396
	4.500000000	      -0.512	     -37.735	     -10.551	      53.706	     -10.560	      53.700	      -0.477	     -32.727
	5.000000000	      -0.599	     -41.426	      -9.855	      50.274	      -9.862	      50.266	      -0.558	     -35.957
	5.500000000	      -0.684	     -45.025	      -9.253	      46.903	      -9.261	      46.916	      -0.637	     -39.088
	6.000000000	      -0.770	     -48.489	      -8.734	      43.682	      -8.741	      43.668	      -0.717	     -42.137
	6.500000000	      -0.856	     -51.822	      -8.289	      40.556	      -8.293	      40.532	      -0.796	     -45.084
	7.000000000	      -0.939	     -55.037	      -7.897	      37.539	      -7.904	      37.505	      -0.872	     -47.933
	7.500000000	      -1.017	     -58.166	      -7.557	      34.623	      -7.565	      34.586	      -0.946	     -50.691
	8.000000000	      -1.081	     -60.966	      -7.279	      32.005	      -7.286	      31.989	      -1.015	     -53.157
	8.500000000	      -1.160	     -63.866	      -7.019	      29.260	      -7.027	      29.232	      -1.085	     -55.746
	9.000000000	      -1.233	     -66.634	      -6.796	      26.598	      -6.803	      26.569	      -1.150	     -58.260
	9.500000000	      -1.299	     -69.307	      -6.598	      24.054	      -6.606	      24.023	      -1.212	     -60.676
	10.000000000	      -1.360	     -71.905	      -6.427	      21.594	      -6.434	      21.567	      -1.269	     -63.011
	10.500000000	      -1.416	     -74.411	      -6.275	      19.192	      -6.283	      19.138	      -1.320	     -65.274
	11.000000000	      -1.469	     -76.814	      -6.144	      16.897	      -6.153	      16.872	      -1.365	     -67.490
	11.500000000	      -1.520	     -79.135	      -6.032	      14.641	      -6.038	      14.575	      -1.406	     -69.646
	12.000000000	      -1.562	     -81.408	      -5.938	      12.481	      -5.946	      12.399	      -1.442	     -71.745
	12.500000000	      -1.599	     -83.591	      -5.859	      10.371	      -5.866	      10.282	      -1.478	     -73.826
	13.000000000	      -1.633	     -85.681	      -5.792	       8.312	      -5.802	       8.278	      -1.509	     -75.836
	13.500000000	      -1.660	     -87.732	      -5.734	       6.349	      -5.746	       6.297	      -1.532	     -77.751
	14.000000000	      -1.686	     -89.744	      -5.688	       4.419	      -5.700	       4.384	      -1.551	     -79.617
	14.500000000	      -1.705	     -91.679	      -5.652	       2.530	      -5.664	       2.484	      -1.569	     -81.492
	15.000000000	      -1.720	     -93.511	      -5.626	       0.716	      -5.637	       0.668	      -1.586	     -83.316
	15.500000000	      -1.733	     -95.291	      -5.608	      -1.058	      -5.618	      -1.152	      -1.596	     -85.077
	16.000000000	      -1.747	     -97.073	      -5.595	      -2.790	      -5.605	      -2.880	      -1.602	     -86.792
	16.500000000	      -1.757	     -98.800	      -5.590	      -4.481	      -5.602	      -4.580	      -1.608	     -88.465
	17.000000000	      -1.763	    -100.476	      -5.590	      -6.132	      -5.604	      -6.193	      -1.609	     -90.098
	17.500000000	      -1.766	    -102.071	      -5.600	      -7.740	      -5.611	      -7.837	      -1.612	     -91.751
	18.000000000	      -1.774	    -103.610	      -5.613	      -9.340	      -5.627	      -9.407	      -1.612	     -93.344
	18.500000000	      -1.776	    -105.149	      -5.628	     -10.805	      -5.642	     -10.882	      -1.606	     -94.884
	19.000000000	      -1.772	    -106.642	      -5.648	     -12.328	      -5.661	     -12.428	      -1.599	     -96.386
	19.500000000	      -1.761	    -108.089	      -5.675	     -13.806	      -5.690	     -13.874	      -1.591	     -97.856
	20.000000000	      -1.753	    -109.500	      -5.711	     -15.259	      -5.726	     -15.323	      -1.584	     -99.288
	20.500000000	      -1.745	    -110.887	      -5.742	     -16.638	      -5.759	     -16.704	      -1.566	    -100.737
	21.000000000	      -1.741	    -112.239	      -5.778	     -17.975	      -5.793	     -18.054	      -1.551	    -102.218
	21.500000000	      -1.728	    -113.585	      -5.816	     -19.336	      -5.832	     -19.399	      -1.537	    -103.557
	22.000000000	      -1.714	    -114.842	      -5.856	     -20.628	      -5.871	     -20.703	      -1.519	    -104.899
	22.500000000	      -1.697	    -116.053	      -5.897	     -21.940	      -5.912	     -22.008	      -1.513	    -106.236
	23.000000000	      -1.687	    -117.262	      -5.945	     -23.241	      -5.962	     -23.321	      -1.497	    -107.622
	23.500000000	      -1.670	    -118.429	      -6.003	     -24.551	      -6.018	     -24.624	      -1.480	    -109.007
	24.000000000	      -1.648	    -119.643	      -6.067	     -25.759	      -6.083	     -25.836	      -1.464	    -110.252
	24.500000000	      -1.618	    -120.827	      -6.124	     -26.878	      -6.135	     -26.956	      -1.450	    -111.440
	25.000000000	      -1.588	    -121.893	      -6.174	     -28.027	      -6.189	     -28.100	      -1.435	    -112.644
	25.500000000	      -1.568	    -123.068	      -6.227	     -29.171	      -6.245	     -29.238	      -1.415	    -113.910
	26.000000000	      -1.562	    -124.196	      -6.290	     -30.311	      -6.303	     -30.405	      -1.396	    -115.128
	26.500000000	      -1.543	    -125.260	      -6.348	     -31.456	      -6.364	     -31.524	      -1.372	    -116.293
	27.000000000	      -1.515	    -126.224	      -6.415	     -32.566	      -6.426	     -32.656	      -1.352	    -117.407
	27.500000000	      -1.486	    -127.149	      -6.488	     -33.595	      -6.505	     -33.664	      -1.336	    -118.464
	28.000000000	      -1.455	    -128.174	      -6.555	     -34.638	      -6.568	     -34.737	      -1.317	    -119.613
	28.500000000	      -1.433	    -129.298	      -6.619	     -35.655	      -6.631	     -35.711	      -1.296	    -120.800
	29.000000000	      -1.410	    -130.262	      -6.676	     -36.709	      -6.694	     -36.756	      -1.277	    -121.919
	29.500000000	      -1.382	    -131.228	      -6.748	     -37.764	      -6.762	     -37.841	      -1.256	    -122.983
	30.000000000	      -1.359	    -132.102	      -6.819	     -38.724	      -6.832	     -38.803	      -1.244	    -123.937
	30.500000000	      -1.339	    -133.069	      -6.882	     -39.709	      -6.901	     -39.804	      -1.229	    -125.016
	31.000000000	      -1.310	    -133.998	      -6.952	     -40.672	      -6.973	     -40.763	      -1.219	    -126.002
	31.500000000	      -1.281	    -134.994	      -7.042	     -41.618	      -7.060	     -41.712	      -1.200	    -126.992
	32.000000000	      -1.260	    -135.874	      -7.122	     -42.589	      -7.136	     -42.680	      -1.175	    -127.970
	32.500000000	      -1.256	    -136.710	      -7.187	     -43.504	      -7.205	     -43.566	      -1.148	    -128.891
	33.000000000	      -1.240	    -137.611	      -7.269	     -44.394	      -7.284	     -44.498	      -1.128	    -129.863
	33.500000000	      -1.215	    -138.508	      -7.354	     -45.310	      -7.371	     -45.433	      -1.113	    -130.837
	34.000000000	      -1.183	    -139.347	      -7.433	     -46.254	      -7.449	     -46.333	      -1.092	    -131.826
	34.500000000	      -1.160	    -140.269	      -7.516	     -47.162	      -7.530	     -47.284	      -1.077	    -132.723
	35.000000000	      -1.146	    -141.114	      -7.603	     -48.054	      -7.620	     -48.197	      -1.058	    -133.655
	35.500000000	      -1.135	    -141.928	      -7.694	     -48.848	      -7.705	     -49.001	      -1.042	    -134.534
	36.000000000	      -1.126	    -142.736	      -7.775	     -49.623	      -7.787	     -49.767	      -1.024	    -135.454
	36.500000000	      -1.100	    -143.478	      -7.853	     -50.401	      -7.870	     -50.581	      -1.010	    -136.332
	37.000000000	      -1.080	    -144.189	      -7.928	     -51.217	      -7.949	     -51.354	      -0.994	    -137.168
	37.500000000	      -1.074	    -144.973	      -8.007	     -52.044	      -8.031	     -52.268	      -0.983	    -137.984
	38.000000000	      -1.063	    -145.735	      -8.106	     -52.849	      -8.119	     -52.956	      -0.967	    -138.787
	38.500000000	      -1.040	    -146.564	      -8.197	     -53.682	      -8.212	     -53.891	      -0.953	    -139.614
	39.000000000	      -1.038	    -147.338	      -8.287	     -54.438	      -8.309	     -54.629	      -0.929	    -140.456
	39.500000000	      -1.045	    -147.965	      -8.385	     -55.173	      -8.409	     -55.381	      -0.903	    -141.296
	40.000000000	      -1.049	    -148.616	      -8.477	     -55.844	      -8.496	     -56.036	      -0.883	    -142.105
	40.500000000	      -1.045	    -149.347	      -8.566	     -56.463	      -8.592	     -56.642	      -0.866	    -142.868
	41.000000000	      -1.020	    -149.994	      -8.645	     -57.153	      -8.671	     -57.267	      -0.858	    -143.719
	41.500000000	      -1.000	    -150.494	      -8.734	     -57.788	      -8.760	     -58.006	      -0.856	    -144.456
	42.000000000	      -0.990	    -151.058	      -8.797	     -58.592	      -8.826	     -58.675	      -0.834	    -145.093
	42.500000000	      -0.994	    -151.735	      -8.880	     -59.225	      -8.896	     -59.488	      -0.816	    -145.694
	43.000000000	      -0.991	    -152.288	      -8.990	     -59.961	      -9.006	     -60.121	      -0.784	    -146.464
	43.500000000	      -0.958	    -152.812	      -9.069	     -60.577	      -9.081	     -60.807	      -0.787	    -147.314
	44.000000000	      -0.950	    -153.401	      -9.155	     -61.143	      -9.172	     -61.393	      -0.770	    -148.063
	44.500000000	      -0.948	    -154.061	      -9.232	     -61.805	      -9.261	     -61.940	      -0.753	    -148.730
	45.000000000	      -0.946	    -154.646	      -9.305	     -62.546	      -9.318	     -62.688	      -0.735	    -149.398
	45.500000000	      -0.915	    -155.981	      -9.583	     -63.483	      -9.600	     -63.678	      -0.728	    -150.633
	46.000000000	      -0.883	    -156.600	      -9.671	     -64.255	      -9.687	     -64.346	      -0.713	    -151.262
	46.500000000	      -0.871	    -157.305	      -9.782	     -64.894	      -9.797	     -65.175	      -0.678	    -151.843
	47.000000000	      -0.862	    -157.891	      -9.890	     -65.500	      -9.894	     -65.633	      -0.665	    -152.469
	47.500000000	      -0.857	    -158.470	      -9.972	     -66.149	     -10.040	     -66.306	      -0.660	    -153.122
	48.000000000	      -0.837	    -159.076	     -10.080	     -66.446	     -10.110	     -66.533	      -0.655	    -153.680
	48.500000000	      -0.830	    -159.683	     -10.146	     -66.796	     -10.164	     -67.049	      -0.653	    -154.209
	49.000000000	      -0.836	    -160.100	     -10.207	     -67.698	     -10.225	     -67.703	      -0.631	    -154.820
	49.500000000	      -0.833	    -160.542	     -10.285	     -68.137	     -10.304	     -68.438	      -0.614	    -155.442
	50.000000000	      -0.823	    -161.188	     -10.417	     -68.805	     -10.415	     -69.157	      -0.600	    -156.086
	50.500000000	      -0.803	    -161.697	     -10.525	     -69.413	     -10.522	     -69.536	      -0.601	    -156.851
	51.000000000	      -0.799	    -162.273	     -10.620	     -69.738	     -10.638	     -69.991	      -0.612	    -157.341
	51.500000000	      -0.795	    -162.656	     -10.682	     -70.083	     -10.730	     -70.166	      -0.601	    -157.940
	52.000000000	      -0.770	    -163.114	     -10.772	     -70.708	     -10.775	     -70.725	      -0.597	    -158.468
	52.500000000	      -0.771	    -163.753	     -10.834	     -71.166	     -10.854	     -71.379	      -0.585	    -158.906
	53.000000000	      -0.764	    -164.331	     -10.906	     -71.665	     -10.935	     -71.899	      -0.569	    -159.273
	53.500000000	      -0.766	    -164.747	     -11.001	     -72.245	     -11.031	     -72.467	      -0.539	    -159.879
	54.000000000	      -0.760	    -165.147	     -11.085	     -72.554	     -11.089	     -72.906	      -0.517	    -160.402
	54.500000000	      -0.765	    -165.764	     -11.164	     -73.097	     -11.203	     -73.248	      -0.511	    -160.924
	55.000000000	      -0.773	    -166.270	     -11.243	     -73.501	     -11.260	     -73.775	      -0.484	    -161.399
	55.500000000	      -0.773	    -166.698	     -11.308	     -73.927	     -11.317	     -74.042	      -0.485	    -161.907
	56.000000000	      -0.749	    -167.123	     -11.354	     -74.360	     -11.380	     -74.641	      -0.480	    -162.505
	56.500000000	      -0.741	    -167.455	     -11.402	     -74.448	     -11.460	     -75.212	      -0.482	    -163.144
	57.000000000	      -0.729	    -167.900	     -11.479	     -75.158	     -11.518	     -75.722	      -0.495	    -163.443
	57.500000000	      -0.726	    -168.266	     -11.578	     -76.135	     -11.598	     -76.367	      -0.485	    -164.090
	58.000000000	      -0.695	    -168.595	     -11.664	     -76.529	     -11.676	     -76.907	      -0.464	    -164.534
	58.500000000	      -0.671	    -169.043	     -11.714	     -77.238	     -11.734	     -77.445	      -0.458	    -165.113
	59.000000000	      -0.648	    -169.636	     -11.759	     -77.618	     -11.789	     -78.140	      -0.431	    -165.613
	59.500000000	      -0.638	    -170.042	     -11.852	     -78.320	     -11.909	     -78.573	      -0.412	    -166.063
	60.000000000	      -0.624	    -170.315	     -11.947	     -78.905	     -11.918	     -79.244	      -0.446	    -166.524
	60.500000000	      -0.582	    -170.929	     -12.004	     -79.725	     -12.052	     -79.706	      -0.448	    -166.820
	61.000000000	      -0.559	    -171.503	     -12.088	     -80.284	     -12.129	     -80.464	      -0.428	    -167.246
	61.500000000	      -0.567	    -171.975	     -12.206	     -80.943	     -12.199	     -81.206	      -0.418	    -167.685
	62.000000000	      -0.555	    -172.520	     -12.284	     -81.643	     -12.277	     -81.759	      -0.405	    -168.118
	62.500000000	      -0.563	    -172.946	     -12.444	     -82.200	     -12.465	     -82.454	      -0.418	    -168.552
	63.000000000	      -0.550	    -173.568	     -12.533	     -82.558	     -12.505	     -82.741	      -0.392	    -168.877
	63.500000000	      -0.545	    -173.966	     -12.627	     -82.945	     -12.649	     -83.078	      -0.394	    -169.464
	64.000000000	      -0.534	    -174.044	     -12.745	     -83.499	     -12.787	     -83.880	      -0.365	    -169.974
	64.500000000	      -0.499	    -174.311	     -12.758	     -84.143	     -12.819	     -83.844	      -0.366	    -170.135
	65.000000000	      -0.540	    -174.866	     -12.950	     -84.585	     -12.934	     -84.560	      -0.367	    -170.707
	65.500000000	      -0.527	    -175.436	     -13.036	     -84.896	     -13.100	     -85.540	      -0.379	    -171.467
	66.000000000	      -0.509	    -175.787	     -13.208	     -85.380	     -13.204	     -85.582	      -0.409	    -172.146
	66.500000000	      -0.527	    -176.129	     -13.391	     -85.885	     -13.356	     -86.094	      -0.424	    -172.259
	67.000000000	      -0.554	    -176.590	     -13.428	     -86.119	     -13.416	     -86.585	      -0.456	    -172.483
	67.500000000	      -0.573	    -177.546	     -13.553	     -86.358	     -13.567	     -86.403	      -0.485	    -172.964
	68.000000000	      -0.597	    -177.783	     -13.643	     -86.573	     -13.661	     -86.531	      -0.532	    -173.324
	68.500000000	      -0.613	    -178.033	     -13.714	     -86.621	     -13.759	     -86.820	      -0.538	    -173.484
	69.000000000	      -0.633	    -178.423	     -13.818	     -87.065	     -13.828	     -87.117	      -0.522	    -173.753
	69.500000000	      -0.628	    -178.801	     -13.932	     -87.214	     -13.951	     -87.305	      -0.534	    -173.967
	70.000000000	      -0.605	    -179.155	     -14.034	     -87.433	     -14.059	     -87.524	      -0.540	    -174.153
	70.500000000	      -0.586	    -179.534	     -14.120	     -87.474	     -14.151	     -87.488	      -0.533	    -174.294
	71.000000000	      -0.576	     179.984	     -14.199	     -87.343	     -14.237	     -87.545	      -0.524	    -174.415
	71.500000000	      -0.558	     179.428	     -14.246	     -87.740	     -14.286	     -87.708	      -0.487	    -174.694
	72.000000000	      -0.547	     179.039	     -14.332	     -87.689	     -14.350	     -87.890	      -0.502	    -175.030
	72.500000000	      -0.569	     178.633	     -14.390	     -87.990	     -14.393	     -88.213	      -0.501	    -175.384
	73.000000000	      -0.583	     178.295	     -14.442	     -88.235	     -14.458	     -88.501	      -0.490	    -175.656
	73.500000000	      -0.592	     178.012	     -14.525	     -88.693	     -14.545	     -88.900	      -0.452	    -175.984
	74.000000000	      -0.602	     177.604	     -14.602	     -88.800	     -14.614	     -89.048	      -0.464	    -176.511
	74.500000000	      -0.634	     177.255	     -14.643	     -88.933	     -14.664	     -89.191	      -0.488	    -176.807
	75.000000000	      -0.664	     177.000	     -14.662	     -89.201	     -14.679	     -89.440	      -0.479	    -176.995
	75.500000000	      -0.692	     176.789	     -14.690	     -89.903	     -14.707	     -90.033	      -0.486	    -177.324
	76.000000000	      -0.705	     176.666	     -14.759	     -90.882	     -14.762	     -91.016	      -0.501	    -177.647
	76.500000000	      -0.709	     176.663	     -14.909	     -92.015	     -14.927	     -92.053	      -0.537	    -177.898
	77.000000000	      -0.705	     176.556	     -15.157	     -92.710	     -15.172	     -92.771	      -0.531	    -177.969
	77.500000000	      -0.662	     176.320	     -15.418	     -92.398	     -15.436	     -92.458	      -0.506	    -178.089
	78.000000000	      -0.599	     176.015	     -15.580	     -91.499	     -15.597	     -91.550	      -0.491	    -178.253
	78.500000000	      -0.559	     175.574	     -15.661	     -90.820	     -15.678	     -90.918	      -0.494	    -178.557
	79.000000000	      -0.563	     175.086	     -15.714	     -90.368	     -15.724	     -90.497	      -0.476	    -178.814
	79.500000000	      -0.550	     174.607	     -15.732	     -90.014	     -15.747	     -90.069	      -0.463	    -179.097
