!File name = EG0520U_1010_6x60_2SDBCB2EV_1915934D06_RC2943_3Vd_27mA.s2p
!Base file name = EG0520U_1010_6x60_2SDBCB2EV_1915934D06_RC2943
!Date = 8/23/2019
!Time = 1:03 PM
!Test duration(min) = 0.15
!Test = S-Parameters
!MPTS version = 8.91.5
!State File = C:\Data\PNA\20190821205423\S-Parameters_2019-08-23.sta
!Cal File = 
!ComputerName = CMPE-LAB-6
!Comments = 
!Attenuation = 0
!Z0 = 50
!Input Power(dBm) = -13.00
!Device ID = EG0520U_1010_6x60_2SDBCB2EV
!Row = 29
!Column = 43
!Technology = QPHT09
!Lot/Wafer = 1915934D06
!Gate Size = 360
!Mask = EG0520
!Cal Standards = GaAs BCB
!Cal Kit = EG2306
!Job Number = 20190821205423
!Device Type = FET
!set_Vg(v) = -1.500
!set_Vd(v) = 3.000
!set_Vd(mA) = 27.000
!file_name = EG0520U_1010_6x60_2SDBCB2EV_1915934D06_RC2943_3Vd_27mA.s2p
!Vd(V) = 3.000
!Vd(mA) = 27.004
!Vg(V) = -0.561
!Vg(mA) = -0.003
# GHz   S   DB   R   50
!%	Freq(GHz)	     s11(dB)	    s11(deg)	     s21(dB)	    s21(deg)	     s12(dB)	    s12(deg)	     s22(dB)	    s22(deg)
	0.500000000	      -0.049	     -13.673	      20.980	     171.584	     -38.282	      81.442	      -8.655	     -14.832
	1.000000000	      -0.134	     -27.073	      20.628	     163.275	     -32.478	      74.249	      -8.654	     -28.528
	1.500000000	      -0.172	     -39.804	      20.317	     156.454	     -29.289	      67.171	      -8.562	     -41.684
	2.000000000	      -0.322	     -51.564	      20.060	     149.079	     -27.240	      60.485	      -8.510	     -54.571
	2.500000000	      -0.417	     -62.528	      19.661	     142.831	     -25.831	      54.821	      -8.583	     -65.038
	3.000000000	      -0.811	     -70.041	      19.002	     137.647	     -24.988	      50.468	      -8.929	     -69.465
	3.500000000	      -0.933	     -78.750	      18.496	     132.584	     -24.191	      46.034	      -8.940	     -77.491
	4.000000000	      -1.039	     -86.481	      17.967	     128.116	     -23.586	      42.079	      -8.943	     -84.569
	4.500000000	      -1.161	     -93.369	      17.427	     123.859	     -23.130	      38.465	      -8.940	     -91.081
	5.000000000	      -1.239	     -99.531	      16.902	     120.221	     -22.769	      35.348	      -8.952	     -96.608
	5.500000000	      -1.319	    -105.156	      16.391	     116.766	     -22.485	      32.614	      -8.977	    -101.515
	6.000000000	      -1.389	    -110.192	      15.889	     113.631	     -22.252	      30.089	      -8.961	    -105.752
	6.500000000	      -1.444	    -114.681	      15.401	     110.829	     -22.061	      27.818	      -8.948	    -109.539
	7.000000000	      -1.496	    -118.738	      14.928	     108.163	     -21.904	      25.793	      -8.930	    -112.858
	7.500000000	      -1.533	    -122.419	      14.469	     105.727	     -21.785	      23.920	      -8.908	    -115.893
	8.000000000	      -1.551	    -125.532	      14.047	     103.583	     -21.660	      22.414	      -8.913	    -117.904
	8.500000000	      -1.585	    -128.646	      13.621	     101.455	     -21.574	      20.825	      -8.893	    -120.329
	9.000000000	      -1.619	    -131.438	      13.201	      99.462	     -21.499	      19.317	      -8.864	    -122.465
	9.500000000	      -1.643	    -134.054	      12.810	      97.521	     -21.443	      17.903	      -8.832	    -124.390
	10.000000000	      -1.660	    -136.469	      12.429	      95.717	     -21.405	      16.553	      -8.799	    -126.222
	10.500000000	      -1.684	    -138.742	      12.062	      93.944	     -21.377	      15.397	      -8.766	    -127.848
	11.000000000	      -1.699	    -140.820	      11.707	      92.307	     -21.350	      14.288	      -8.734	    -129.292
	11.500000000	      -1.720	    -142.776	      11.359	      90.708	     -21.339	      13.235	      -8.696	    -130.636
	12.000000000	      -1.736	    -144.595	      11.027	      89.186	     -21.334	      12.308	      -8.652	    -131.840
	12.500000000	      -1.745	    -146.283	      10.704	      87.738	     -21.326	      11.399	      -8.602	    -133.039
	13.000000000	      -1.759	    -147.870	      10.390	      86.305	     -21.329	      10.552	      -8.558	    -134.114
	13.500000000	      -1.768	    -149.368	      10.088	      84.947	     -21.330	       9.684	      -8.502	    -135.005
	14.000000000	      -1.777	    -150.824	       9.794	      83.613	     -21.345	       8.912	      -8.448	    -135.861
	14.500000000	      -1.782	    -152.141	       9.509	      82.309	     -21.360	       8.179	      -8.400	    -136.782
	15.000000000	      -1.788	    -153.318	       9.227	      81.066	     -21.379	       7.536	      -8.354	    -137.589
	15.500000000	      -1.797	    -154.504	       8.955	      79.830	     -21.395	       6.935	      -8.303	    -138.262
	16.000000000	      -1.801	    -155.651	       8.692	      78.630	     -21.401	       6.316	      -8.240	    -138.906
	16.500000000	      -1.806	    -156.766	       8.433	      77.443	     -21.430	       5.666	      -8.182	    -139.533
	17.000000000	      -1.808	    -157.814	       8.183	      76.295	     -21.461	       5.098	      -8.129	    -140.141
	17.500000000	      -1.815	    -158.750	       7.936	      75.168	     -21.480	       4.600	      -8.069	    -140.729
	18.000000000	      -1.826	    -159.680	       7.698	      74.066	     -21.516	       4.034	      -8.009	    -141.324
	18.500000000	      -1.826	    -160.590	       7.466	      72.985	     -21.531	       3.459	      -7.938	    -141.829
	19.000000000	      -1.826	    -161.465	       7.236	      71.908	     -21.574	       2.880	      -7.877	    -142.325
	19.500000000	      -1.824	    -162.288	       7.013	      70.875	     -21.639	       2.424	      -7.827	    -142.815
	20.000000000	      -1.832	    -163.054	       6.796	      69.868	     -21.702	       2.231	      -7.775	    -143.216
	20.500000000	      -1.833	    -163.792	       6.590	      68.849	     -21.717	       1.986	      -7.705	    -143.604
	21.000000000	      -1.834	    -164.516	       6.381	      67.837	     -21.715	       1.601	      -7.633	    -144.049
	21.500000000	      -1.826	    -165.277	       6.175	      66.834	     -21.753	       1.165	      -7.568	    -144.425
	22.000000000	      -1.825	    -165.884	       5.975	      65.868	     -21.791	       0.715	      -7.499	    -144.806
	22.500000000	      -1.823	    -166.534	       5.776	      64.880	     -21.815	       0.225	      -7.438	    -145.231
	23.000000000	      -1.825	    -167.196	       5.579	      63.923	     -21.876	      -0.307	      -7.376	    -145.722
	23.500000000	      -1.826	    -167.791	       5.388	      63.036	     -21.982	      -0.543	      -7.318	    -146.173
	24.000000000	      -1.825	    -168.388	       5.208	      62.140	     -22.049	      -0.464	      -7.262	    -146.466
	24.500000000	      -1.814	    -168.864	       5.032	      61.214	     -22.065	      -0.566	      -7.199	    -146.676
	25.000000000	      -1.799	    -169.406	       4.854	      60.248	     -22.026	      -0.892	      -7.130	    -146.943
	25.500000000	      -1.791	    -169.974	       4.678	      59.341	     -22.082	      -1.208	      -7.059	    -147.313
	26.000000000	      -1.794	    -170.580	       4.498	      58.439	     -22.134	      -1.709	      -6.978	    -147.716
	26.500000000	      -1.793	    -171.094	       4.327	      57.554	     -22.172	      -2.042	      -6.907	    -148.063
	27.000000000	      -1.783	    -171.486	       4.159	      56.708	     -22.263	      -2.399	      -6.847	    -148.344
	27.500000000	      -1.778	    -171.875	       4.001	      55.908	     -22.333	      -2.324	      -6.795	    -148.536
	28.000000000	      -1.767	    -172.411	       3.850	      55.034	     -22.390	      -2.306	      -6.724	    -148.960
	28.500000000	      -1.756	    -172.941	       3.694	      54.074	     -22.376	      -2.273	      -6.641	    -149.294
	29.000000000	      -1.748	    -173.380	       3.532	      53.177	     -22.390	      -2.657	      -6.570	    -149.658
	29.500000000	      -1.740	    -173.812	       3.372	      52.323	     -22.465	      -3.103	      -6.510	    -150.012
	30.000000000	      -1.734	    -174.205	       3.219	      51.525	     -22.529	      -3.265	      -6.451	    -150.296
	30.500000000	      -1.727	    -174.669	       3.069	      50.674	     -22.566	      -3.729	      -6.388	    -150.640
	31.000000000	      -1.713	    -175.126	       2.917	      49.819	     -22.630	      -3.980	      -6.337	    -150.993
	31.500000000	      -1.702	    -175.580	       2.778	      49.065	     -22.740	      -3.897	      -6.282	    -151.277
	32.000000000	      -1.699	    -175.966	       2.633	      48.187	     -22.781	      -3.602	      -6.214	    -151.513
	32.500000000	      -1.709	    -176.348	       2.488	      47.321	     -22.760	      -3.976	      -6.139	    -151.748
	33.000000000	      -1.704	    -176.785	       2.344	      46.536	     -22.802	      -3.988	      -6.080	    -152.036
	33.500000000	      -1.693	    -177.177	       2.198	      45.749	     -22.903	      -4.344	      -6.017	    -152.419
	34.000000000	      -1.675	    -177.539	       2.057	      44.941	     -22.917	      -4.660	      -5.951	    -152.803
	34.500000000	      -1.673	    -177.894	       1.909	      44.039	     -23.020	      -4.834	      -5.877	    -153.075
	35.000000000	      -1.668	    -178.353	       1.765	      43.329	     -23.078	      -4.762	      -5.819	    -153.500
	35.500000000	      -1.667	    -178.739	       1.642	      42.522	     -23.117	      -4.642	      -5.766	    -153.712
	36.000000000	      -1.660	    -179.107	       1.507	      41.723	     -23.135	      -4.614	      -5.698	    -154.015
	36.500000000	      -1.648	    -179.386	       1.370	      40.930	     -23.159	      -4.830	      -5.632	    -154.379
	37.000000000	      -1.648	    -179.681	       1.234	      40.169	     -23.192	      -5.109	      -5.573	    -154.671
	37.500000000	      -1.650	     179.924	       1.098	      39.414	     -23.268	      -5.282	      -5.527	    -154.987
	38.000000000	      -1.644	     179.582	       0.964	      38.685	     -23.322	      -5.448	      -5.470	    -155.257
	38.500000000	      -1.631	     179.202	       0.828	      37.958	     -23.385	      -5.838	      -5.406	    -155.672
	39.000000000	      -1.632	     178.873	       0.695	      37.239	     -23.454	      -5.993	      -5.350	    -155.979
	39.500000000	      -1.638	     178.625	       0.569	      36.588	     -23.557	      -5.611	      -5.291	    -156.313
	40.000000000	      -1.645	     178.276	       0.452	      35.899	     -23.638	      -5.432	      -5.219	    -156.561
	40.500000000	      -1.642	     177.929	       0.331	      35.164	     -23.638	      -5.383	      -5.146	    -156.870
	41.000000000	      -1.622	     177.647	       0.214	      34.415	     -23.698	      -5.334	      -5.096	    -157.265
	41.500000000	      -1.615	     177.478	       0.096	      33.714	     -23.727	      -5.411	      -5.053	    -157.533
	42.000000000	      -1.617	     177.192	      -0.027	      32.995	     -23.749	      -5.760	      -4.989	    -157.774
	42.500000000	      -1.632	     176.823	      -0.149	      32.326	     -23.839	      -6.207	      -4.933	    -157.927
	43.000000000	      -1.632	     176.621	      -0.258	      31.733	     -23.952	      -5.706	      -4.878	    -158.249
	43.500000000	      -1.616	     176.417	      -0.370	      30.953	     -23.908	      -5.070	      -4.827	    -158.623
	44.000000000	      -1.615	     176.167	      -0.485	      30.217	     -24.018	      -5.572	      -4.762	    -158.969
	44.500000000	      -1.619	     175.765	      -0.606	      29.493	     -23.992	      -5.372	      -4.704	    -159.308
	45.000000000	      -1.626	     175.481	      -0.723	      28.793	     -24.025	      -5.422	      -4.645	    -159.702
	45.500000000	      -1.571	     175.088	      -0.999	      28.206	     -24.277	      -5.849	      -4.506	    -160.546
	46.000000000	      -1.552	     174.853	      -1.124	      27.610	     -24.429	      -5.653	      -4.461	    -160.892
	46.500000000	      -1.542	     174.472	      -1.232	      27.038	     -24.564	      -5.506	      -4.390	    -161.048
	47.000000000	      -1.542	     174.170	      -1.334	      26.313	     -24.559	      -5.737	      -4.339	    -161.256
	47.500000000	      -1.541	     173.946	      -1.447	      25.666	     -24.498	      -4.068	      -4.284	    -161.568
	48.000000000	      -1.521	     173.656	      -1.557	      24.962	     -24.523	      -4.960	      -4.253	    -161.746
	48.500000000	      -1.517	     173.336	      -1.666	      24.326	     -24.520	      -5.164	      -4.183	    -162.108
	49.000000000	      -1.524	     173.136	      -1.780	      23.686	     -24.540	      -5.655	      -4.136	    -162.553
	49.500000000	      -1.536	     172.932	      -1.901	      23.087	     -24.744	      -5.268	      -4.077	    -162.751
	50.000000000	      -1.521	     172.686	      -2.018	      22.566	     -24.880	      -4.955	      -4.038	    -163.108
	50.500000000	      -1.511	     172.356	      -2.118	      21.872	     -24.987	      -5.782	      -4.026	    -163.568
	51.000000000	      -1.498	     172.151	      -2.217	      21.316	     -25.037	      -3.890	      -3.991	    -163.881
	51.500000000	      -1.489	     171.984	      -2.322	      20.701	     -24.919	      -3.889	      -3.942	    -164.242
	52.000000000	      -1.475	     171.728	      -2.415	      20.045	     -24.883	      -4.659	      -3.910	    -164.495
	52.500000000	      -1.469	     171.413	      -2.531	      19.424	     -24.874	      -5.117	      -3.867	    -164.582
	53.000000000	      -1.467	     171.028	      -2.635	      18.891	     -25.080	      -5.171	      -3.823	    -164.679
	53.500000000	      -1.456	     170.943	      -2.735	      18.334	     -25.015	      -4.092	      -3.760	    -165.116
	54.000000000	      -1.453	     170.680	      -2.826	      17.821	     -25.050	      -4.099	      -3.710	    -165.256
	54.500000000	      -1.448	     170.273	      -2.918	      17.208	     -25.108	      -5.081	      -3.650	    -165.605
	55.000000000	      -1.462	     169.943	      -2.999	      16.548	     -25.151	      -4.306	      -3.611	    -165.758
	55.500000000	      -1.442	     169.652	      -3.086	      15.914	     -25.123	      -3.790	      -3.578	    -166.129
	56.000000000	      -1.436	     169.342	      -3.177	      15.348	     -25.127	      -5.006	      -3.531	    -166.588
	56.500000000	      -1.444	     169.208	      -3.294	      14.721	     -24.946	      -5.462	      -3.494	    -167.173
	57.000000000	      -1.450	     169.074	      -3.380	      14.106	     -25.347	      -4.827	      -3.485	    -167.194
	57.500000000	      -1.434	     168.847	      -3.505	      13.470	     -25.310	      -4.508	      -3.449	    -167.557
	58.000000000	      -1.406	     168.763	      -3.587	      12.852	     -25.477	      -5.013	      -3.414	    -167.840
	58.500000000	      -1.392	     168.515	      -3.656	      12.283	     -25.479	      -4.704	      -3.382	    -168.103
	59.000000000	      -1.395	     168.196	      -3.729	      11.531	     -25.354	      -3.931	      -3.339	    -168.296
	59.500000000	      -1.400	     167.995	      -3.841	      10.926	     -25.516	      -4.676	      -3.294	    -168.556
	60.000000000	      -1.387	     167.870	      -3.948	      10.249	     -25.586	      -5.362	      -3.304	    -169.015
	60.500000000	      -1.350	     167.587	      -4.035	       9.684	     -25.546	      -3.844	      -3.284	    -169.045
	61.000000000	      -1.327	     167.350	      -4.144	       9.199	     -25.722	      -3.629	      -3.254	    -169.252
	61.500000000	      -1.319	     167.103	      -4.232	       8.627	     -25.653	      -4.210	      -3.218	    -169.549
	62.000000000	      -1.298	     166.781	      -4.317	       8.157	     -25.760	      -4.538	      -3.221	    -169.730
	62.500000000	      -1.328	     166.452	      -4.400	       7.451	     -25.918	      -3.481	      -3.193	    -169.604
	63.000000000	      -1.307	     166.084	      -4.478	       6.916	     -25.771	      -4.282	      -3.120	    -169.923
	63.500000000	      -1.292	     165.813	      -4.553	       6.052	     -25.849	      -2.018	      -3.083	    -170.120
	64.000000000	      -1.280	     165.968	      -4.632	       5.324	     -25.618	      -3.028	      -3.052	    -170.197
	64.500000000	      -1.255	     165.845	      -4.712	       4.485	     -25.740	      -4.478	      -2.994	    -170.246
	65.000000000	      -1.271	     165.398	      -4.799	       3.626	     -25.902	      -3.568	      -2.939	    -170.373
	65.500000000	      -1.266	     165.000	      -4.947	       3.208	     -25.898	      -5.014	      -2.896	    -170.950
	66.000000000	      -1.251	     164.643	      -5.063	       2.372	     -25.915	      -3.121	      -2.871	    -171.467
	66.500000000	      -1.272	     164.438	      -5.158	       1.689	     -25.852	      -3.005	      -2.833	    -171.083
	67.000000000	      -1.330	     164.215	      -5.249	       1.104	     -25.918	      -3.880	      -2.843	    -171.321
	67.500000000	      -1.311	     163.481	      -5.409	       0.294	     -25.879	      -4.124	      -2.831	    -171.946
	68.000000000	      -1.344	     163.383	      -5.522	      -0.369	     -25.872	      -4.200	      -2.849	    -172.229
	68.500000000	      -1.370	     163.196	      -5.608	      -0.765	     -25.879	      -4.251	      -2.824	    -172.344
	69.000000000	      -1.398	     163.007	      -5.743	      -1.336	     -25.905	      -5.017	      -2.758	    -172.521
	69.500000000	      -1.394	     162.789	      -5.831	      -1.728	     -25.986	      -4.924	      -2.736	    -172.652
	70.000000000	      -1.376	     162.631	      -5.955	      -2.175	     -26.099	      -4.370	      -2.706	    -172.752
	70.500000000	      -1.357	     162.459	      -6.026	      -2.569	     -26.035	      -4.197	      -2.668	    -172.886
	71.000000000	      -1.351	     162.260	      -6.120	      -2.932	     -26.045	      -4.179	      -2.640	    -173.085
	71.500000000	      -1.316	     162.088	      -6.247	      -3.414	     -25.971	      -4.439	      -2.563	    -173.262
	72.000000000	      -1.308	     161.803	      -6.333	      -3.917	     -25.974	      -5.181	      -2.575	    -173.491
	72.500000000	      -1.324	     161.440	      -6.427	      -4.536	     -26.007	      -5.729	      -2.545	    -173.776
	73.000000000	      -1.345	     161.268	      -6.520	      -5.116	     -26.115	      -6.215	      -2.508	    -173.916
	73.500000000	      -1.359	     161.154	      -6.620	      -5.691	     -26.255	      -6.349	      -2.438	    -174.179
	74.000000000	      -1.362	     160.904	      -6.713	      -6.158	     -26.313	      -6.020	      -2.432	    -174.727
	74.500000000	      -1.389	     160.687	      -6.795	      -6.645	     -26.332	      -6.026	      -2.447	    -174.912
	75.000000000	      -1.416	     160.604	      -6.901	      -7.280	     -26.396	      -6.132	      -2.436	    -175.037
	75.500000000	      -1.439	     160.590	      -7.016	      -7.904	     -26.531	      -6.549	      -2.425	    -175.237
	76.000000000	      -1.432	     160.658	      -7.143	      -8.452	     -26.817	      -6.411	      -2.426	    -175.352
	76.500000000	      -1.426	     160.703	      -7.294	      -8.857	     -27.183	      -4.438	      -2.432	    -175.299
	77.000000000	      -1.412	     160.688	      -7.435	      -8.948	     -27.278	      -0.788	      -2.386	    -175.207
	77.500000000	      -1.349	     160.657	      -7.513	      -8.667	     -26.921	       2.872	      -2.313	    -175.210
	78.000000000	      -1.265	     160.483	      -7.539	      -8.604	     -26.382	       4.125	      -2.260	    -175.309
	78.500000000	      -1.209	     160.082	      -7.560	      -8.983	     -25.973	       3.798	      -2.214	    -175.619
	79.000000000	      -1.202	     159.472	      -7.600	      -9.511	     -25.637	       2.729	      -2.163	    -175.870
	79.500000000	      -1.209	     158.911	      -7.622	     -10.176	     -25.362	       1.459	      -2.124	    -176.157
