!File name = EG0520U_1010_6x60_2SDBCB2EV_1915934D06_RC2943_Vg_N1.5V_Vd_0v.s2p
!Base file name = EG0520U_1010_6x60_2SDBCB2EV_1915934D06_RC2943
!Date = 8/23/2019
!Time = 1:01 PM
!Test duration(min) = 0.15
!Test = S-Parameters
!MPTS version = 8.91.5
!State File = C:\Data\PNA\20190821205423\S-Parameters_2019-08-23.sta
!Cal File = 
!ComputerName = CMPE-LAB-6
!Comments = 
!Attenuation = 0
!Z0 = 50
!Input Power(dBm) = -13.00
!Device ID = EG0520U_1010_6x60_2SDBCB2EV
!Row = 29
!Column = 43
!Technology = QPHT09
!Lot/Wafer = 1915934D06
!Gate Size = 360
!Mask = EG0520
!Cal Standards = GaAs BCB
!Cal Kit = EG2306
!Job Number = 20190821205423
!Device Type = FET
!set_Vg(v) = -1.500
!set_Vd(v) = 0.000
!file_name = EG0520U_1010_6x60_2SDBCB2EV_1915934D06_RC2943_Vg_N1.5V_Vd_0v.s2p
!Vd(V) = 0.000
!Vd(mA) = 0.002
!Vg(V) = -1.500
!Vg(mA) = -0.001
# GHz   S   DB   R   50
!%	Freq(GHz)	     s11(dB)	    s11(deg)	     s21(dB)	    s21(deg)	     s12(dB)	    s12(deg)	     s22(dB)	    s22(deg)
	0.500000000	      -0.005	      -4.067	     -29.343	      85.799	     -29.343	      85.885	      -0.004	      -3.671
	1.000000000	      -0.019	      -8.140	     -23.361	      82.174	     -23.365	      82.190	      -0.017	      -7.329
	1.500000000	      -0.037	     -12.177	     -19.896	      78.504	     -19.901	      78.468	      -0.035	     -10.958
	2.000000000	      -0.065	     -16.169	     -17.469	      74.776	     -17.474	      74.808	      -0.062	     -14.555
	2.500000000	      -0.100	     -20.111	     -15.625	      71.174	     -15.630	      71.151	      -0.096	     -18.105
	3.000000000	      -0.227	     -23.212	     -14.490	      66.717	     -14.496	      66.727	      -0.210	     -20.898
	3.500000000	      -0.286	     -26.864	     -13.293	      63.373	     -13.306	      63.353	      -0.266	     -24.184
	4.000000000	      -0.351	     -30.448	     -12.292	      59.994	     -12.305	      60.000	      -0.327	     -27.404
	4.500000000	      -0.421	     -33.936	     -11.435	      56.645	     -11.449	      56.690	      -0.391	     -30.565
	5.000000000	      -0.495	     -37.335	     -10.703	      53.440	     -10.716	      53.440	      -0.458	     -33.639
	5.500000000	      -0.567	     -40.658	     -10.068	      50.316	     -10.079	      50.332	      -0.526	     -36.641
	6.000000000	      -0.643	     -43.889	      -9.514	      47.265	      -9.525	      47.259	      -0.595	     -39.579
	6.500000000	      -0.718	     -47.004	      -9.033	      44.296	      -9.042	      44.282	      -0.665	     -42.424
	7.000000000	      -0.792	     -50.029	      -8.604	      41.378	      -8.618	      41.386	      -0.734	     -45.187
	7.500000000	      -0.862	     -52.984	      -8.231	      38.620	      -8.243	      38.592	      -0.800	     -47.876
	8.000000000	      -0.922	     -55.647	      -7.923	      36.102	      -7.933	      36.094	      -0.864	     -50.284
	8.500000000	      -0.996	     -58.407	      -7.629	      33.445	      -7.640	      33.431	      -0.930	     -52.825
	9.000000000	      -1.066	     -61.071	      -7.374	      30.854	      -7.384	      30.835	      -0.994	     -55.292
	9.500000000	      -1.129	     -63.633	      -7.144	      28.380	      -7.155	      28.355	      -1.053	     -57.672
	10.000000000	      -1.189	     -66.156	      -6.943	      25.970	      -6.954	      25.940	      -1.111	     -59.978
	10.500000000	      -1.245	     -68.587	      -6.763	      23.617	      -6.775	      23.598	      -1.163	     -62.219
	11.000000000	      -1.301	     -70.928	      -6.604	      21.353	      -6.616	      21.300	      -1.210	     -64.410
	11.500000000	      -1.352	     -73.204	      -6.463	      19.091	      -6.477	      19.109	      -1.253	     -66.542
	12.000000000	      -1.399	     -75.425	      -6.345	      16.989	      -6.357	      16.919	      -1.293	     -68.623
	12.500000000	      -1.441	     -77.580	      -6.241	      14.895	      -6.253	      14.856	      -1.333	     -70.698
	13.000000000	      -1.479	     -79.644	      -6.150	      12.850	      -6.164	      12.822	      -1.369	     -72.698
	13.500000000	      -1.512	     -81.669	      -6.070	      10.903	      -6.084	      10.860	      -1.398	     -74.610
	14.000000000	      -1.544	     -83.669	      -6.003	       8.974	      -6.015	       8.943	      -1.422	     -76.469
	14.500000000	      -1.569	     -85.599	      -5.944	       7.088	      -5.957	       7.052	      -1.446	     -78.332
	15.000000000	      -1.591	     -87.429	      -5.899	       5.270	      -5.911	       5.231	      -1.469	     -80.149
	15.500000000	      -1.610	     -89.221	      -5.860	       3.484	      -5.871	       3.411	      -1.486	     -81.904
	16.000000000	      -1.630	     -90.995	      -5.828	       1.760	      -5.839	       1.672	      -1.497	     -83.618
	16.500000000	      -1.647	     -92.731	      -5.804	       0.060	      -5.817	      -0.031	      -1.510	     -85.285
	17.000000000	      -1.660	     -94.421	      -5.786	      -1.606	      -5.800	      -1.699	      -1.520	     -86.923
	17.500000000	      -1.670	     -96.023	      -5.779	      -3.219	      -5.794	      -3.265	      -1.529	     -88.569
	18.000000000	      -1.682	     -97.583	      -5.774	      -4.835	      -5.790	      -4.889	      -1.535	     -90.153
	18.500000000	      -1.692	     -99.139	      -5.774	      -6.313	      -5.789	      -6.379	      -1.534	     -91.700
	19.000000000	      -1.695	    -100.648	      -5.777	      -7.835	      -5.791	      -7.936	      -1.534	     -93.200
	19.500000000	      -1.692	    -102.122	      -5.790	      -9.342	      -5.805	      -9.427	      -1.532	     -94.662
	20.000000000	      -1.688	    -103.548	      -5.812	     -10.770	      -5.826	     -10.857	      -1.531	     -96.095
	20.500000000	      -1.686	    -104.958	      -5.828	     -12.159	      -5.844	     -12.247	      -1.519	     -97.540
	21.000000000	      -1.689	    -106.339	      -5.850	     -13.556	      -5.865	     -13.615	      -1.511	     -98.984
	21.500000000	      -1.681	    -107.717	      -5.874	     -14.925	      -5.890	     -14.988	      -1.501	    -100.357
	22.000000000	      -1.674	    -109.001	      -5.899	     -16.243	      -5.914	     -16.310	      -1.488	    -101.702
	22.500000000	      -1.660	    -110.250	      -5.928	     -17.567	      -5.943	     -17.631	      -1.487	    -103.042
	23.000000000	      -1.656	    -111.484	      -5.962	     -18.894	      -5.979	     -18.964	      -1.476	    -104.429
	23.500000000	      -1.643	    -112.681	      -6.008	     -20.212	      -6.024	     -20.281	      -1.465	    -105.778
	24.000000000	      -1.628	    -113.914	      -6.060	     -21.435	      -6.077	     -21.512	      -1.452	    -107.053
	24.500000000	      -1.600	    -115.089	      -6.100	     -22.583	      -6.119	     -22.649	      -1.440	    -108.254
	25.000000000	      -1.573	    -116.232	      -6.142	     -23.719	      -6.158	     -23.807	      -1.430	    -109.471
	25.500000000	      -1.561	    -117.443	      -6.187	     -24.907	      -6.201	     -24.980	      -1.416	    -110.698
	26.000000000	      -1.555	    -118.599	      -6.235	     -26.063	      -6.252	     -26.139	      -1.398	    -111.952
	26.500000000	      -1.540	    -119.704	      -6.283	     -27.253	      -6.300	     -27.315	      -1.377	    -113.100
	27.000000000	      -1.515	    -120.692	      -6.336	     -28.369	      -6.353	     -28.444	      -1.361	    -114.251
	27.500000000	      -1.488	    -121.661	      -6.403	     -29.416	      -6.418	     -29.499	      -1.349	    -115.329
	28.000000000	      -1.462	    -122.729	      -6.458	     -30.482	      -6.469	     -30.562	      -1.330	    -116.457
	28.500000000	      -1.440	    -123.852	      -6.509	     -31.517	      -6.525	     -31.560	      -1.311	    -117.645
	29.000000000	      -1.417	    -124.869	      -6.563	     -32.580	      -6.578	     -32.649	      -1.297	    -118.784
	29.500000000	      -1.395	    -125.858	      -6.621	     -33.663	      -6.638	     -33.723	      -1.279	    -119.809
	30.000000000	      -1.374	    -126.783	      -6.687	     -34.676	      -6.698	     -34.762	      -1.266	    -120.865
	30.500000000	      -1.355	    -127.764	      -6.740	     -35.677	      -6.758	     -35.727	      -1.255	    -121.843
	31.000000000	      -1.330	    -128.741	      -6.802	     -36.651	      -6.819	     -36.758	      -1.248	    -122.879
	31.500000000	      -1.300	    -129.729	      -6.880	     -37.648	      -6.892	     -37.735	      -1.226	    -123.891
	32.000000000	      -1.278	    -130.617	      -6.946	     -38.598	      -6.958	     -38.661	      -1.207	    -124.869
	32.500000000	      -1.273	    -131.596	      -7.005	     -39.548	      -7.020	     -39.600	      -1.176	    -125.801
	33.000000000	      -1.264	    -132.484	      -7.079	     -40.471	      -7.084	     -40.556	      -1.159	    -126.778
	33.500000000	      -1.238	    -133.405	      -7.153	     -41.416	      -7.168	     -41.506	      -1.148	    -127.772
	34.000000000	      -1.206	    -134.286	      -7.224	     -42.349	      -7.240	     -42.481	      -1.129	    -128.759
	34.500000000	      -1.182	    -135.253	      -7.299	     -43.310	      -7.312	     -43.447	      -1.108	    -129.691
	35.000000000	      -1.173	    -136.114	      -7.377	     -44.227	      -7.392	     -44.353	      -1.095	    -130.629
	35.500000000	      -1.162	    -136.982	      -7.456	     -45.054	      -7.472	     -45.167	      -1.077	    -131.523
	36.000000000	      -1.153	    -137.824	      -7.536	     -45.866	      -7.546	     -45.980	      -1.057	    -132.444
	36.500000000	      -1.125	    -138.609	      -7.601	     -46.703	      -7.615	     -46.858	      -1.046	    -133.336
	37.000000000	      -1.111	    -139.346	      -7.679	     -47.486	      -7.685	     -47.699	      -1.032	    -134.191
	37.500000000	      -1.105	    -140.119	      -7.751	     -48.378	      -7.770	     -48.548	      -1.026	    -135.024
	38.000000000	      -1.093	    -140.949	      -7.833	     -49.182	      -7.858	     -49.340	      -1.004	    -135.818
	38.500000000	      -1.070	    -141.852	      -7.914	     -50.046	      -7.940	     -50.229	      -0.987	    -136.701
	39.000000000	      -1.063	    -142.668	      -8.005	     -50.844	      -8.022	     -51.010	      -0.966	    -137.518
	39.500000000	      -1.072	    -143.264	      -8.092	     -51.659	      -8.109	     -51.806	      -0.943	    -138.362
	40.000000000	      -1.082	    -143.976	      -8.186	     -52.304	      -8.205	     -52.510	      -0.922	    -139.208
	40.500000000	      -1.078	    -144.741	      -8.272	     -52.921	      -8.276	     -53.109	      -0.905	    -139.987
	41.000000000	      -1.054	    -145.417	      -8.337	     -53.648	      -8.353	     -53.834	      -0.897	    -140.811
	41.500000000	      -1.034	    -145.960	      -8.416	     -54.392	      -8.434	     -54.485	      -0.888	    -141.590
	42.000000000	      -1.022	    -146.551	      -8.478	     -55.059	      -8.501	     -55.222	      -0.871	    -142.239
	42.500000000	      -1.025	    -147.236	      -8.547	     -55.837	      -8.577	     -55.933	      -0.849	    -142.827
	43.000000000	      -1.024	    -147.781	      -8.644	     -56.553	      -8.667	     -56.665	      -0.820	    -143.624
	43.500000000	      -0.997	    -148.341	      -8.728	     -57.141	      -8.742	     -57.283	      -0.818	    -144.494
	44.000000000	      -0.978	    -148.963	      -8.806	     -57.778	      -8.815	     -58.082	      -0.808	    -145.288
	44.500000000	      -0.979	    -149.694	      -8.883	     -58.483	      -8.892	     -58.647	      -0.790	    -145.957
	45.000000000	      -0.974	    -150.283	      -8.946	     -59.179	      -8.978	     -59.272	      -0.771	    -146.653
	45.500000000	      -0.943	    -151.779	      -9.216	     -60.313	      -9.224	     -60.416	      -0.762	    -147.922
	46.000000000	      -0.912	    -152.430	      -9.288	     -61.067	      -9.310	     -61.142	      -0.753	    -148.575
	46.500000000	      -0.902	    -153.147	      -9.395	     -61.755	      -9.415	     -61.873	      -0.715	    -149.201
	47.000000000	      -0.888	    -153.733	      -9.475	     -62.327	      -9.516	     -62.466	      -0.700	    -149.811
	47.500000000	      -0.889	    -154.365	      -9.579	     -62.946	      -9.624	     -63.100	      -0.679	    -150.509
	48.000000000	      -0.869	    -155.002	      -9.665	     -63.303	      -9.699	     -63.457	      -0.703	    -151.128
	48.500000000	      -0.861	    -155.650	      -9.739	     -63.791	      -9.762	     -63.942	      -0.678	    -151.713
	49.000000000	      -0.853	    -156.094	      -9.814	     -64.469	      -9.819	     -64.665	      -0.652	    -152.240
	49.500000000	      -0.866	    -156.592	      -9.878	     -65.333	      -9.908	     -65.327	      -0.642	    -152.991
	50.000000000	      -0.839	    -157.206	      -9.998	     -65.879	     -10.006	     -65.875	      -0.629	    -153.570
	50.500000000	      -0.832	    -157.708	     -10.102	     -66.190	     -10.095	     -66.529	      -0.645	    -154.203
	51.000000000	      -0.822	    -158.383	     -10.227	     -66.792	     -10.220	     -67.144	      -0.646	    -154.908
	51.500000000	      -0.822	    -158.762	     -10.244	     -67.211	     -10.281	     -67.280	      -0.638	    -155.455
	52.000000000	      -0.793	    -159.276	     -10.313	     -67.740	     -10.341	     -67.891	      -0.626	    -155.930
	52.500000000	      -0.801	    -159.940	     -10.411	     -68.182	     -10.418	     -68.486	      -0.614	    -156.342
	53.000000000	      -0.786	    -160.563	     -10.464	     -68.948	     -10.474	     -69.155	      -0.589	    -156.834
	53.500000000	      -0.796	    -160.998	     -10.532	     -69.493	     -10.577	     -69.570	      -0.566	    -157.417
	54.000000000	      -0.785	    -161.417	     -10.631	     -69.849	     -10.656	     -70.006	      -0.555	    -158.011
	54.500000000	      -0.790	    -161.988	     -10.713	     -70.293	     -10.729	     -70.551	      -0.531	    -158.456
	55.000000000	      -0.811	    -162.519	     -10.782	     -70.747	     -10.821	     -70.922	      -0.519	    -158.949
	55.500000000	      -0.798	    -162.986	     -10.845	     -71.092	     -10.882	     -71.433	      -0.512	    -159.563
	56.000000000	      -0.784	    -163.503	     -10.872	     -71.568	     -10.914	     -71.781	      -0.505	    -160.184
	56.500000000	      -0.773	    -163.790	     -10.940	     -71.964	     -10.976	     -72.757	      -0.509	    -160.820
	57.000000000	      -0.759	    -164.177	     -11.032	     -73.165	     -11.050	     -73.039	      -0.516	    -161.161
	57.500000000	      -0.747	    -164.704	     -11.068	     -73.468	     -11.116	     -73.614	      -0.493	    -161.723
	58.000000000	      -0.708	    -165.029	     -11.159	     -74.059	     -11.190	     -74.167	      -0.483	    -162.209
	58.500000000	      -0.686	    -165.481	     -11.233	     -74.596	     -11.250	     -74.898	      -0.476	    -162.772
	59.000000000	      -0.667	    -166.023	     -11.297	     -75.381	     -11.299	     -75.734	      -0.449	    -163.217
	59.500000000	      -0.664	    -166.481	     -11.387	     -75.785	     -11.407	     -76.104	      -0.449	    -163.693
	60.000000000	      -0.638	    -166.740	     -11.373	     -76.502	     -11.423	     -76.898	      -0.470	    -164.147
	60.500000000	      -0.608	    -167.413	     -11.516	     -77.114	     -11.536	     -77.359	      -0.463	    -164.460
	61.000000000	      -0.583	    -168.085	     -11.587	     -77.829	     -11.612	     -77.962	      -0.443	    -164.944
	61.500000000	      -0.581	    -168.574	     -11.697	     -78.328	     -11.704	     -78.393	      -0.429	    -165.390
	62.000000000	      -0.568	    -169.001	     -11.775	     -79.321	     -11.771	     -79.717	      -0.415	    -165.823
	62.500000000	      -0.578	    -169.528	     -11.894	     -80.020	     -11.885	     -80.302	      -0.420	    -166.268
	63.000000000	      -0.576	    -170.159	     -12.001	     -80.405	     -12.045	     -80.802	      -0.406	    -166.544
	63.500000000	      -0.556	    -170.596	     -12.089	     -80.649	     -12.114	     -81.077	      -0.385	    -167.284
	64.000000000	      -0.543	    -170.670	     -12.173	     -81.264	     -12.218	     -81.604	      -0.383	    -167.695
	64.500000000	      -0.500	    -171.132	     -12.263	     -81.657	     -12.310	     -81.859	      -0.375	    -167.950
	65.000000000	      -0.528	    -171.590	     -12.369	     -82.265	     -12.366	     -82.714	      -0.362	    -168.544
	65.500000000	      -0.536	    -172.164	     -12.516	     -83.115	     -12.610	     -83.339	      -0.388	    -169.365
	66.000000000	      -0.519	    -172.627	     -12.645	     -83.722	     -12.707	     -84.112	      -0.405	    -169.972
	66.500000000	      -0.527	    -172.967	     -12.747	     -83.435	     -12.818	     -83.903	      -0.432	    -170.166
	67.000000000	      -0.557	    -173.482	     -12.915	     -83.693	     -12.929	     -84.552	      -0.441	    -170.425
	67.500000000	      -0.586	    -174.363	     -13.012	     -84.243	     -13.022	     -84.363	      -0.474	    -170.956
	68.000000000	      -0.602	    -174.586	     -13.076	     -84.563	     -13.109	     -84.578	      -0.520	    -171.309
	68.500000000	      -0.618	    -174.888	     -13.160	     -84.947	     -13.217	     -84.820	      -0.534	    -171.484
	69.000000000	      -0.636	    -175.288	     -13.263	     -85.092	     -13.302	     -85.156	      -0.518	    -171.801
	69.500000000	      -0.632	    -175.696	     -13.384	     -85.432	     -13.406	     -85.450	      -0.528	    -172.009
	70.000000000	      -0.605	    -176.036	     -13.476	     -85.579	     -13.511	     -85.613	      -0.537	    -172.193
	70.500000000	      -0.585	    -176.485	     -13.577	     -85.738	     -13.602	     -85.660	      -0.522	    -172.374
	71.000000000	      -0.581	    -176.983	     -13.641	     -85.482	     -13.696	     -85.762	      -0.516	    -172.626
	71.500000000	      -0.562	    -177.567	     -13.686	     -85.976	     -13.745	     -85.928	      -0.478	    -172.850
	72.000000000	      -0.564	    -177.989	     -13.785	     -86.018	     -13.804	     -86.144	      -0.503	    -173.164
	72.500000000	      -0.580	    -178.386	     -13.825	     -86.252	     -13.850	     -86.454	      -0.502	    -173.535
	73.000000000	      -0.588	    -178.715	     -13.888	     -86.610	     -13.922	     -86.752	      -0.490	    -173.801
	73.500000000	      -0.597	    -179.038	     -13.976	     -86.994	     -14.001	     -87.181	      -0.450	    -174.137
	74.000000000	      -0.605	    -179.478	     -14.052	     -87.144	     -14.082	     -87.342	      -0.468	    -174.657
	74.500000000	      -0.639	    -179.824	     -14.093	     -87.221	     -14.121	     -87.431	      -0.492	    -174.982
	75.000000000	      -0.665	     179.915	     -14.121	     -87.487	     -14.144	     -87.697	      -0.484	    -175.188
	75.500000000	      -0.696	     179.683	     -14.151	     -88.103	     -14.170	     -88.226	      -0.487	    -175.445
	76.000000000	      -0.716	     179.576	     -14.201	     -89.050	     -14.222	     -89.172	      -0.500	    -175.783
	76.500000000	      -0.713	     179.496	     -14.354	     -90.155	     -14.374	     -90.176	      -0.524	    -175.976
	77.000000000	      -0.722	     179.398	     -14.574	     -90.810	     -14.601	     -90.883	      -0.516	    -176.129
	77.500000000	      -0.668	     179.124	     -14.814	     -90.520	     -14.833	     -90.513	      -0.487	    -176.274
	78.000000000	      -0.609	     178.859	     -14.967	     -89.749	     -14.982	     -89.738	      -0.473	    -176.383
	78.500000000	      -0.569	     178.352	     -15.032	     -89.153	     -15.063	     -89.231	      -0.467	    -176.802
	79.000000000	      -0.573	     177.869	     -15.079	     -88.803	     -15.111	     -88.894	      -0.462	    -177.102
	79.500000000	      -0.558	     177.417	     -15.109	     -88.589	     -15.131	     -88.621	      -0.452	    -177.359
